! Sonnet Data File
! From: emgraph Version : 15.53-Lite
! From Emgraph Data: micro_2
! Data File Written: 09/14/2014 16:21:40
!< HDATE 09/14/2014 13:11:56
!< MDATE 09/14/2014 13:16:03
# GHZ S RI R 50.00000
4.00000000 -0.80157 -0.18665 0.123964 -0.55425 0.123964 -0.55425 -0.80474 -0.17248
!< P1 F=4.0 Eeff=(7.93693475 -7.6937e-4) Z0=(18.3083421 8.89069e-4) R=0.16812883 C=0.01954508 
!< P2 F=4.0 Eeff=(7.93693475 -7.6937e-4) Z0=(18.3083421 8.89069e-4) R=0.16812883 C=0.01954508 
4.02000000 -0.80295 -0.18397 0.121734 -0.55364 0.121734 -0.55364 -0.80609 -0.16969
4.04000000 -0.80431 -0.18129 0.119521 -0.55302 0.119521 -0.55302 -0.80742 -0.16690
4.06000000 -0.80565 -0.17861 0.117323 -0.55242 0.117323 -0.55242 -0.80873 -0.16412
4.08000000 -0.80697 -0.17594 0.115142 -0.55181 0.115142 -0.55181 -0.81002 -0.16133
4.10000000 -0.80826 -0.17326 0.112975 -0.55121 0.112975 -0.55121 -0.81128 -0.15855
4.12000000 -0.80953 -0.17058 0.110824 -0.55062 0.110824 -0.55062 -0.81252 -0.15576
4.14000000 -0.81078 -0.16791 0.108688 -0.55003 0.108688 -0.55003 -0.81373 -0.15298
4.16000000 -0.81201 -0.16523 0.106566 -0.54944 0.106566 -0.54944 -0.81493 -0.15019
4.18000000 -0.81321 -0.16256 0.104459 -0.54886 0.104459 -0.54886 -0.81610 -0.14741
4.20000000 -0.81440 -0.15989 0.102365 -0.54828 0.102365 -0.54828 -0.81725 -0.14462
4.22000000 -0.81556 -0.15721 0.100286 -0.54771 0.100286 -0.54771 -0.81838 -0.14184
4.24000000 -0.81670 -0.15454 0.098220 -0.54714 0.098220 -0.54714 -0.81949 -0.13906
4.26000000 -0.81782 -0.15187 0.096167 -0.54658 0.096167 -0.54658 -0.82057 -0.13627
4.28000000 -0.81893 -0.14920 0.094128 -0.54602 0.094128 -0.54602 -0.82164 -0.13349
4.30000000 -0.82001 -0.14653 0.092101 -0.54547 0.092101 -0.54547 -0.82268 -0.13071
4.32000000 -0.82107 -0.14386 0.090087 -0.54492 0.090087 -0.54492 -0.82370 -0.12793
4.34000000 -0.82211 -0.14119 0.088086 -0.54438 0.088086 -0.54438 -0.82470 -0.12515
4.36000000 -0.82312 -0.13853 0.086096 -0.54384 0.086096 -0.54384 -0.82569 -0.12237
4.38000000 -0.82412 -0.13586 0.084119 -0.54331 0.084119 -0.54331 -0.82665 -0.11959
4.40000000 -0.82510 -0.13320 0.082153 -0.54279 0.082153 -0.54279 -0.82759 -0.11682
4.42000000 -0.82607 -0.13054 0.080199 -0.54227 0.080199 -0.54227 -0.82851 -0.11404
4.44000000 -0.82701 -0.12787 0.078255 -0.54175 0.078255 -0.54175 -0.82941 -0.11127
4.46000000 -0.82793 -0.12521 0.076323 -0.54124 0.076323 -0.54124 -0.83029 -0.10849
4.48000000 -0.82883 -0.12255 0.074402 -0.54074 0.074402 -0.54074 -0.83115 -0.10572
4.50000000 -0.82971 -0.11990 0.072491 -0.54024 0.072491 -0.54024 -0.83199 -0.10295
4.52000000 -0.83058 -0.11724 0.070591 -0.53975 0.070591 -0.53975 -0.83281 -0.10018
4.54000000 -0.83142 -0.11458 0.068701 -0.53926 0.068701 -0.53926 -0.83361 -0.09741
!< P1 F=4.54 Eeff=(7.93640497 -7.6928e-4) Z0=(18.303988 8.89314e-4) R=0.14796701 C=0.01951627 
!< P2 F=4.54 Eeff=(7.93640497 -7.6928e-4) Z0=(18.303988 8.89314e-4) R=0.14796701 C=0.01951627 
4.56000000 -0.83225 -0.11193 0.066820 -0.53878 0.066820 -0.53878 -0.83439 -0.09464
4.58000000 -0.83306 -0.10927 0.064950 -0.53830 0.064950 -0.53830 -0.83516 -0.09187
4.60000000 -0.83385 -0.10662 0.063089 -0.53783 0.063089 -0.53783 -0.83590 -0.08911
4.62000000 -0.83462 -0.10397 0.061237 -0.53737 0.061237 -0.53737 -0.83663 -0.08634
4.64000000 -0.83538 -0.10132 0.059394 -0.53691 0.059394 -0.53691 -0.83734 -0.08358
4.66000000 -0.83611 -0.09868 0.057561 -0.53646 0.057561 -0.53646 -0.83803 -0.08082
4.68000000 -0.83683 -0.09603 0.055736 -0.53601 0.055736 -0.53601 -0.83870 -0.07806
4.70000000 -0.83753 -0.09338 0.053919 -0.53557 0.053919 -0.53557 -0.83935 -0.07530
4.72000000 -0.83822 -0.09074 0.052111 -0.53514 0.052111 -0.53514 -0.83998 -0.07254
4.74000000 -0.83888 -0.08810 0.050311 -0.53471 0.050311 -0.53471 -0.84060 -0.06978
4.76000000 -0.83953 -0.08546 0.048519 -0.53429 0.048519 -0.53429 -0.84120 -0.06703
4.78000000 -0.84016 -0.08282 0.046735 -0.53387 0.046735 -0.53387 -0.84178 -0.06428
4.80000000 -0.84077 -0.08018 0.044958 -0.53346 0.044958 -0.53346 -0.84234 -0.06152
4.82000000 -0.84137 -0.07755 0.043188 -0.53306 0.043188 -0.53306 -0.84288 -0.05877
4.84000000 -0.84195 -0.07491 0.041426 -0.53266 0.041426 -0.53266 -0.84341 -0.05602
4.86000000 -0.84251 -0.07228 0.039670 -0.53227 0.039670 -0.53227 -0.84392 -0.05327
4.88000000 -0.84306 -0.06964 0.037922 -0.53189 0.037922 -0.53189 -0.84441 -0.05053
4.90000000 -0.84358 -0.06701 0.036180 -0.53151 0.036180 -0.53151 -0.84488 -0.04778
4.92000000 -0.84410 -0.06438 0.034444 -0.53114 0.034444 -0.53114 -0.84534 -0.04504
4.94000000 -0.84459 -0.06176 0.032715 -0.53077 0.032715 -0.53077 -0.84578 -0.04229
4.96000000 -0.84507 -0.05913 0.030992 -0.53041 0.030992 -0.53041 -0.84621 -0.03955
4.98000000 -0.84553 -0.05651 0.029274 -0.53006 0.029274 -0.53006 -0.84661 -0.03681
5.00000000 -0.84598 -0.05388 0.027563 -0.52971 0.027563 -0.52971 -0.84700 -0.03407
5.02000000 -0.84641 -0.05126 0.025857 -0.52937 0.025857 -0.52937 -0.84737 -0.03133
5.04000000 -0.84682 -0.04864 0.024156 -0.52903 0.024156 -0.52903 -0.84773 -0.02860
5.06000000 -0.84722 -0.04602 0.022460 -0.52871 0.022460 -0.52871 -0.84807 -0.02586
5.08000000 -0.84760 -0.04340 0.020770 -0.52838 0.020770 -0.52838 -0.84839 -0.02313
5.10000000 -0.84797 -0.04079 0.019084 -0.52807 0.019084 -0.52807 -0.84870 -0.02040
5.12000000 -0.84832 -0.03817 0.017403 -0.52776 0.017403 -0.52776 -0.84899 -0.01766
5.14000000 -0.84865 -0.03556 0.015726 -0.52746 0.015726 -0.52746 -0.84926 -0.01493
5.16000000 -0.84897 -0.03294 0.014054 -0.52716 0.014054 -0.52716 -0.84952 -0.01221
5.18000000 -0.84928 -0.03033 0.012386 -0.52687 0.012386 -0.52687 -0.84976 -9.48e-3
5.20000000 -0.84956 -0.02772 0.010722 -0.52659 0.010722 -0.52659 -0.84998 -6.75e-3
5.22000000 -0.84983 -0.02511 0.009061 -0.52631 0.009061 -0.52631 -0.85019 -4.03e-3
5.24000000 -0.85009 -0.02251 0.007405 -0.52604 0.007405 -0.52604 -0.85038 -1.30e-3
5.26000000 -0.85033 -0.01990 0.005751 -0.52578 0.005751 -0.52578 -0.85056 0.001421
5.28000000 -0.85056 -0.01729 0.004102 -0.52552 0.004102 -0.52552 -0.85071 0.004142
5.30000000 -0.85077 -0.01469 0.002455 -0.52527 0.002455 -0.52527 -0.85086 0.006863
5.32000000 -0.85096 -0.01209 8.112e-4 -0.52503 8.112e-4 -0.52503 -0.85099 0.009582
5.34000000 -0.85114 -9.49e-3 -8.30e-4 -0.52479 -8.30e-4 -0.52479 -0.85110 0.012300
5.36000000 -0.85130 -6.89e-3 -2.47e-3 -0.52456 -2.47e-3 -0.52456 -0.85119 0.015017
5.38000000 -0.85145 -4.29e-3 -4.10e-3 -0.52433 -4.10e-3 -0.52433 -0.85127 0.017734
5.40000000 -0.85159 -1.69e-3 -5.74e-3 -0.52411 -5.74e-3 -0.52411 -0.85134 0.020449
5.42000000 -0.85170 9.056e-4 -7.37e-3 -0.52390 -7.37e-3 -0.52390 -0.85139 0.023162
5.44000000 -0.85181 0.003501 -9.00e-3 -0.52370 -9.00e-3 -0.52370 -0.85142 0.025875
5.46000000 -0.85190 0.006095 -0.01062 -0.52350 -0.01062 -0.52350 -0.85143 0.028587
5.48000000 -0.85197 0.008689 -0.01225 -0.52331 -0.01225 -0.52331 -0.85144 0.031298
5.50000000 -0.85203 0.011281 -0.01387 -0.52312 -0.01387 -0.52312 -0.85142 0.034008
5.52000000 -0.85207 0.013872 -0.01550 -0.52294 -0.01550 -0.52294 -0.85139 0.036717
5.54000000 -0.85210 0.016462 -0.01712 -0.52277 -0.01712 -0.52277 -0.85134 0.039425
5.56000000 -0.85211 0.019051 -0.01874 -0.52260 -0.01874 -0.52260 -0.85128 0.042133
5.58000000 -0.85211 0.021639 -0.02036 -0.52244 -0.02036 -0.52244 -0.85121 0.044839
5.60000000 -0.85210 0.024226 -0.02198 -0.52229 -0.02198 -0.52229 -0.85111 0.047544
5.62000000 -0.85206 0.026812 -0.02359 -0.52214 -0.02359 -0.52214 -0.85100 0.050249
!< P1 F=5.62 Eeff=(7.93512346 -7.6907e-4) Z0=(18.2936683 8.89877e-4) R=0.119297 C=0.01944914 
!< P2 F=5.62 Eeff=(7.93512346 -7.6907e-4) Z0=(18.2936683 8.89877e-4) R=0.119297 C=0.01944914 
5.64000000 -0.85202 0.029397 -0.02521 -0.52200 -0.02521 -0.52200 -0.85088 0.052952
5.66000000 -0.85196 0.031982 -0.02683 -0.52186 -0.02683 -0.52186 -0.85074 0.055655
5.68000000 -0.85188 0.034565 -0.02845 -0.52174 -0.02845 -0.52174 -0.85058 0.058357
5.70000000 -0.85179 0.037147 -0.03006 -0.52162 -0.03006 -0.52162 -0.85041 0.061059
5.72000000 -0.85169 0.039729 -0.03168 -0.52150 -0.03168 -0.52150 -0.85023 0.063759
5.74000000 -0.85157 0.042310 -0.03330 -0.52139 -0.03330 -0.52139 -0.85002 0.066459
5.76000000 -0.85143 0.044889 -0.03492 -0.52129 -0.03492 -0.52129 -0.84981 0.069158
5.78000000 -0.85128 0.047469 -0.03654 -0.52119 -0.03654 -0.52119 -0.84957 0.071856
5.80000000 -0.85112 0.050047 -0.03816 -0.52111 -0.03816 -0.52111 -0.84932 0.074554
5.82000000 -0.85094 0.052624 -0.03978 -0.52102 -0.03978 -0.52102 -0.84906 0.077250
5.84000000 -0.85074 0.055201 -0.04140 -0.52095 -0.04140 -0.52095 -0.84878 0.079947
5.86000000 -0.85053 0.057777 -0.04302 -0.52088 -0.04302 -0.52088 -0.84848 0.082642
5.88000000 -0.85031 0.060352 -0.04465 -0.52081 -0.04465 -0.52081 -0.84817 0.085337
5.90000000 -0.85007 0.062927 -0.04627 -0.52076 -0.04627 -0.52076 -0.84784 0.088031
5.92000000 -0.84982 0.065501 -0.04790 -0.52070 -0.04790 -0.52070 -0.84750 0.090725
5.94000000 -0.84955 0.068074 -0.04953 -0.52066 -0.04953 -0.52066 -0.84714 0.093418
5.96000000 -0.84926 0.070647 -0.05116 -0.52062 -0.05116 -0.52062 -0.84677 0.096111
5.98000000 -0.84897 0.073219 -0.05280 -0.52059 -0.05280 -0.52059 -0.84638 0.098803
6.00000000 -0.84865 0.075790 -0.05443 -0.52056 -0.05443 -0.52056 -0.84597 0.101494
6.02000000 -0.84832 0.078361 -0.05607 -0.52054 -0.05607 -0.52054 -0.84555 0.104185
6.04000000 -0.84798 0.080931 -0.05772 -0.52053 -0.05772 -0.52053 -0.84511 0.106875
6.06000000 -0.84762 0.083500 -0.05936 -0.52052 -0.05936 -0.52052 -0.84466 0.109565
6.08000000 -0.84725 0.086069 -0.06101 -0.52052 -0.06101 -0.52052 -0.84419 0.112255
6.10000000 -0.84686 0.088638 -0.06266 -0.52053 -0.06266 -0.52053 -0.84370 0.114943
6.12000000 -0.84646 0.091206 -0.06431 -0.52054 -0.06431 -0.52054 -0.84320 0.117632
6.14000000 -0.84604 0.093773 -0.06597 -0.52056 -0.06597 -0.52056 -0.84268 0.120320
6.16000000 -0.84560 0.096340 -0.06763 -0.52058 -0.06763 -0.52058 -0.84214 0.123007
6.18000000 -0.84515 0.098906 -0.06930 -0.52061 -0.06930 -0.52061 -0.84159 0.125694
6.20000000 -0.84469 0.101472 -0.07097 -0.52065 -0.07097 -0.52065 -0.84103 0.128381
6.22000000 -0.84421 0.104038 -0.07264 -0.52069 -0.07264 -0.52069 -0.84044 0.131067
6.24000000 -0.84371 0.106603 -0.07432 -0.52074 -0.07432 -0.52074 -0.83984 0.133753
6.26000000 -0.84320 0.109167 -0.07600 -0.52079 -0.07600 -0.52079 -0.83923 0.136438
6.28000000 -0.84267 0.111731 -0.07769 -0.52085 -0.07769 -0.52085 -0.83859 0.139123
6.30000000 -0.84213 0.114295 -0.07938 -0.52092 -0.07938 -0.52092 -0.83794 0.141808
6.32000000 -0.84157 0.116858 -0.08108 -0.52099 -0.08108 -0.52099 -0.83728 0.144492
6.34000000 -0.84100 0.119421 -0.08278 -0.52107 -0.08278 -0.52107 -0.83660 0.147175
6.36000000 -0.84041 0.121984 -0.08449 -0.52115 -0.08449 -0.52115 -0.83590 0.149859
6.38000000 -0.83980 0.124546 -0.08621 -0.52124 -0.08621 -0.52124 -0.83518 0.152542
6.40000000 -0.83918 0.127107 -0.08793 -0.52133 -0.08793 -0.52133 -0.83445 0.155224
6.42000000 -0.83854 0.129668 -0.08965 -0.52144 -0.08965 -0.52144 -0.83370 0.157906
6.44000000 -0.83789 0.132229 -0.09138 -0.52154 -0.09138 -0.52154 -0.83293 0.160588
6.46000000 -0.83722 0.134790 -0.09312 -0.52165 -0.09312 -0.52165 -0.83214 0.163269
6.48000000 -0.83654 0.137350 -0.09486 -0.52177 -0.09486 -0.52177 -0.83134 0.165950
6.50000000 -0.83583 0.139910 -0.09661 -0.52190 -0.09661 -0.52190 -0.83052 0.168630
6.52000000 -0.83512 0.142469 -0.09837 -0.52203 -0.09837 -0.52203 -0.82969 0.171310
6.54000000 -0.83438 0.145028 -0.10013 -0.52216 -0.10013 -0.52216 -0.82883 0.173990
6.56000000 -0.83363 0.147586 -0.10191 -0.52230 -0.10191 -0.52230 -0.82796 0.176669
6.58000000 -0.83286 0.150144 -0.10368 -0.52245 -0.10368 -0.52245 -0.82707 0.179348
6.60000000 -0.83208 0.152702 -0.10547 -0.52260 -0.10547 -0.52260 -0.82616 0.182026
6.62000000 -0.83128 0.155260 -0.10727 -0.52276 -0.10727 -0.52276 -0.82524 0.184704
6.64000000 -0.83046 0.157816 -0.10907 -0.52292 -0.10907 -0.52292 -0.82429 0.187381
6.66000000 -0.82962 0.160373 -0.11088 -0.52309 -0.11088 -0.52309 -0.82333 0.190058
6.68000000 -0.82877 0.162929 -0.11269 -0.52326 -0.11269 -0.52326 -0.82235 0.192734
6.70000000 -0.82790 0.165485 -0.11452 -0.52344 -0.11452 -0.52344 -0.82136 0.195410
6.72000000 -0.82701 0.168040 -0.11636 -0.52362 -0.11636 -0.52362 -0.82034 0.198085
6.74000000 -0.82611 0.170594 -0.11820 -0.52381 -0.11820 -0.52381 -0.81930 0.200759
6.76000000 -0.82519 0.173149 -0.12005 -0.52400 -0.12005 -0.52400 -0.81825 0.203433
6.78000000 -0.82425 0.175702 -0.12192 -0.52420 -0.12192 -0.52420 -0.81718 0.206106
6.80000000 -0.82329 0.178256 -0.12379 -0.52441 -0.12379 -0.52441 -0.81609 0.208779
6.82000000 -0.82232 0.180808 -0.12567 -0.52461 -0.12567 -0.52461 -0.81498 0.211451
6.84000000 -0.82132 0.183360 -0.12756 -0.52483 -0.12756 -0.52483 -0.81385 0.214122
6.86000000 -0.82031 0.185912 -0.12946 -0.52505 -0.12946 -0.52505 -0.81270 0.216793
6.88000000 -0.81928 0.188463 -0.13137 -0.52527 -0.13137 -0.52527 -0.81153 0.219462
6.90000000 -0.81824 0.191013 -0.13329 -0.52550 -0.13329 -0.52550 -0.81034 0.222131
6.92000000 -0.81717 0.193562 -0.13523 -0.52573 -0.13523 -0.52573 -0.80913 0.224799
6.94000000 -0.81608 0.196111 -0.13717 -0.52596 -0.13717 -0.52596 -0.80791 0.227466
6.96000000 -0.81498 0.198659 -0.13912 -0.52621 -0.13912 -0.52621 -0.80666 0.230132
6.98000000 -0.81386 0.201207 -0.14109 -0.52645 -0.14109 -0.52645 -0.80539 0.232797
!< P1 F=6.98 Eeff=(7.93305765 -7.6872e-4) Z0=(18.2776426 8.90744e-4) R=0.09576614 C=0.01934826 
!< P2 F=6.98 Eeff=(7.93305765 -7.6872e-4) Z0=(18.2776426 8.90744e-4) R=0.09576614 C=0.01934826 
7.00000000 -0.81272 0.203753 -0.14307 -0.52670 -0.14307 -0.52670 -0.80410 0.235462
7.02000000 -0.81156 0.206299 -0.14505 -0.52695 -0.14505 -0.52695 -0.80280 0.238125
7.04000000 -0.81038 0.208844 -0.14705 -0.52721 -0.14705 -0.52721 -0.80147 0.240788
7.06000000 -0.80918 0.211388 -0.14907 -0.52748 -0.14907 -0.52748 -0.80012 0.243449
7.08000000 -0.80797 0.213930 -0.15109 -0.52774 -0.15109 -0.52774 -0.79875 0.246109
7.10000000 -0.80673 0.216472 -0.15313 -0.52801 -0.15313 -0.52801 -0.79736 0.248767
7.12000000 -0.80547 0.219013 -0.15518 -0.52829 -0.15518 -0.52829 -0.79594 0.251425
7.14000000 -0.80419 0.221553 -0.15724 -0.52856 -0.15724 -0.52856 -0.79451 0.254080
7.16000000 -0.80290 0.224092 -0.15932 -0.52885 -0.15932 -0.52885 -0.79305 0.256735
7.18000000 -0.80158 0.226629 -0.16140 -0.52913 -0.16140 -0.52913 -0.79158 0.259388
7.20000000 -0.80024 0.229165 -0.16351 -0.52942 -0.16351 -0.52942 -0.79008 0.262039
7.22000000 -0.79888 0.231700 -0.16562 -0.52971 -0.16562 -0.52971 -0.78856 0.264689
7.24000000 -0.79750 0.234233 -0.16776 -0.53001 -0.16776 -0.53001 -0.78701 0.267337
7.26000000 -0.79610 0.236765 -0.16990 -0.53030 -0.16990 -0.53030 -0.78545 0.269983
7.28000000 -0.79468 0.239296 -0.17206 -0.53061 -0.17206 -0.53061 -0.78386 0.272627
7.30000000 -0.79324 0.241824 -0.17424 -0.53091 -0.17424 -0.53091 -0.78225 0.275269
7.32000000 -0.79177 0.244351 -0.17643 -0.53122 -0.17643 -0.53122 -0.78061 0.277909
7.34000000 -0.79029 0.246877 -0.17863 -0.53153 -0.17863 -0.53153 -0.77895 0.280547
7.36000000 -0.78878 0.249400 -0.18085 -0.53184 -0.18085 -0.53184 -0.77727 0.283182
7.38000000 -0.78725 0.251922 -0.18309 -0.53215 -0.18309 -0.53215 -0.77557 0.285815
7.40000000 -0.78569 0.254441 -0.18534 -0.53247 -0.18534 -0.53247 -0.77384 0.288446
7.42000000 -0.78412 0.256959 -0.18761 -0.53279 -0.18761 -0.53279 -0.77209 0.291074
7.44000000 -0.78252 0.259474 -0.18990 -0.53311 -0.18990 -0.53311 -0.77031 0.293699
7.46000000 -0.78090 0.261986 -0.19220 -0.53344 -0.19220 -0.53344 -0.76851 0.296321
7.48000000 -0.77925 0.264497 -0.19452 -0.53376 -0.19452 -0.53376 -0.76668 0.298941
7.50000000 -0.77759 0.267005 -0.19686 -0.53409 -0.19686 -0.53409 -0.76483 0.301557
7.52000000 -0.77589 0.269510 -0.19922 -0.53442 -0.19922 -0.53442 -0.76295 0.304170
7.54000000 -0.77418 0.272012 -0.20159 -0.53475 -0.20159 -0.53475 -0.76105 0.306780
7.56000000 -0.77244 0.274511 -0.20398 -0.53508 -0.20398 -0.53508 -0.75912 0.309386
7.58000000 -0.77068 0.277008 -0.20639 -0.53541 -0.20639 -0.53541 -0.75717 0.311989
7.60000000 -0.76889 0.279501 -0.20882 -0.53574 -0.20882 -0.53574 -0.75519 0.314587
7.62000000 -0.76707 0.281991 -0.21127 -0.53608 -0.21127 -0.53608 -0.75318 0.317182
7.64000000 -0.76524 0.284478 -0.21374 -0.53641 -0.21374 -0.53641 -0.75115 0.319773
7.66000000 -0.76337 0.286961 -0.21622 -0.53674 -0.21622 -0.53674 -0.74909 0.322359
7.68000000 -0.76148 0.289440 -0.21873 -0.53708 -0.21873 -0.53708 -0.74700 0.324941
7.70000000 -0.75957 0.291915 -0.22126 -0.53741 -0.22126 -0.53741 -0.74489 0.327518
7.72000000 -0.75763 0.294386 -0.22381 -0.53775 -0.22381 -0.53775 -0.74275 0.330091
7.74000000 -0.75566 0.296853 -0.22638 -0.53808 -0.22638 -0.53808 -0.74058 0.332658
7.76000000 -0.75367 0.299316 -0.22897 -0.53841 -0.22897 -0.53841 -0.73838 0.335221
7.78000000 -0.75165 0.301774 -0.23158 -0.53874 -0.23158 -0.53874 -0.73616 0.337778
7.80000000 -0.74961 0.304227 -0.23421 -0.53907 -0.23421 -0.53907 -0.73390 0.340329
7.82000000 -0.74753 0.306676 -0.23687 -0.53940 -0.23687 -0.53940 -0.73162 0.342875
7.84000000 -0.74543 0.309119 -0.23955 -0.53973 -0.23955 -0.53973 -0.72930 0.345414
7.86000000 -0.74330 0.311557 -0.24225 -0.54006 -0.24225 -0.54006 -0.72696 0.347947
7.88000000 -0.74114 0.313989 -0.24497 -0.54038 -0.24497 -0.54038 -0.72459 0.350474
7.90000000 -0.73896 0.316415 -0.24772 -0.54070 -0.24772 -0.54070 -0.72219 0.352994
7.92000000 -0.73675 0.318836 -0.25049 -0.54102 -0.25049 -0.54102 -0.71976 0.355507
7.94000000 -0.73450 0.321250 -0.25329 -0.54133 -0.25329 -0.54133 -0.71729 0.358012
7.96000000 -0.73223 0.323658 -0.25611 -0.54165 -0.25611 -0.54165 -0.71480 0.360511
7.98000000 -0.72993 0.326059 -0.25895 -0.54196 -0.25895 -0.54196 -0.71227 0.363001
8.00000000 -0.72760 0.328453 -0.26182 -0.54226 -0.26182 -0.54226 -0.70972 0.365483
!< P1 F=8.0 Eeff=(7.93114855 -7.6838e-4) Z0=(18.2634215 8.91507e-4) R=0.0833648 C=0.01926225 
!< P2 F=8.0 Eeff=(7.93114855 -7.6838e-4) Z0=(18.2634215 8.91507e-4) R=0.0833648 C=0.01926225 
