! Sonnet Data File
! From: emgraph Version : 15.53-Lite
! From Emgraph Data: micro
! Data File Written: 09/15/2014 11:53:52
!< HDATE 09/15/2014 11:53:18
!< MDATE 09/15/2014 11:53:18
# GHZ S RI R 50.00000
4.00000000 0.097751 0.053541 0.538157 -0.83539 0.538157 -0.83539 0.089126 0.066933
!< P1 F=4.0 Eeff=(6.1975274 -5.7859e-4) Z0=(67.8871587 0.00316838) R=0.08298377 C=0.04148466 
!< P2 F=4.0 Eeff=(6.1975274 -5.7859e-4) Z0=(67.8871587 0.00316838) R=0.08298377 C=0.04148466 
4.02000000 0.098227 0.053102 0.533980 -0.83804 0.533980 -0.83804 0.089589 0.066660
4.04000000 0.098696 0.052655 0.529790 -0.84067 0.529790 -0.84067 0.090048 0.066381
4.06000000 0.099160 0.052203 0.525587 -0.84327 0.525587 -0.84327 0.090503 0.066097
4.08000000 0.099618 0.051745 0.521371 -0.84586 0.521371 -0.84586 0.090952 0.065808
4.10000000 0.100070 0.051281 0.517143 -0.84843 0.517143 -0.84843 0.091397 0.065514
4.12000000 0.100516 0.050811 0.512902 -0.85097 0.512902 -0.85097 0.091837 0.065214
4.14000000 0.100955 0.050335 0.508649 -0.85350 0.508649 -0.85350 0.092272 0.064910
4.16000000 0.101389 0.049853 0.504383 -0.85600 0.504383 -0.85600 0.092701 0.064600
4.18000000 0.101815 0.049366 0.500106 -0.85849 0.500106 -0.85849 0.093126 0.064286
4.20000000 0.102236 0.048873 0.495816 -0.86095 0.495816 -0.86095 0.093546 0.063967
4.22000000 0.102650 0.048374 0.491513 -0.86339 0.491513 -0.86339 0.093960 0.063642
4.24000000 0.103057 0.047870 0.487199 -0.86581 0.487199 -0.86581 0.094369 0.063314
4.26000000 0.103458 0.047360 0.482874 -0.86821 0.482874 -0.86821 0.094773 0.062980
4.28000000 0.103852 0.046845 0.478536 -0.87059 0.478536 -0.87059 0.095172 0.062642
4.30000000 0.104239 0.046325 0.474186 -0.87295 0.474186 -0.87295 0.095565 0.062299
4.32000000 0.104620 0.045799 0.469825 -0.87529 0.469825 -0.87529 0.095952 0.061952
4.34000000 0.104993 0.045268 0.465453 -0.87760 0.465453 -0.87760 0.096334 0.061600
4.36000000 0.105360 0.044733 0.461069 -0.87990 0.461069 -0.87990 0.096711 0.061244
4.38000000 0.105720 0.044192 0.456674 -0.88217 0.456674 -0.88217 0.097082 0.060883
4.40000000 0.106072 0.043646 0.452267 -0.88442 0.452267 -0.88442 0.097447 0.060518
4.42000000 0.106418 0.043096 0.447850 -0.88665 0.447850 -0.88665 0.097806 0.060149
4.44000000 0.106756 0.042540 0.443421 -0.88886 0.443421 -0.88886 0.098160 0.059776
4.46000000 0.107087 0.041980 0.438981 -0.89105 0.438981 -0.89105 0.098508 0.059399
4.48000000 0.107411 0.041415 0.434531 -0.89321 0.434531 -0.89321 0.098850 0.059018
4.50000000 0.107727 0.040846 0.430069 -0.89536 0.430069 -0.89536 0.099186 0.058632
4.52000000 0.108036 0.040272 0.425597 -0.89748 0.425597 -0.89748 0.099516 0.058243
4.54000000 0.108337 0.039694 0.421115 -0.89958 0.421115 -0.89958 0.099840 0.057850
4.56000000 0.108631 0.039111 0.416622 -0.90166 0.416622 -0.90166 0.100158 0.057454
4.58000000 0.108917 0.038525 0.412119 -0.90372 0.412119 -0.90372 0.100470 0.057053
4.60000000 0.109196 0.037934 0.407605 -0.90575 0.407605 -0.90575 0.100776 0.056649
4.62000000 0.109467 0.037339 0.403081 -0.90777 0.403081 -0.90777 0.101076 0.056242
4.64000000 0.109730 0.036740 0.398547 -0.90976 0.398547 -0.90976 0.101369 0.055831
4.66000000 0.109986 0.036137 0.394003 -0.91173 0.394003 -0.91173 0.101656 0.055416
4.68000000 0.110233 0.035530 0.389449 -0.91368 0.389449 -0.91368 0.101937 0.054999
4.70000000 0.110473 0.034919 0.384885 -0.91561 0.384885 -0.91561 0.102211 0.054578
4.72000000 0.110705 0.034305 0.380312 -0.91751 0.380312 -0.91751 0.102479 0.054153
!< P1 F=4.72 Eeff=(6.20784673 -5.8085e-4) Z0=(67.8365746 0.00317229) R=0.07019647 C=0.04136452 
!< P2 F=4.72 Eeff=(6.20784673 -5.8085e-4) Z0=(67.8365746 0.00317229) R=0.07019647 C=0.04136452 
4.74000000 0.110928 0.033687 0.375728 -0.91939 0.375728 -0.91939 0.102741 0.053726
4.76000000 0.111144 0.033066 0.371136 -0.92125 0.371136 -0.92125 0.102996 0.053296
4.78000000 0.111351 0.032442 0.366533 -0.92309 0.366533 -0.92309 0.103245 0.052862
4.80000000 0.111551 0.031814 0.361922 -0.92490 0.361922 -0.92490 0.103487 0.052426
4.82000000 0.111742 0.031182 0.357301 -0.92670 0.357301 -0.92670 0.103723 0.051987
4.84000000 0.111925 0.030548 0.352671 -0.92847 0.352671 -0.92847 0.103951 0.051545
4.86000000 0.112100 0.029911 0.348032 -0.93022 0.348032 -0.93022 0.104174 0.051100
4.88000000 0.112266 0.029270 0.343384 -0.93194 0.343384 -0.93194 0.104389 0.050653
4.90000000 0.112424 0.028627 0.338727 -0.93365 0.338727 -0.93365 0.104598 0.050203
4.92000000 0.112574 0.027981 0.334061 -0.93533 0.334061 -0.93533 0.104800 0.049751
4.94000000 0.112715 0.027332 0.329387 -0.93698 0.329387 -0.93698 0.104996 0.049296
4.96000000 0.112848 0.026681 0.324704 -0.93862 0.324704 -0.93862 0.105184 0.048839
4.98000000 0.112972 0.026027 0.320012 -0.94023 0.320012 -0.94023 0.105366 0.048380
5.00000000 0.113088 0.025371 0.315313 -0.94182 0.315313 -0.94182 0.105541 0.047919
5.02000000 0.113195 0.024712 0.310604 -0.94339 0.310604 -0.94339 0.105709 0.047455
5.04000000 0.113294 0.024051 0.305888 -0.94494 0.305888 -0.94494 0.105870 0.046990
5.06000000 0.113384 0.023388 0.301163 -0.94646 0.301163 -0.94646 0.106024 0.046523
5.08000000 0.113465 0.022723 0.296431 -0.94796 0.296431 -0.94796 0.106171 0.046053
5.10000000 0.113537 0.022056 0.291690 -0.94943 0.291690 -0.94943 0.106311 0.045582
5.12000000 0.113601 0.021387 0.286942 -0.95089 0.286942 -0.95089 0.106444 0.045110
5.14000000 0.113656 0.020717 0.282186 -0.95232 0.282186 -0.95232 0.106570 0.044635
5.16000000 0.113702 0.020044 0.277422 -0.95372 0.277422 -0.95372 0.106689 0.044160
5.18000000 0.113739 0.019370 0.272651 -0.95511 0.272651 -0.95511 0.106801 0.043682
5.20000000 0.113768 0.018695 0.267872 -0.95647 0.267872 -0.95647 0.106905 0.043204
5.22000000 0.113787 0.018018 0.263086 -0.95781 0.263086 -0.95781 0.107003 0.042724
5.24000000 0.113798 0.017340 0.258293 -0.95912 0.258293 -0.95912 0.107093 0.042243
5.26000000 0.113800 0.016661 0.253493 -0.96041 0.253493 -0.96041 0.107177 0.041760
5.28000000 0.113792 0.015981 0.248685 -0.96168 0.248685 -0.96168 0.107253 0.041277
5.30000000 0.113776 0.015300 0.243871 -0.96293 0.243871 -0.96293 0.107321 0.040793
5.32000000 0.113751 0.014617 0.239050 -0.96415 0.239050 -0.96415 0.107383 0.040307
5.34000000 0.113717 0.013934 0.234222 -0.96534 0.234222 -0.96534 0.107437 0.039821
5.36000000 0.113674 0.013251 0.229387 -0.96652 0.229387 -0.96652 0.107485 0.039335
5.38000000 0.113621 0.012566 0.224546 -0.96767 0.224546 -0.96767 0.107524 0.038847
5.40000000 0.113560 0.011882 0.219698 -0.96880 0.219698 -0.96880 0.107557 0.038359
5.42000000 0.113489 0.011197 0.214844 -0.96990 0.214844 -0.96990 0.107582 0.037871
5.44000000 0.113410 0.010511 0.209984 -0.97098 0.209984 -0.97098 0.107600 0.037382
5.46000000 0.113321 0.009825 0.205118 -0.97204 0.205118 -0.97204 0.107611 0.036893
5.48000000 0.113223 0.009140 0.200245 -0.97307 0.200245 -0.97307 0.107614 0.036404
5.50000000 0.113116 0.008454 0.195367 -0.97408 0.195367 -0.97408 0.107610 0.035914
5.52000000 0.113000 0.007768 0.190483 -0.97507 0.190483 -0.97507 0.107599 0.035425
5.54000000 0.112875 0.007083 0.185593 -0.97603 0.185593 -0.97603 0.107580 0.034935
5.56000000 0.112740 0.006398 0.180697 -0.97697 0.180697 -0.97697 0.107554 0.034446
5.58000000 0.112596 0.005713 0.175796 -0.97788 0.175796 -0.97788 0.107521 0.033957
5.60000000 0.112444 0.005029 0.170889 -0.97877 0.170889 -0.97877 0.107480 0.033468
5.62000000 0.112282 0.004346 0.165977 -0.97964 0.165977 -0.97964 0.107432 0.032979
5.64000000 0.112110 0.003663 0.161060 -0.98048 0.161060 -0.98048 0.107377 0.032491
5.66000000 0.111930 0.002981 0.156138 -0.98130 0.156138 -0.98130 0.107314 0.032003
5.68000000 0.111740 0.002300 0.151211 -0.98210 0.151211 -0.98210 0.107244 0.031517
5.70000000 0.111541 0.001620 0.146279 -0.98287 0.146279 -0.98287 0.107166 0.031030
5.72000000 0.111333 9.408e-4 0.141342 -0.98361 0.141342 -0.98361 0.107082 0.030545
5.74000000 0.111116 2.632e-4 0.136400 -0.98433 0.136400 -0.98433 0.106989 0.030060
5.76000000 0.110890 -4.13e-4 0.131454 -0.98503 0.131454 -0.98503 0.106890 0.029576
5.78000000 0.110654 -1.09e-3 0.126503 -0.98571 0.126503 -0.98571 0.106783 0.029094
5.80000000 0.110409 -1.76e-3 0.121547 -0.98635 0.121547 -0.98635 0.106669 0.028612
5.82000000 0.110155 -2.43e-3 0.116588 -0.98698 0.116588 -0.98698 0.106547 0.028132
5.84000000 0.109892 -3.10e-3 0.111624 -0.98758 0.111624 -0.98758 0.106418 0.027653
!< P1 F=5.84 Eeff=(6.22720706 -5.8507e-4) Z0=(67.7461975 0.00317874) R=0.05653959 C=0.04114017 
!< P2 F=5.84 Eeff=(6.22720706 -5.8507e-4) Z0=(67.7461975 0.00317874) R=0.05653959 C=0.04114017 
5.86000000 0.109620 -3.77e-3 0.106656 -0.98816 0.106656 -0.98816 0.106282 0.027175
5.88000000 0.109338 -4.44e-3 0.101685 -0.98871 0.101685 -0.98871 0.106139 0.026699
5.90000000 0.109048 -5.10e-3 0.096709 -0.98924 0.096709 -0.98924 0.105988 0.026225
5.92000000 0.108748 -5.76e-3 0.091730 -0.98974 0.091730 -0.98974 0.105830 0.025752
5.94000000 0.108439 -6.42e-3 0.086747 -0.99022 0.086747 -0.99022 0.105664 0.025280
5.96000000 0.108121 -7.08e-3 0.081760 -0.99067 0.081760 -0.99067 0.105492 0.024811
5.98000000 0.107794 -7.73e-3 0.076770 -0.99110 0.076770 -0.99110 0.105312 0.024343
6.00000000 0.107458 -8.39e-3 0.071777 -0.99151 0.071777 -0.99151 0.105125 0.023878
6.02000000 0.107112 -9.04e-3 0.066780 -0.99189 0.066780 -0.99189 0.104930 0.023414
6.04000000 0.106758 -9.68e-3 0.061781 -0.99224 0.061781 -0.99224 0.104729 0.022953
6.06000000 0.106395 -0.01033 0.056778 -0.99258 0.056778 -0.99258 0.104520 0.022494
6.08000000 0.106022 -0.01097 0.051772 -0.99288 0.051772 -0.99288 0.104304 0.022037
6.10000000 0.105641 -0.01160 0.046764 -0.99316 0.046764 -0.99316 0.104081 0.021582
6.12000000 0.105251 -0.01224 0.041753 -0.99342 0.041753 -0.99342 0.103851 0.021130
6.14000000 0.104851 -0.01287 0.036739 -0.99365 0.036739 -0.99365 0.103614 0.020681
6.16000000 0.104443 -0.01350 0.031723 -0.99386 0.031723 -0.99386 0.103370 0.020234
6.18000000 0.104026 -0.01412 0.026705 -0.99404 0.026705 -0.99404 0.103118 0.019790
6.20000000 0.103600 -0.01474 0.021685 -0.99420 0.021685 -0.99420 0.102860 0.019349
6.22000000 0.103166 -0.01536 0.016662 -0.99433 0.016662 -0.99433 0.102595 0.018910
6.24000000 0.102722 -0.01597 0.011637 -0.99444 0.011637 -0.99444 0.102322 0.018475
6.26000000 0.102270 -0.01658 0.006611 -0.99452 0.006611 -0.99452 0.102043 0.018043
6.28000000 0.101809 -0.01718 0.001582 -0.99458 0.001582 -0.99458 0.101757 0.017614
6.30000000 0.101339 -0.01779 -3.45e-3 -0.99461 -3.45e-3 -0.99461 0.101464 0.017188
6.32000000 0.100861 -0.01838 -8.48e-3 -0.99462 -8.48e-3 -0.99462 0.101164 0.016765
6.34000000 0.100374 -0.01897 -0.01351 -0.99460 -0.01351 -0.99460 0.100857 0.016346
6.36000000 0.099878 -0.01956 -0.01855 -0.99456 -0.01855 -0.99456 0.100543 0.015930
6.38000000 0.099374 -0.02015 -0.02358 -0.99449 -0.02358 -0.99449 0.100223 0.015518
6.40000000 0.098861 -0.02072 -0.02862 -0.99440 -0.02862 -0.99440 0.099896 0.015110
6.42000000 0.098340 -0.02130 -0.03366 -0.99428 -0.03366 -0.99428 0.099562 0.014705
6.44000000 0.097810 -0.02187 -0.03869 -0.99413 -0.03869 -0.99413 0.099221 0.014304
6.46000000 0.097272 -0.02243 -0.04373 -0.99396 -0.04373 -0.99396 0.098874 0.013907
6.48000000 0.096726 -0.02299 -0.04877 -0.99377 -0.04877 -0.99377 0.098521 0.013514
6.50000000 0.096171 -0.02354 -0.05381 -0.99355 -0.05381 -0.99355 0.098160 0.013125
6.52000000 0.095608 -0.02409 -0.05885 -0.99331 -0.05885 -0.99331 0.097794 0.012740
6.54000000 0.095037 -0.02463 -0.06389 -0.99304 -0.06389 -0.99304 0.097420 0.012359
6.56000000 0.094458 -0.02517 -0.06893 -0.99274 -0.06893 -0.99274 0.097041 0.011983
6.58000000 0.093870 -0.02570 -0.07398 -0.99242 -0.07398 -0.99242 0.096655 0.011610
6.60000000 0.093274 -0.02623 -0.07902 -0.99207 -0.07902 -0.99207 0.096262 0.011243
6.62000000 0.092671 -0.02675 -0.08406 -0.99170 -0.08406 -0.99170 0.095864 0.010880
6.64000000 0.092059 -0.02727 -0.08910 -0.99130 -0.08910 -0.99130 0.095459 0.010521
6.66000000 0.091440 -0.02778 -0.09414 -0.99088 -0.09414 -0.99088 0.095048 0.010167
6.68000000 0.090813 -0.02828 -0.09918 -0.99043 -0.09918 -0.99043 0.094631 0.009818
6.70000000 0.090177 -0.02877 -0.10421 -0.98996 -0.10421 -0.98996 0.094207 0.009474
6.72000000 0.089535 -0.02927 -0.10925 -0.98946 -0.10925 -0.98946 0.093778 0.009134
6.74000000 0.088884 -0.02975 -0.11429 -0.98893 -0.11429 -0.98893 0.093342 0.008800
6.76000000 0.088226 -0.03023 -0.11932 -0.98838 -0.11932 -0.98838 0.092901 0.008471
6.78000000 0.087560 -0.03070 -0.12436 -0.98781 -0.12436 -0.98781 0.092454 0.008146
6.80000000 0.086887 -0.03116 -0.12939 -0.98720 -0.12939 -0.98720 0.092000 0.007827
6.82000000 0.086206 -0.03162 -0.13442 -0.98658 -0.13442 -0.98658 0.091541 0.007514
6.84000000 0.085518 -0.03207 -0.13945 -0.98592 -0.13945 -0.98592 0.091077 0.007205
6.86000000 0.084823 -0.03252 -0.14448 -0.98524 -0.14448 -0.98524 0.090606 0.006902
6.88000000 0.084120 -0.03295 -0.14951 -0.98454 -0.14951 -0.98454 0.090130 0.006605
6.90000000 0.083410 -0.03338 -0.15453 -0.98381 -0.15453 -0.98381 0.089649 0.006313
6.92000000 0.082693 -0.03381 -0.15955 -0.98305 -0.15955 -0.98305 0.089162 0.006027
6.94000000 0.081969 -0.03422 -0.16457 -0.98227 -0.16457 -0.98227 0.088669 0.005746
6.96000000 0.081238 -0.03463 -0.16959 -0.98146 -0.16959 -0.98146 0.088171 0.005471
6.98000000 0.080500 -0.03503 -0.17461 -0.98063 -0.17461 -0.98063 0.087668 0.005202
7.00000000 0.079756 -0.03543 -0.17962 -0.97977 -0.17962 -0.97977 0.087159 0.004939
7.02000000 0.079004 -0.03581 -0.18463 -0.97888 -0.18463 -0.97888 0.086645 0.004682
7.04000000 0.078246 -0.03619 -0.18964 -0.97797 -0.18964 -0.97797 0.086126 0.004431
7.06000000 0.077482 -0.03656 -0.19464 -0.97704 -0.19464 -0.97704 0.085602 0.004186
!< P1 F=7.06 Eeff=(6.25280382 -5.9061e-4) Z0=(67.6359257 0.00318547) R=0.0465584 C=0.04084578 
!< P2 F=7.06 Eeff=(6.25280382 -5.9061e-4) Z0=(67.6359257 0.00318547) R=0.0465584 C=0.04084578 
7.08000000 0.076710 -0.03692 -0.19964 -0.97607 -0.19964 -0.97607 0.085073 0.003947
7.10000000 0.075933 -0.03728 -0.20464 -0.97509 -0.20464 -0.97509 0.084539 0.003715
7.12000000 0.075149 -0.03763 -0.20963 -0.97407 -0.20963 -0.97407 0.084000 0.003489
7.14000000 0.074358 -0.03796 -0.21462 -0.97303 -0.21462 -0.97303 0.083456 0.003269
7.16000000 0.073562 -0.03829 -0.21961 -0.97197 -0.21961 -0.97197 0.082907 0.003056
7.18000000 0.072759 -0.03862 -0.22460 -0.97087 -0.22460 -0.97087 0.082354 0.002849
7.20000000 0.071951 -0.03893 -0.22957 -0.96976 -0.22957 -0.96976 0.081796 0.002649
7.22000000 0.071136 -0.03924 -0.23455 -0.96861 -0.23455 -0.96861 0.081234 0.002455
7.24000000 0.070316 -0.03953 -0.23952 -0.96744 -0.23952 -0.96744 0.080667 0.002268
7.26000000 0.069489 -0.03982 -0.24449 -0.96625 -0.24449 -0.96625 0.080095 0.002088
7.28000000 0.068657 -0.04010 -0.24945 -0.96503 -0.24945 -0.96503 0.079520 0.001915
7.30000000 0.067820 -0.04037 -0.25441 -0.96378 -0.25441 -0.96378 0.078940 0.001748
7.32000000 0.066977 -0.04063 -0.25936 -0.96250 -0.25936 -0.96250 0.078356 0.001589
7.34000000 0.066128 -0.04089 -0.26431 -0.96121 -0.26431 -0.96121 0.077768 0.001436
7.36000000 0.065274 -0.04113 -0.26925 -0.95988 -0.26925 -0.95988 0.077175 0.001290
7.38000000 0.064415 -0.04137 -0.27419 -0.95853 -0.27419 -0.95853 0.076579 0.001152
7.40000000 0.063551 -0.04159 -0.27912 -0.95715 -0.27912 -0.95715 0.075979 0.001021
7.42000000 0.062682 -0.04181 -0.28405 -0.95575 -0.28405 -0.95575 0.075375 8.967e-4
7.44000000 0.061807 -0.04202 -0.28897 -0.95432 -0.28897 -0.95432 0.074768 7.798e-4
7.46000000 0.060928 -0.04221 -0.29389 -0.95287 -0.29389 -0.95287 0.074156 6.703e-4
7.48000000 0.060044 -0.04240 -0.29880 -0.95138 -0.29880 -0.95138 0.073542 5.681e-4
7.50000000 0.059156 -0.04258 -0.30370 -0.94988 -0.30370 -0.94988 0.072923 4.734e-4
7.52000000 0.058263 -0.04275 -0.30860 -0.94835 -0.30860 -0.94835 0.072302 3.861e-4
7.54000000 0.057365 -0.04291 -0.31349 -0.94679 -0.31349 -0.94679 0.071677 3.063e-4
7.56000000 0.056463 -0.04306 -0.31838 -0.94520 -0.31838 -0.94520 0.071049 2.341e-4
7.58000000 0.055557 -0.04320 -0.32326 -0.94359 -0.32326 -0.94359 0.070417 1.695e-4
7.60000000 0.054647 -0.04334 -0.32813 -0.94196 -0.32813 -0.94196 0.069783 1.126e-4
7.62000000 0.053732 -0.04346 -0.33299 -0.94029 -0.33299 -0.94029 0.069146 6.330e-5
7.64000000 0.052814 -0.04357 -0.33785 -0.93861 -0.33785 -0.93861 0.068505 2.179e-5
7.66000000 0.051891 -0.04367 -0.34270 -0.93689 -0.34270 -0.93689 0.067862 -1.19e-5
7.68000000 0.050965 -0.04376 -0.34755 -0.93515 -0.34755 -0.93515 0.067216 -3.78e-5
7.70000000 0.050036 -0.04384 -0.35238 -0.93339 -0.35238 -0.93339 0.066568 -5.59e-5
7.72000000 0.049103 -0.04391 -0.35721 -0.93159 -0.35721 -0.93159 0.065917 -6.60e-5
7.74000000 0.048166 -0.04398 -0.36203 -0.92978 -0.36203 -0.92978 0.065264 -6.82e-5
7.76000000 0.047226 -0.04403 -0.36685 -0.92793 -0.36685 -0.92793 0.064608 -6.24e-5
7.78000000 0.046283 -0.04407 -0.37165 -0.92607 -0.37165 -0.92607 0.063950 -4.85e-5
7.80000000 0.045337 -0.04410 -0.37645 -0.92417 -0.37645 -0.92417 0.063290 -2.66e-5
7.82000000 0.044388 -0.04412 -0.38124 -0.92225 -0.38124 -0.92225 0.062627 3.400e-6
7.84000000 0.043436 -0.04413 -0.38602 -0.92030 -0.38602 -0.92030 0.061963 4.154e-5
7.86000000 0.042481 -0.04412 -0.39079 -0.91833 -0.39079 -0.91833 0.061297 8.785e-5
7.88000000 0.041523 -0.04411 -0.39556 -0.91634 -0.39556 -0.91634 0.060629 1.424e-4
7.90000000 0.040563 -0.04409 -0.40031 -0.91431 -0.40031 -0.91431 0.059959 2.051e-4
7.92000000 0.039601 -0.04406 -0.40506 -0.91226 -0.40506 -0.91226 0.059288 2.761e-4
7.94000000 0.038636 -0.04401 -0.40979 -0.91019 -0.40979 -0.91019 0.058615 3.554e-4
7.96000000 0.037669 -0.04396 -0.41452 -0.90809 -0.41452 -0.90809 0.057941 4.430e-4
7.98000000 0.036700 -0.04390 -0.41924 -0.90596 -0.41924 -0.90596 0.057265 5.390e-4
8.00000000 0.035730 -0.04382 -0.42394 -0.90381 -0.42394 -0.90381 0.056589 6.433e-4
!< P1 F=8.0 Eeff=(6.27566121 -5.9552e-4) Z0=(67.5465299 0.00318973) R=0.04092392 C=0.04058517 
!< P2 F=8.0 Eeff=(6.27566121 -5.9552e-4) Z0=(67.5465299 0.00318973) R=0.04092392 C=0.04058517 
