! Sonnet Data File
! From: emgraph Version : 15.53-Lite
! From Emgraph Data: micro2_nboxp1
! Data File Written: 12/30/2014 11:45:18
!< HDATE 12/30/2014 11:41:51
!< MDATE 12/30/2014 11:41:51
# GHZ S RI R 50.00000
4.00000000 0.171713 0.215313 0.761556 -0.58667 0.761556 -0.58667 0.164378 0.220964
!< P1 F=4.0 Eeff=(2.7177379 0.0) Z0=(103.275545 0.0) R=0.0 C=0.01966654 
!< P2 F=4.0 Eeff=(2.7177379 0.0) Z0=(103.275545 0.0) R=0.0 C=0.01966654 
4.02000000 0.173056 0.215578 0.759494 -0.58885 0.759494 -0.58885 0.165669 0.221306
4.04000000 0.174399 0.215834 0.757427 -0.59102 0.757427 -0.59102 0.166960 0.221640
4.06000000 0.175743 0.216080 0.755355 -0.59318 0.755355 -0.59318 0.168252 0.221965
4.08000000 0.177087 0.216317 0.753278 -0.59533 0.753278 -0.59533 0.169544 0.222281
4.10000000 0.178431 0.216545 0.751196 -0.59747 0.751196 -0.59747 0.170836 0.222589
4.12000000 0.179775 0.216763 0.749110 -0.59961 0.749110 -0.59961 0.172128 0.222887
4.14000000 0.181119 0.216972 0.747019 -0.60173 0.747019 -0.60173 0.173421 0.223177
4.16000000 0.182463 0.217171 0.744923 -0.60385 0.744923 -0.60385 0.174713 0.223458
4.18000000 0.183808 0.217361 0.742823 -0.60595 0.742823 -0.60595 0.176006 0.223730
4.20000000 0.185152 0.217542 0.740718 -0.60805 0.740718 -0.60805 0.177299 0.223994
4.22000000 0.186495 0.217713 0.738608 -0.61014 0.738608 -0.61014 0.178591 0.224249
4.24000000 0.187839 0.217876 0.736494 -0.61222 0.736494 -0.61222 0.179884 0.224495
4.26000000 0.189182 0.218028 0.734376 -0.61430 0.734376 -0.61430 0.181176 0.224732
4.28000000 0.190525 0.218172 0.732253 -0.61636 0.732253 -0.61636 0.182468 0.224961
4.30000000 0.191868 0.218306 0.730126 -0.61842 0.730126 -0.61842 0.183760 0.225180
4.32000000 0.193210 0.218431 0.727995 -0.62047 0.727995 -0.62047 0.185051 0.225392
4.34000000 0.194551 0.218547 0.725859 -0.62250 0.725859 -0.62250 0.186342 0.225594
4.36000000 0.195892 0.218653 0.723719 -0.62453 0.723719 -0.62453 0.187632 0.225788
4.38000000 0.197232 0.218750 0.721575 -0.62656 0.721575 -0.62656 0.188921 0.225974
4.40000000 0.198571 0.218838 0.719427 -0.62857 0.719427 -0.62857 0.190211 0.226150
4.42000000 0.199910 0.218917 0.717275 -0.63057 0.717275 -0.63057 0.191499 0.226318
4.44000000 0.201248 0.218986 0.715119 -0.63257 0.715119 -0.63257 0.192787 0.226478
4.46000000 0.202584 0.219047 0.712959 -0.63456 0.712959 -0.63456 0.194074 0.226629
4.48000000 0.203920 0.219098 0.710795 -0.63654 0.710795 -0.63654 0.195360 0.226771
4.50000000 0.205255 0.219140 0.708627 -0.63851 0.708627 -0.63851 0.196645 0.226905
4.52000000 0.206588 0.219173 0.706455 -0.64047 0.706455 -0.64047 0.197929 0.227030
4.54000000 0.207920 0.219196 0.704280 -0.64242 0.704280 -0.64242 0.199212 0.227147
4.56000000 0.209252 0.219211 0.702100 -0.64437 0.702100 -0.64437 0.200494 0.227256
4.58000000 0.210581 0.219217 0.699917 -0.64631 0.699917 -0.64631 0.201775 0.227356
4.60000000 0.211910 0.219213 0.697731 -0.64823 0.697731 -0.64823 0.203055 0.227447
4.62000000 0.213237 0.219201 0.695540 -0.65015 0.695540 -0.65015 0.204334 0.227530
4.64000000 0.214562 0.219179 0.693347 -0.65207 0.693347 -0.65207 0.205611 0.227604
4.66000000 0.215886 0.219149 0.691149 -0.65397 0.691149 -0.65397 0.206887 0.227671
4.68000000 0.217209 0.219109 0.688948 -0.65586 0.688948 -0.65586 0.208162 0.227728
4.70000000 0.218530 0.219060 0.686744 -0.65775 0.686744 -0.65775 0.209435 0.227778
4.72000000 0.219849 0.219003 0.684536 -0.65963 0.684536 -0.65963 0.210707 0.227819
4.74000000 0.221166 0.218937 0.682325 -0.66150 0.682325 -0.66150 0.211977 0.227852
4.76000000 0.222481 0.218861 0.680110 -0.66336 0.680110 -0.66336 0.213245 0.227876
4.78000000 0.223795 0.218777 0.677893 -0.66522 0.677893 -0.66522 0.214512 0.227892
4.80000000 0.225107 0.218684 0.675671 -0.66706 0.675671 -0.66706 0.215777 0.227900
4.82000000 0.226416 0.218582 0.673447 -0.66890 0.673447 -0.66890 0.217041 0.227900
4.84000000 0.227724 0.218471 0.671220 -0.67073 0.671220 -0.67073 0.218302 0.227892
4.86000000 0.229029 0.218352 0.668989 -0.67255 0.668989 -0.67255 0.219562 0.227875
4.88000000 0.230333 0.218223 0.666755 -0.67436 0.666755 -0.67436 0.220820 0.227850
4.90000000 0.231634 0.218086 0.664518 -0.67616 0.664518 -0.67616 0.222075 0.227817
4.92000000 0.232933 0.217940 0.662279 -0.67796 0.662279 -0.67796 0.223329 0.227776
4.94000000 0.234229 0.217786 0.660036 -0.67975 0.660036 -0.67975 0.224581 0.227727
4.96000000 0.235523 0.217623 0.657790 -0.68153 0.657790 -0.68153 0.225831 0.227669
4.98000000 0.236815 0.217451 0.655541 -0.68330 0.655541 -0.68330 0.227078 0.227604
5.00000000 0.238104 0.217270 0.653289 -0.68506 0.653289 -0.68506 0.228323 0.227531
5.02000000 0.239391 0.217081 0.651035 -0.68682 0.651035 -0.68682 0.229566 0.227449
5.04000000 0.240675 0.216883 0.648777 -0.68857 0.648777 -0.68857 0.230807 0.227360
5.06000000 0.241956 0.216677 0.646517 -0.69031 0.646517 -0.69031 0.232045 0.227263
5.08000000 0.243235 0.216462 0.644254 -0.69204 0.644254 -0.69204 0.233281 0.227157
5.10000000 0.244511 0.216239 0.641989 -0.69376 0.641989 -0.69376 0.234514 0.227044
5.12000000 0.245784 0.216007 0.639720 -0.69548 0.639720 -0.69548 0.235745 0.226923
5.14000000 0.247054 0.215767 0.637449 -0.69718 0.637449 -0.69718 0.236974 0.226794
5.16000000 0.248322 0.215518 0.635176 -0.69888 0.635176 -0.69888 0.238199 0.226658
5.18000000 0.249586 0.215261 0.632899 -0.70058 0.632899 -0.70058 0.239423 0.226513
5.20000000 0.250848 0.214995 0.630621 -0.70226 0.630621 -0.70226 0.240643 0.226361
5.22000000 0.252106 0.214721 0.628339 -0.70394 0.628339 -0.70394 0.241861 0.226201
5.24000000 0.253361 0.214439 0.626055 -0.70561 0.626055 -0.70561 0.243076 0.226033
5.26000000 0.254613 0.214148 0.623769 -0.70727 0.623769 -0.70727 0.244288 0.225857
5.28000000 0.255862 0.213849 0.621480 -0.70892 0.621480 -0.70892 0.245497 0.225674
5.30000000 0.257108 0.213542 0.619189 -0.71056 0.619189 -0.71056 0.246703 0.225483
5.32000000 0.258350 0.213227 0.616896 -0.71220 0.616896 -0.71220 0.247906 0.225285
5.34000000 0.259589 0.212903 0.614600 -0.71383 0.614600 -0.71383 0.249107 0.225079
5.36000000 0.260824 0.212572 0.612301 -0.71545 0.612301 -0.71545 0.250304 0.224865
5.38000000 0.262056 0.212232 0.610001 -0.71707 0.610001 -0.71707 0.251498 0.224644
5.40000000 0.263285 0.211884 0.607698 -0.71867 0.607698 -0.71867 0.252689 0.224415
!< P1 F=5.4 Eeff=(2.72040571 0.0) Z0=(103.243299 0.0) R=0.0 C=0.01964314 
!< P2 F=5.4 Eeff=(2.72040571 0.0) Z0=(103.243299 0.0) R=0.0 C=0.01964314 
5.42000000 0.264510 0.211528 0.605393 -0.72027 0.605393 -0.72027 0.253876 0.224179
5.44000000 0.265731 0.211164 0.603086 -0.72186 0.603086 -0.72186 0.255061 0.223935
5.46000000 0.266949 0.210792 0.600776 -0.72345 0.600776 -0.72345 0.256242 0.223684
5.48000000 0.268163 0.210412 0.598464 -0.72502 0.598464 -0.72502 0.257420 0.223426
5.50000000 0.269373 0.210024 0.596151 -0.72659 0.596151 -0.72659 0.258595 0.223160
5.52000000 0.270579 0.209628 0.593835 -0.72815 0.593835 -0.72815 0.259766 0.222887
5.54000000 0.271782 0.209224 0.591517 -0.72970 0.591517 -0.72970 0.260933 0.222606
5.56000000 0.272981 0.208812 0.589197 -0.73125 0.589197 -0.73125 0.262098 0.222319
5.58000000 0.274176 0.208393 0.586875 -0.73279 0.586875 -0.73279 0.263258 0.222024
5.60000000 0.275366 0.207965 0.584550 -0.73432 0.584550 -0.73432 0.264415 0.221721
5.62000000 0.276553 0.207530 0.582224 -0.73584 0.582224 -0.73584 0.265569 0.221412
5.64000000 0.277736 0.207087 0.579896 -0.73736 0.579896 -0.73736 0.266718 0.221095
5.66000000 0.278915 0.206637 0.577566 -0.73887 0.577566 -0.73887 0.267865 0.220772
5.68000000 0.280089 0.206178 0.575234 -0.74037 0.575234 -0.74037 0.269007 0.220441
5.70000000 0.281259 0.205712 0.572901 -0.74186 0.572901 -0.74186 0.270145 0.220103
5.72000000 0.282425 0.205239 0.570565 -0.74335 0.570565 -0.74335 0.271280 0.219758
5.74000000 0.283587 0.204758 0.568227 -0.74483 0.568227 -0.74483 0.272411 0.219406
5.76000000 0.284745 0.204269 0.565888 -0.74630 0.565888 -0.74630 0.273538 0.219047
5.78000000 0.285898 0.203773 0.563547 -0.74777 0.563547 -0.74777 0.274661 0.218681
5.80000000 0.287046 0.203269 0.561204 -0.74922 0.561204 -0.74922 0.275780 0.218308
5.82000000 0.288191 0.202758 0.558859 -0.75067 0.558859 -0.75067 0.276895 0.217928
5.84000000 0.289330 0.202239 0.556512 -0.75212 0.556512 -0.75212 0.278006 0.217542
5.86000000 0.290465 0.201713 0.554164 -0.75355 0.554164 -0.75355 0.279113 0.217148
5.88000000 0.291596 0.201180 0.551814 -0.75498 0.551814 -0.75498 0.280216 0.216748
5.90000000 0.292722 0.200639 0.549462 -0.75641 0.549462 -0.75641 0.281314 0.216341
5.92000000 0.293843 0.200091 0.547109 -0.75782 0.547109 -0.75782 0.282409 0.215927
5.94000000 0.294960 0.199535 0.544754 -0.75923 0.544754 -0.75923 0.283499 0.215507
5.96000000 0.296071 0.198973 0.542397 -0.76063 0.542397 -0.76063 0.284585 0.215080
5.98000000 0.297179 0.198403 0.540039 -0.76202 0.540039 -0.76202 0.285666 0.214646
6.00000000 0.298281 0.197826 0.537679 -0.76341 0.537679 -0.76341 0.286743 0.214206
6.02000000 0.299378 0.197242 0.535318 -0.76479 0.535318 -0.76479 0.287816 0.213759
6.04000000 0.300471 0.196651 0.532954 -0.76616 0.532954 -0.76616 0.288884 0.213305
6.06000000 0.301558 0.196053 0.530590 -0.76753 0.530590 -0.76753 0.289948 0.212845
6.08000000 0.302641 0.195447 0.528224 -0.76889 0.528224 -0.76889 0.291008 0.212379
6.10000000 0.303718 0.194835 0.525856 -0.77024 0.525856 -0.77024 0.292062 0.211906
6.12000000 0.304790 0.194216 0.523487 -0.77159 0.523487 -0.77159 0.293113 0.211427
6.14000000 0.305858 0.193590 0.521116 -0.77292 0.521116 -0.77292 0.294158 0.210941
6.16000000 0.306920 0.192957 0.518744 -0.77426 0.518744 -0.77426 0.295199 0.210449
6.18000000 0.307977 0.192317 0.516370 -0.77558 0.516370 -0.77558 0.296236 0.209951
6.20000000 0.309029 0.191670 0.513995 -0.77690 0.513995 -0.77690 0.297267 0.209446
6.22000000 0.310075 0.191016 0.511618 -0.77821 0.511618 -0.77821 0.298294 0.208935
6.24000000 0.311117 0.190356 0.509240 -0.77952 0.509240 -0.77952 0.299316 0.208418
6.26000000 0.312152 0.189689 0.506861 -0.78081 0.506861 -0.78081 0.300334 0.207895
6.28000000 0.313183 0.189015 0.504480 -0.78210 0.504480 -0.78210 0.301346 0.207365
6.30000000 0.314208 0.188335 0.502098 -0.78339 0.502098 -0.78339 0.302354 0.206830
6.32000000 0.315228 0.187648 0.499714 -0.78467 0.499714 -0.78467 0.303356 0.206288
6.34000000 0.316242 0.186954 0.497329 -0.78594 0.497329 -0.78594 0.304354 0.205741
6.36000000 0.317251 0.186254 0.494943 -0.78720 0.494943 -0.78720 0.305347 0.205187
6.38000000 0.318254 0.185547 0.492555 -0.78846 0.492555 -0.78846 0.306334 0.204627
6.40000000 0.319252 0.184834 0.490166 -0.78972 0.490166 -0.78972 0.307317 0.204062
6.42000000 0.320244 0.184115 0.487776 -0.79096 0.487776 -0.79096 0.308295 0.203490
6.44000000 0.321230 0.183388 0.485384 -0.79220 0.485384 -0.79220 0.309267 0.202913
6.46000000 0.322211 0.182656 0.482991 -0.79343 0.482991 -0.79343 0.310235 0.202330
6.48000000 0.323186 0.181917 0.480597 -0.79466 0.480597 -0.79466 0.311197 0.201741
6.50000000 0.324155 0.181172 0.478201 -0.79588 0.478201 -0.79588 0.312154 0.201146
6.52000000 0.325119 0.180421 0.475804 -0.79709 0.475804 -0.79709 0.313106 0.200545
6.54000000 0.326076 0.179663 0.473406 -0.79830 0.473406 -0.79830 0.314052 0.199939
6.56000000 0.327028 0.178900 0.471007 -0.79950 0.471007 -0.79950 0.314994 0.199327
6.58000000 0.327974 0.178130 0.468606 -0.80069 0.468606 -0.80069 0.315930 0.198709
6.60000000 0.328914 0.177353 0.466204 -0.80188 0.466204 -0.80188 0.316860 0.198086
6.62000000 0.329848 0.176571 0.463801 -0.80306 0.463801 -0.80306 0.317785 0.197457
6.64000000 0.330776 0.175783 0.461396 -0.80424 0.461396 -0.80424 0.318705 0.196823
6.66000000 0.331698 0.174989 0.458991 -0.80541 0.458991 -0.80541 0.319619 0.196183
6.68000000 0.332614 0.174189 0.456584 -0.80657 0.456584 -0.80657 0.320528 0.195538
6.70000000 0.333524 0.173382 0.454176 -0.80773 0.454176 -0.80773 0.321432 0.194887
6.72000000 0.334428 0.172570 0.451766 -0.80888 0.451766 -0.80888 0.322330 0.194231
6.74000000 0.335325 0.171752 0.449356 -0.81002 0.449356 -0.81002 0.323222 0.193570
6.76000000 0.336217 0.170928 0.446944 -0.81116 0.446944 -0.81116 0.324109 0.192903
6.78000000 0.337102 0.170099 0.444531 -0.81229 0.444531 -0.81229 0.324990 0.192231
6.80000000 0.337981 0.169263 0.442117 -0.81342 0.442117 -0.81342 0.325865 0.191554
6.82000000 0.338854 0.168422 0.439701 -0.81454 0.439701 -0.81454 0.326735 0.190871
6.84000000 0.339720 0.167575 0.437285 -0.81565 0.437285 -0.81565 0.327599 0.190184
6.86000000 0.340580 0.166723 0.434867 -0.81676 0.434867 -0.81676 0.328458 0.189491
6.88000000 0.341434 0.165865 0.432448 -0.81786 0.432448 -0.81786 0.329310 0.188793
6.90000000 0.342281 0.165001 0.430028 -0.81896 0.430028 -0.81896 0.330157 0.188090
6.92000000 0.343122 0.164132 0.427606 -0.82005 0.427606 -0.82005 0.330998 0.187382
!< P1 F=6.92 Eeff=(2.7242231 0.0) Z0=(103.199596 0.0) R=0.0 C=0.01960965 
!< P2 F=6.92 Eeff=(2.7242231 0.0) Z0=(103.199596 0.0) R=0.0 C=0.01960965 
6.94000000 0.343956 0.163257 0.425184 -0.82113 0.425184 -0.82113 0.331834 0.186669
6.96000000 0.344784 0.162376 0.422760 -0.82221 0.422760 -0.82221 0.332663 0.185950
6.98000000 0.345606 0.161491 0.420335 -0.82328 0.420335 -0.82328 0.333487 0.185227
7.00000000 0.346421 0.160600 0.417909 -0.82435 0.417909 -0.82435 0.334304 0.184500
7.02000000 0.347229 0.159703 0.415482 -0.82541 0.415482 -0.82541 0.335116 0.183767
7.04000000 0.348031 0.158801 0.413053 -0.82646 0.413053 -0.82646 0.335922 0.183029
7.06000000 0.348826 0.157894 0.410624 -0.82751 0.410624 -0.82751 0.336721 0.182287
7.08000000 0.349614 0.156982 0.408193 -0.82856 0.408193 -0.82856 0.337515 0.181540
7.10000000 0.350396 0.156064 0.405761 -0.82959 0.405761 -0.82959 0.338303 0.180788
7.12000000 0.351171 0.155141 0.403328 -0.83063 0.403328 -0.83063 0.339085 0.180031
7.14000000 0.351939 0.154213 0.400894 -0.83165 0.400894 -0.83165 0.339860 0.179270
7.16000000 0.352701 0.153280 0.398458 -0.83267 0.398458 -0.83267 0.340630 0.178504
7.18000000 0.353455 0.152342 0.396022 -0.83368 0.396022 -0.83368 0.341393 0.177734
7.20000000 0.354203 0.151399 0.393584 -0.83469 0.393584 -0.83469 0.342150 0.176959
7.22000000 0.354944 0.150450 0.391145 -0.83570 0.391145 -0.83570 0.342901 0.176180
7.24000000 0.355678 0.149497 0.388704 -0.83669 0.388704 -0.83669 0.343646 0.175396
7.26000000 0.356405 0.148539 0.386263 -0.83768 0.386263 -0.83768 0.344384 0.174607
7.28000000 0.357126 0.147576 0.383820 -0.83867 0.383820 -0.83867 0.345116 0.173815
7.30000000 0.357839 0.146608 0.381377 -0.83965 0.381377 -0.83965 0.345842 0.173018
7.32000000 0.358545 0.145635 0.378932 -0.84062 0.378932 -0.84062 0.346562 0.172216
7.34000000 0.359244 0.144658 0.376485 -0.84159 0.376485 -0.84159 0.347275 0.171410
7.36000000 0.359936 0.143676 0.374038 -0.84256 0.374038 -0.84256 0.347982 0.170600
7.38000000 0.360621 0.142689 0.371590 -0.84351 0.371590 -0.84351 0.348683 0.169786
7.40000000 0.361299 0.141697 0.369140 -0.84447 0.369140 -0.84447 0.349377 0.168968
7.42000000 0.361970 0.140701 0.366689 -0.84541 0.366689 -0.84541 0.350065 0.168146
7.44000000 0.362634 0.139700 0.364236 -0.84635 0.364236 -0.84635 0.350747 0.167319
7.46000000 0.363290 0.138694 0.361783 -0.84729 0.361783 -0.84729 0.351421 0.166488
7.48000000 0.363940 0.137684 0.359328 -0.84822 0.359328 -0.84822 0.352090 0.165654
7.50000000 0.364582 0.136670 0.356872 -0.84914 0.356872 -0.84914 0.352752 0.164815
7.52000000 0.365216 0.135651 0.354415 -0.85006 0.354415 -0.85006 0.353407 0.163972
7.54000000 0.365844 0.134628 0.351957 -0.85098 0.351957 -0.85098 0.354056 0.163126
7.56000000 0.366464 0.133600 0.349497 -0.85189 0.349497 -0.85189 0.354698 0.162275
7.58000000 0.367077 0.132568 0.347036 -0.85279 0.347036 -0.85279 0.355334 0.161421
7.60000000 0.367682 0.131532 0.344574 -0.85369 0.344574 -0.85369 0.355963 0.160563
7.62000000 0.368280 0.130491 0.342111 -0.85458 0.342111 -0.85458 0.356585 0.159701
7.64000000 0.368871 0.129447 0.339646 -0.85547 0.339646 -0.85547 0.357201 0.158836
7.66000000 0.369454 0.128398 0.337180 -0.85635 0.337180 -0.85635 0.357810 0.157966
7.68000000 0.370030 0.127344 0.334713 -0.85722 0.334713 -0.85722 0.358412 0.157093
7.70000000 0.370598 0.126287 0.332244 -0.85809 0.332244 -0.85809 0.359008 0.156217
7.72000000 0.371159 0.125226 0.329775 -0.85896 0.329775 -0.85896 0.359597 0.155337
7.74000000 0.371712 0.124161 0.327304 -0.85982 0.327304 -0.85982 0.360179 0.154453
7.76000000 0.372257 0.123091 0.324831 -0.86067 0.324831 -0.86067 0.360754 0.153566
7.78000000 0.372795 0.122018 0.322357 -0.86152 0.322357 -0.86152 0.361323 0.152675
7.80000000 0.373326 0.120941 0.319882 -0.86237 0.319882 -0.86237 0.361884 0.151781
7.82000000 0.373848 0.119860 0.317406 -0.86321 0.317406 -0.86321 0.362439 0.150883
7.84000000 0.374363 0.118775 0.314928 -0.86404 0.314928 -0.86404 0.362987 0.149983
7.86000000 0.374871 0.117686 0.312449 -0.86487 0.312449 -0.86487 0.363528 0.149078
7.88000000 0.375370 0.116594 0.309968 -0.86569 0.309968 -0.86569 0.364063 0.148171
7.90000000 0.375862 0.115497 0.307486 -0.86651 0.307486 -0.86651 0.364590 0.147260
7.92000000 0.376346 0.114397 0.305003 -0.86732 0.305003 -0.86732 0.365110 0.146346
7.94000000 0.376822 0.113294 0.302518 -0.86813 0.302518 -0.86813 0.365623 0.145429
7.96000000 0.377291 0.112187 0.300032 -0.86893 0.300032 -0.86893 0.366130 0.144509
7.98000000 0.377751 0.111076 0.297545 -0.86973 0.297545 -0.86973 0.366629 0.143586
8.00000000 0.378204 0.109962 0.295056 -0.87052 0.295056 -0.87052 0.367122 0.142659
!< P1 F=8.0 Eeff=(2.72752834 0.0) Z0=(103.164089 0.0) R=0.0 C=0.01958064 
!< P2 F=8.0 Eeff=(2.72752834 0.0) Z0=(103.164089 0.0) R=0.0 C=0.01958064 
