!freq-unit  param-type  data-format  keyword  impedance-ohms
# GHZ           S          RI           R         50
!-----------------------------------------------------------------------------
!Freq          ReS11        ImS11        ReS21        ImS21        ReS12        ImS12        ReS22        ImS22
0.045        -0.0036557   -0.033291    0.99345      -0.10386     0.99345      -0.10386     -0.0036557   -0.033291    
0.065        -0.0074509   -0.047734    0.98686      -0.14959     0.98686      -0.14959     -0.0074509   -0.047734    
0.085        -0.012567    -0.06181     0.97797      -0.19487     0.97797      -0.19487     -0.012567    -0.06181     
0.105        -0.018972    -0.075416    0.96682      -0.23956     0.96682      -0.23956     -0.018972    -0.075416    
0.125        -0.026622    -0.088453    0.95345      -0.28354     0.95345      -0.28354     -0.026622    -0.088453    
0.145        -0.035467    -0.10082     0.93791      -0.32668     0.93791      -0.32668     -0.035467    -0.10082     
0.165        -0.04545     -0.11244     0.92027      -0.36885     0.92027      -0.36885     -0.04545     -0.11244     
0.185        -0.056505    -0.12322     0.90059      -0.40996     0.90059      -0.40996     -0.056505    -0.12322     
0.205        -0.068561    -0.13308     0.87895      -0.44988     0.87895      -0.44988     -0.068561    -0.13308     
0.225        -0.081543    -0.14195     0.85543      -0.48851     0.85543      -0.48851     -0.081543    -0.14195     
0.245        -0.095368    -0.14976     0.83013      -0.52577     0.83013      -0.52577     -0.095368    -0.14976     
0.265        -0.10995     -0.15646     0.80314      -0.56155     0.80314      -0.56155     -0.10995     -0.15646     
0.285        -0.1252      -0.162       0.77455      -0.59579     0.77455      -0.59579     -0.1252      -0.162       
0.305        -0.14103     -0.16633     0.74447      -0.62841     0.74447      -0.62841     -0.14103     -0.16633     
0.325        -0.15735     -0.16941     0.71301      -0.65935     0.71301      -0.65935     -0.15735     -0.16941     
0.345        -0.17405     -0.17123     0.68026      -0.68855     0.68026      -0.68855     -0.17405     -0.17123     
0.365        -0.19104     -0.17175     0.64635      -0.71596     0.64635      -0.71596     -0.19104     -0.17175     
0.385        -0.20823     -0.17098     0.61138      -0.74154     0.61138      -0.74154     -0.20823     -0.17098     
0.405        -0.22551     -0.16889     0.57546      -0.76525     0.57546      -0.76525     -0.22551     -0.16889     
0.425        -0.24281     -0.1655      0.5387       -0.78708     0.5387       -0.78708     -0.24281     -0.1655      
0.445        -0.26002     -0.16082     0.50121      -0.80701     0.50121      -0.80701     -0.26002     -0.16082     
0.465        -0.27705     -0.15485     0.4631       -0.82502     0.4631       -0.82502     -0.27705     -0.15485     
0.485        -0.29382     -0.14762     0.42448      -0.84111     0.42448      -0.84111     -0.29382     -0.14762     
0.505        -0.31023     -0.13916     0.38545      -0.85527     0.38545      -0.85527     -0.31023     -0.13916     
0.525        -0.32622     -0.12949     0.3461       -0.86753     0.3461       -0.86753     -0.32622     -0.12949     
0.545        -0.34169     -0.11867     0.30655      -0.87789     0.30655      -0.87789     -0.34169     -0.11867     
0.565        -0.35659     -0.10673     0.26689      -0.88636     0.26689      -0.88636     -0.35659     -0.10673     
0.585        -0.37083     -0.093707    0.2272       -0.89298     0.2272       -0.89298     -0.37083     -0.093707    
0.605        -0.38435     -0.079667    0.18758      -0.89777     0.18758      -0.89777     -0.38435     -0.079667    
0.625        -0.39709     -0.064657    0.14812      -0.90076     0.14812      -0.90076     -0.39709     -0.064657    
0.645        -0.409       -0.048735    0.10889      -0.90199     0.10889      -0.90199     -0.409       -0.048735    
0.665        -0.42002     -0.03196     0.069966     -0.90149     0.069966     -0.90149     -0.42002     -0.03196     
0.685        -0.43011     -0.014393    0.031432     -0.89931     0.031432     -0.89931     -0.43011     -0.014393    
0.705        -0.43922     0.0039012    -0.0066471   -0.89549     -0.0066471   -0.89549     -0.43922     0.0039012    
0.725        -0.44732     0.022859     -0.044205    -0.89008     -0.044205    -0.89008     -0.44732     0.022859     
0.745        -0.45437     0.042413     -0.081181    -0.88312     -0.081181    -0.88312     -0.45437     0.042413     
0.765        -0.46034     0.062498     -0.11752     -0.87467     -0.11752     -0.87467     -0.46034     0.062498     
0.785        -0.46521     0.083045     -0.15316     -0.86477     -0.15316     -0.86477     -0.46521     0.083045     
0.805        -0.46897     0.10399      -0.18805     -0.85348     -0.18805     -0.85348     -0.46897     0.10399      
0.825        -0.47159     0.12526      -0.22216     -0.84085     -0.22216     -0.84085     -0.47159     0.12526      
0.845        -0.47306     0.14679      -0.25543     -0.82694     -0.25543     -0.82694     -0.47306     0.14679      
0.865        -0.47339     0.16851      -0.28782     -0.81179     -0.28782     -0.81179     -0.47339     0.16851      
0.885        -0.47255     0.19037      -0.31931     -0.79548     -0.31931     -0.79548     -0.47255     0.19037      
0.905        -0.47056     0.21228      -0.34985     -0.77803     -0.34985     -0.77803     -0.47056     0.21228      
0.925        -0.46741     0.23419      -0.37941     -0.75953     -0.37941     -0.75953     -0.46741     0.23419      
0.945        -0.46313     0.25604      -0.40798     -0.74001     -0.40798     -0.74001     -0.46313     0.25604      
0.965        -0.4577      0.27776      -0.43552     -0.71953     -0.43552     -0.71953     -0.4577      0.27776      
0.985        -0.45116     0.2993       -0.46201     -0.69814     -0.46201     -0.69814     -0.45116     0.2993       
1.005        -0.44351     0.32059      -0.48744     -0.6759      -0.48744     -0.6759      -0.44351     0.32059      
1.025        -0.43477     0.34158      -0.51179     -0.65287     -0.51179     -0.65287     -0.43477     0.34158      
1.045        -0.42497     0.36222      -0.53503     -0.62908     -0.53503     -0.62908     -0.42497     0.36222      
1.065        -0.41413     0.38245      -0.55717     -0.6046      -0.55717     -0.6046      -0.41413     0.38245      
1.085        -0.40228     0.40222      -0.57819     -0.57947     -0.57819     -0.57947     -0.40228     0.40222      
1.105        -0.38944     0.42148      -0.59809     -0.55374     -0.59809     -0.55374     -0.38944     0.42148      
1.125        -0.37565     0.44018      -0.61684     -0.52746     -0.61684     -0.52746     -0.37565     0.44018      
1.145        -0.36093     0.45829      -0.63447     -0.50068     -0.63447     -0.50068     -0.36093     0.45829      
1.165        -0.34533     0.47575      -0.65095     -0.47344     -0.65095     -0.47344     -0.34533     0.47575      
1.185        -0.32888     0.49253      -0.66628     -0.4458      -0.66628     -0.4458      -0.32888     0.49253      
1.205        -0.31162     0.50859      -0.68048     -0.41778     -0.68048     -0.41778     -0.31162     0.50859      
1.225        -0.29358     0.52389      -0.69353     -0.38945     -0.69353     -0.38945     -0.29358     0.52389      
1.245        -0.2748      0.5384       -0.70545     -0.36083     -0.70545     -0.36083     -0.2748      0.5384       
1.265        -0.25533     0.55209      -0.71623     -0.33198     -0.71623     -0.33198     -0.25533     0.55209      
1.285        -0.23521     0.56493      -0.72589     -0.30293     -0.72589     -0.30293     -0.23521     0.56493      
1.305        -0.21448     0.57689      -0.73442     -0.27372     -0.73442     -0.27372     -0.21448     0.57689      
1.325        -0.19318     0.58794      -0.74184     -0.24439     -0.74184     -0.24439     -0.19318     0.58794      
1.345        -0.17136     0.59807      -0.74815     -0.21497     -0.74815     -0.21497     -0.17136     0.59807      
1.365        -0.14907     0.60725      -0.75336     -0.18552     -0.75336     -0.18552     -0.14907     0.60725      
1.385        -0.12634     0.61546      -0.75748     -0.15605     -0.75748     -0.15605     -0.12634     0.61546      
1.405        -0.10322     0.6227       -0.76052     -0.12661     -0.76052     -0.12661     -0.10322     0.6227       
1.425        -0.079769    0.62893      -0.7625      -0.097226    -0.7625      -0.097226    -0.079769    0.62893      
1.445        -0.056022    0.63416      -0.76342     -0.067936    -0.76342     -0.067936    -0.056022    0.63416      
1.465        -0.032026    0.63837      -0.76329     -0.03877     -0.76329     -0.03877     -0.032026    0.63837      
1.485        -0.0078302   0.64156      -0.76214     -0.0097594   -0.76214     -0.0097594   -0.0078302   0.64156      
1.505        0.01652      0.64371      -0.75997     0.019065     -0.75997     0.019065     0.01652      0.64371      
1.525        0.040979     0.64483      -0.7568      0.047673     -0.7568      0.047673     0.040979     0.64483      
1.545        0.065501     0.64491      -0.75264     0.076037     -0.75264     0.076037     0.065501     0.64491      
1.565        0.090038     0.64396      -0.74751     0.10413      -0.74751     0.10413      0.090038     0.64396      
1.585        0.11455      0.64197      -0.74142     0.13192      -0.74142     0.13192      0.11455      0.64197      
1.605        0.13898      0.63895      -0.73438     0.15938      -0.73438     0.15938      0.13898      0.63895      
1.625        0.16329      0.6349       -0.72643     0.18649      -0.72643     0.18649      0.16329      0.6349       
1.645        0.18744      0.62984      -0.71756     0.21323      -0.71756     0.21323      0.18744      0.62984      
1.665        0.21139      0.62376      -0.7078      0.23956      -0.7078      0.23956      0.21139      0.62376      
1.685        0.23508      0.61669      -0.69716     0.26546      -0.69716     0.26546      0.23508      0.61669      
1.705        0.25848      0.60864      -0.68566     0.29092      -0.68566     0.29092      0.25848      0.60864      
1.725        0.28154      0.59961      -0.67333     0.3159       -0.67333     0.3159       0.28154      0.59961      
1.745        0.30423      0.58963      -0.66017     0.34039      -0.66017     0.34039      0.30423      0.58963      
1.765        0.3265       0.57872      -0.6462      0.36436      -0.6462      0.36436      0.3265       0.57872      
1.785        0.34832      0.56688      -0.63145     0.38779      -0.63145     0.38779      0.34832      0.56688      
1.805        0.36964      0.55415      -0.61593     0.41067      -0.61593     0.41067      0.36964      0.55415      
1.825        0.39043      0.54055      -0.59966     0.43296      -0.59966     0.43296      0.39043      0.54055      
1.845        0.41066      0.5261       -0.58266     0.45466      -0.58266     0.45466      0.41066      0.5261       
1.865        0.43027      0.51082      -0.56495     0.47575      -0.56495     0.47575      0.43027      0.51082      
1.885        0.44925      0.49474      -0.54654     0.49619      -0.54654     0.49619      0.44925      0.49474      
1.905        0.46756      0.47789      -0.52746     0.51599      -0.52746     0.51599      0.46756      0.47789      
1.925        0.48517      0.4603       -0.50773     0.53511      -0.50773     0.53511      0.48517      0.4603       
1.945        0.50204      0.442        -0.48736     0.55354      -0.48736     0.55354      0.50204      0.442        
1.965        0.51814      0.42302      -0.46638     0.57127      -0.46638     0.57127      0.51814      0.42302      
1.985        0.53345      0.4034       -0.4448      0.58827      -0.4448      0.58827      0.53345      0.4034       
2.005        0.54794      0.38316      -0.42266     0.60454      -0.42266     0.60454      0.54794      0.38316      
2.025        0.56159      0.36234      -0.39996     0.62005      -0.39996     0.62005      0.56159      0.36234      
2.045        0.57436      0.34098      -0.37673     0.63479      -0.37673     0.63479      0.57436      0.34098      
2.065        0.58624      0.31912      -0.35298     0.64874      -0.35298     0.64874      0.58624      0.31912      
2.085        0.5972       0.29679      -0.32875     0.66189      -0.32875     0.66189      0.5972       0.29679      
2.105        0.60723      0.27403      -0.30405     0.67422      -0.30405     0.67422      0.60723      0.27403      
2.125        0.61631      0.25088      -0.27891     0.68572      -0.27891     0.68572      0.61631      0.25088      
2.145        0.62441      0.22739      -0.25334     0.69637      -0.25334     0.69637      0.62441      0.22739      
2.165        0.63153      0.20359      -0.22738     0.70617      -0.22738     0.70617      0.63153      0.20359      
2.185        0.63764      0.17953      -0.20103     0.71508      -0.20103     0.71508      0.63764      0.17953      
2.205        0.64275      0.15525      -0.17433     0.72311      -0.17433     0.72311      0.64275      0.15525      
2.225        0.64683      0.13079      -0.1473      0.73024      -0.1473      0.73024      0.64683      0.13079      
2.245        0.64988      0.1062       -0.11997     0.73646      -0.11997     0.73646      0.64988      0.1062       
2.265        0.65189      0.081524     -0.092348    0.74174      -0.092348    0.74174      0.65189      0.081524     
2.285        0.65285      0.056804     -0.064473    0.74608      -0.064473    0.74608      0.65285      0.056804     
2.305        0.65277      0.032087     -0.036366    0.74947      -0.036366    0.74947      0.65277      0.032087     
2.325        0.65164      0.00742      -0.0080538   0.75189      -0.0080538   0.75189      0.65164      0.00742      
2.345        0.64946      -0.017151    0.020437     0.75334      0.020437     0.75334      0.64946      -0.017151    
2.365        0.64623      -0.04158     0.049079     0.75379      0.049079     0.75379      0.64623      -0.04158     
2.385        0.64196      -0.065819    0.077844     0.75324      0.077844     0.75324      0.64196      -0.065819    
2.405        0.63666      -0.089821    0.1067       0.75167      0.1067       0.75167      0.63666      -0.089821    
2.425        0.63033      -0.11354     0.13563      0.74908      0.13563      0.74908      0.63033      -0.11354     
2.445        0.62298      -0.13693     0.16459      0.74545      0.16459      0.74545      0.62298      -0.13693     
2.465        0.61463      -0.15994     0.19355      0.74078      0.19355      0.74078      0.61463      -0.15994     
2.485        0.60529      -0.18252     0.22249      0.73504      0.22249      0.73504      0.60529      -0.18252     
2.505        0.59498      -0.20463     0.25137      0.72825      0.25137      0.72825      0.59498      -0.20463     
2.525        0.58372      -0.22622     0.28015      0.72037      0.28015      0.72037      0.58372      -0.22622     
2.545        0.57152      -0.24725     0.3088       0.71141      0.3088       0.71141      0.57152      -0.24725     
2.565        0.55842      -0.26767     0.33729      0.70136      0.33729      0.70136      0.55842      -0.26767     
2.585        0.54443      -0.28743     0.36558      0.69022      0.36558      0.69022      0.54443      -0.28743     
2.605        0.52959      -0.30649     0.39363      0.67796      0.39363      0.67796      0.52959      -0.30649     
2.625        0.51393      -0.32481     0.4214       0.66459      0.4214       0.66459      0.51393      -0.32481     
2.645        0.49748      -0.34235     0.44885      0.65011      0.44885      0.65011      0.49748      -0.34235     
2.665        0.48028      -0.35906     0.47594      0.63451      0.47594      0.63451      0.48028      -0.35906     
2.685        0.46236      -0.3749      0.50263      0.61779      0.50263      0.61779      0.46236      -0.3749      
2.705        0.44376      -0.38983     0.52887      0.59994      0.52887      0.59994      0.44376      -0.38983     
2.725        0.42454      -0.40382     0.55462      0.58096      0.55462      0.58096      0.42454      -0.40382     
2.745        0.40472      -0.41684     0.57983      0.56087      0.57983      0.56087      0.40472      -0.41684     
2.765        0.38437      -0.42884     0.60445      0.53966      0.60445      0.53966      0.38437      -0.42884     
2.785        0.36353      -0.43979     0.62844      0.51733      0.62844      0.51733      0.36353      -0.43979     
2.805        0.34226      -0.44967     0.65174      0.49389      0.65174      0.49389      0.34226      -0.44967     
2.825        0.3206       -0.45844     0.6743       0.46935      0.6743       0.46935      0.3206       -0.45844     
2.845        0.29862      -0.46609     0.69608      0.44373      0.69608      0.44373      0.29862      -0.46609     
2.865        0.27637      -0.47259     0.717        0.41702      0.717        0.41702      0.27637      -0.47259     
2.885        0.25393      -0.47791     0.73703      0.38926      0.73703      0.38926      0.25393      -0.47791     
2.905        0.23134      -0.48206     0.7561       0.36046      0.7561       0.36046      0.23134      -0.48206     
2.925        0.20868      -0.485       0.77415      0.33064      0.77415      0.33064      0.20868      -0.485       
2.945        0.18601      -0.48673     0.79113      0.29982      0.79113      0.29982      0.18601      -0.48673     
2.965        0.16341      -0.48725     0.80698      0.26804      0.80698      0.26804      0.16341      -0.48725     
2.985        0.14093      -0.48655     0.82164      0.23532      0.82164      0.23532      0.14093      -0.48655     
3.005        0.11866      -0.48464     0.83506      0.2017       0.83506      0.2017       0.11866      -0.48464     
3.025        0.096671     -0.48152     0.84716      0.16721      0.84716      0.16721      0.096671     -0.48152     
3.045        0.075029     -0.4772      0.85789      0.13191      0.85789      0.13191      0.075029     -0.4772      
3.065        0.053811     -0.4717      0.86719      0.095834     0.86719      0.095834     0.053811     -0.4717      
3.085        0.033091     -0.46505     0.87501      0.059037     0.87501      0.059037     0.033091     -0.46505     
3.105        0.012942     -0.45725     0.88128      0.021576     0.88128      0.021576     0.012942     -0.45725     
3.125        -0.0065603   -0.44836     0.88595      -0.016489    0.88595      -0.016489    -0.0065603   -0.44836     
3.145        -0.025345    -0.4384      0.88896      -0.055093    0.88896      -0.055093    -0.025345    -0.4384      
3.165        -0.04334     -0.42741     0.89027      -0.094165    0.89027      -0.094165    -0.04334     -0.42741     
3.185        -0.060477    -0.41545     0.88981      -0.13363     0.88981      -0.13363     -0.060477    -0.41545     
3.205        -0.076687    -0.40256     0.88755      -0.17341     0.88755      -0.17341     -0.076687    -0.40256     
3.225        -0.091905    -0.38881     0.88344      -0.21342     0.88344      -0.21342     -0.091905    -0.38881     
3.245        -0.10607     -0.37425     0.87744      -0.25357     0.87744      -0.25357     -0.10607     -0.37425     
3.265        -0.11912     -0.35896     0.86951      -0.29376     0.86951      -0.29376     -0.11912     -0.35896     
3.285        -0.13101     -0.34301     0.85962      -0.3339      0.85962      -0.3339      -0.13101     -0.34301     
3.305        -0.14169     -0.32648     0.84775      -0.37389     0.84775      -0.37389     -0.14169     -0.32648     
3.325        -0.1511      -0.30945     0.83388      -0.41361     0.83388      -0.41361     -0.1511      -0.30945     
3.345        -0.15922     -0.29202     0.81799      -0.45296     0.81799      -0.45296     -0.15922     -0.29202     
