!freq-unit  param-type  data-format  keyword  impedance-ohms
# GHZ           S          RI           R         50
!-----------------------------------------------------------------------------
!Freq          ReS11        ImS11        ReS21        ImS21        ReS12        ImS12        ReS22        ImS22
0.5          -0.1953      -0.12446     -0.089555    -0.96537     -0.089555    -0.96537     -0.16806     0.1584       
0.51         -0.20092     -0.12271     -0.12119     -0.96094     -0.12119     -0.96094     -0.16313     0.16883      
0.52         -0.20651     -0.12078     -0.15262     -0.95547     -0.15262     -0.95547     -0.15756     0.17912      
0.53         -0.21207     -0.11867     -0.1838      -0.94897     -0.1838      -0.94897     -0.15136     0.18923      
0.54         -0.21758     -0.11639     -0.21471     -0.94145     -0.21471     -0.94145     -0.14453     0.19911      
0.55         -0.22305     -0.11392     -0.2453      -0.93292     -0.2453      -0.93292     -0.13709     0.20873      
0.56         -0.22847     -0.11129     -0.27555     -0.9234      -0.27555     -0.9234      -0.12904     0.21805      
0.57         -0.23383     -0.10848     -0.30542     -0.9129      -0.30542     -0.9129      -0.12039     0.22705      
0.58         -0.23914     -0.1055      -0.33488     -0.90144     -0.33488     -0.90144     -0.11117     0.23567      
0.59         -0.24437     -0.10236     -0.3639      -0.88903     -0.3639      -0.88903     -0.1014      0.24389      
0.6          -0.24955     -0.099042    -0.39246     -0.87568     -0.39246     -0.87568     -0.091079    0.25167      
0.61         -0.25464     -0.095566    -0.42052     -0.86143     -0.42052     -0.86143     -0.080245    0.25898      
0.62         -0.25966     -0.091928    -0.44804     -0.84628     -0.44804     -0.84628     -0.068917    0.26578      
0.63         -0.2646      -0.088131    -0.47502     -0.83026     -0.47502     -0.83026     -0.057121    0.27206      
0.64         -0.26945     -0.084178    -0.50141     -0.81338     -0.50141     -0.81338     -0.044884    0.27777      
0.65         -0.27421     -0.080071    -0.52719     -0.79567     -0.52719     -0.79567     -0.032235    0.28289      
0.66         -0.27888     -0.075813    -0.55233     -0.77716     -0.55233     -0.77716     -0.019206    0.2874       
0.67         -0.28345     -0.071406    -0.57682     -0.75786     -0.57682     -0.75786     -0.005827    0.29126      
0.68         -0.28792     -0.066854    -0.60062     -0.73779     -0.60062     -0.73779     0.0078672    0.29447      
0.69         -0.29228     -0.062159    -0.62371     -0.717       -0.62371     -0.717       0.021842     0.29699      
0.7          -0.29653     -0.057324    -0.64608     -0.69549     -0.64608     -0.69549     0.036061     0.29881      
0.71         -0.30067     -0.052353    -0.66769     -0.67329     -0.66769     -0.67329     0.050488     0.29991      
0.72         -0.30469     -0.047248    -0.68854     -0.65044     -0.68854     -0.65044     0.065084     0.30027      
0.73         -0.3086      -0.042013    -0.70859     -0.62695     -0.70859     -0.62695     0.079809     0.2999       
0.74         -0.31238     -0.036651    -0.72784     -0.60287     -0.72784     -0.60287     0.094626     0.29876      
0.75         -0.31603     -0.031165    -0.74625     -0.5782      -0.74625     -0.5782      0.10949      0.29686      
0.76         -0.31955     -0.025558    -0.76383     -0.55299     -0.76383     -0.55299     0.12437      0.29419      
0.77         -0.32294     -0.019834    -0.78055     -0.52726     -0.78055     -0.52726     0.13921      0.29075      
0.78         -0.3262      -0.013997    -0.7964      -0.50104     -0.7964      -0.50104     0.15398      0.28653      
0.79         -0.32931     -0.0080504   -0.81136     -0.47437     -0.81136     -0.47437     0.16863      0.28154      
0.8          -0.33229     -0.0019972   -0.82543     -0.44726     -0.82543     -0.44726     0.18312      0.27578      
0.81         -0.33512     0.0041585    -0.83858     -0.41976     -0.83858     -0.41976     0.19742      0.26925      
0.82         -0.3378      0.010413     -0.85082     -0.39189     -0.85082     -0.39189     0.21147      0.26196      
0.83         -0.34033     0.016763     -0.86213     -0.36368     -0.86213     -0.36368     0.22525      0.25392      
0.84         -0.34272     0.023203     -0.8725      -0.33517     -0.8725      -0.33517     0.2387       0.24515      
0.85         -0.34494     0.029731     -0.88193     -0.30638     -0.88193     -0.30638     0.25179      0.23566      
0.86         -0.34701     0.036341     -0.89041     -0.27735     -0.89041     -0.27735     0.26448      0.22546      
0.87         -0.34892     0.043031     -0.89793     -0.24811     -0.89793     -0.24811     0.27673      0.21457      
0.88         -0.35067     0.049796     -0.9045      -0.21869     -0.9045      -0.21869     0.2885       0.20302      
0.89         -0.35225     0.056632     -0.9101      -0.18911     -0.9101      -0.18911     0.29976      0.19082      
0.9          -0.35367     0.063534     -0.91474     -0.15942     -0.91474     -0.15942     0.31047      0.17801      
0.91         -0.35493     0.070498     -0.91841     -0.12965     -0.91841     -0.12965     0.3206       0.1646       
0.92         -0.35601     0.077521     -0.92113     -0.099816    -0.92113     -0.099816    0.33011      0.15063      
0.93         -0.35692     0.084597     -0.92287     -0.069959    -0.92287     -0.069959    0.33898      0.13613      
0.94         -0.35767     0.091722     -0.92366     -0.040108    -0.92366     -0.040108    0.34718      0.12112      
0.95         -0.35823     0.098892     -0.92349     -0.010294    -0.92349     -0.010294    0.35467      0.10565      
0.96         -0.35863     0.1061       -0.92236     0.019453     -0.92236     0.019453     0.36144      0.089743     
0.97         -0.35884     0.11335      -0.92029     0.049102     -0.92029     0.049102     0.36746      0.07344      
0.98         -0.35888     0.12063      -0.91727     0.078624     -0.91727     0.078624     0.3727       0.056778     
0.99         -0.35874     0.12793      -0.91331     0.10799      -0.91331     0.10799      0.37714      0.039794     
1            -0.35843     0.13525      -0.90842     0.13717      -0.90842     0.13717      0.38078      0.02253      
1.01         -0.35793     0.1426       -0.90262     0.16613      -0.90262     0.16613      0.38358      0.0050251    
1.02         -0.35725     0.14995      -0.8959      0.19485      -0.8959      0.19485      0.38555      -0.012679    
1.03         -0.3564      0.15731      -0.88828     0.2233       -0.88828     0.2233       0.38666      -0.030539    
1.04         -0.35536     0.16468      -0.87977     0.25146      -0.87977     0.25146      0.3869       -0.048513    
1.05         -0.35414     0.17205      -0.87039     0.27928      -0.87039     0.27928      0.38628      -0.066557    
1.06         -0.35274     0.1794       -0.86013     0.30675      -0.86013     0.30675      0.38478      -0.084628    
1.07         -0.35116     0.18675      -0.84903     0.33385      -0.84903     0.33385      0.3824       -0.10268     
1.08         -0.34939     0.19408      -0.83709     0.36054      -0.83709     0.36054      0.37913      -0.12067     
1.09         -0.34745     0.20139      -0.82432     0.3868       -0.82432     0.3868       0.375        -0.13856     
1.1          -0.34533     0.20868      -0.81075     0.4126       -0.81075     0.4126       0.36998      -0.15629     
1.11         -0.34302     0.21593      -0.79639     0.43793      -0.79639     0.43793      0.3641       -0.17383     
1.12         -0.34054     0.22315      -0.78125     0.46276      -0.78125     0.46276      0.35736      -0.19113     
1.13         -0.33788     0.23033      -0.76536     0.48707      -0.76536     0.48707      0.34977      -0.20816     
1.14         -0.33504     0.23747      -0.74873     0.51083      -0.74873     0.51083      0.34134      -0.22485     
1.15         -0.33203     0.24455      -0.73138     0.53402      -0.73138     0.53402      0.3321       -0.24119     
1.16         -0.32884     0.25158      -0.71333     0.55662      -0.71333     0.55662      0.32204      -0.25711     
1.17         -0.32547     0.25856      -0.6946      0.57862      -0.6946      0.57862      0.31121      -0.27259     
1.18         -0.32194     0.26547      -0.67521     0.59998      -0.67521     0.59998      0.29961      -0.28758     
1.19         -0.31823     0.27231      -0.65518     0.62071      -0.65518     0.62071      0.28727      -0.30205     
1.2          -0.31436     0.27909      -0.63453     0.64076      -0.63453     0.64076      0.27421      -0.31595     
1.21         -0.31032     0.28578      -0.61329     0.66014      -0.61329     0.66014      0.26047      -0.32926     
1.22         -0.30611     0.2924       -0.59147     0.67881      -0.59147     0.67881      0.24607      -0.34193     
1.23         -0.30174     0.29893      -0.5691      0.69678      -0.5691      0.69678      0.23103      -0.35394     
1.24         -0.29721     0.30537      -0.54621     0.71401      -0.54621     0.71401      0.21541      -0.36526     
1.25         -0.29252     0.31172      -0.52281     0.7305       -0.52281     0.7305       0.19921      -0.37584     
1.26         -0.28768     0.31797      -0.49893     0.74623      -0.49893     0.74623      0.1825       -0.38567     
1.27         -0.28268     0.32411      -0.4746      0.76119      -0.4746      0.76119      0.16529      -0.39472     
1.28         -0.27753     0.33016      -0.44983     0.77536      -0.44983     0.77536      0.14762      -0.40297     
1.29         -0.27224     0.33609      -0.42465     0.78874      -0.42465     0.78874      0.12954      -0.41039     
1.3          -0.26679     0.34191      -0.3991      0.80132      -0.3991      0.80132      0.11109      -0.41695     
1.31         -0.26121     0.34761      -0.37318     0.81308      -0.37318     0.81308      0.092309     -0.42265     
1.32         -0.25549     0.3532       -0.34694     0.82401      -0.34694     0.82401      0.073234     -0.42747     
1.33         -0.24963     0.35865      -0.32039     0.83411      -0.32039     0.83411      0.053912     -0.43139     
1.34         -0.24364     0.36398      -0.29355     0.84337      -0.29355     0.84337      0.034386     -0.4344      
1.35         -0.23752     0.36918      -0.26647     0.85178      -0.26647     0.85178      0.0147       -0.43648     
1.36         -0.23128     0.37425      -0.23915     0.85934      -0.23915     0.85934      -0.0051012   -0.43764     
1.37         -0.22491     0.37918      -0.21163     0.86603      -0.21163     0.86603      -0.024972    -0.43786     
1.38         -0.21843     0.38397      -0.18394     0.87186      -0.18394     0.87186      -0.044867    -0.43714     
1.39         -0.21183     0.38861      -0.1561      0.87682      -0.1561      0.87682      -0.064742    -0.43548     
1.4          -0.20512     0.39311      -0.12813     0.88091      -0.12813     0.88091      -0.08455     -0.43288     
1.41         -0.1983      0.39746      -0.10007     0.88412      -0.10007     0.88412      -0.10425     -0.42935     
1.42         -0.19138     0.40166      -0.071937    0.88646      -0.071937    0.88646      -0.12378     -0.42489     
1.43         -0.18436     0.4057       -0.04376     0.88792      -0.04376     0.88792      -0.14312     -0.4195      
1.44         -0.17724     0.40959      -0.015566    0.8885       -0.015566    0.8885       -0.16221     -0.4132      
1.45         -0.17004     0.41332      0.012619     0.8882       0.012619     0.8882       -0.18101     -0.406       
1.46         -0.16274     0.41689      0.040768     0.88702      0.040768     0.88702      -0.19947     -0.39791     
1.47         -0.15537     0.4203       0.068855     0.88497      0.068855     0.88497      -0.21755     -0.38895     
1.48         -0.14791     0.42355      0.096853     0.88205      0.096853     0.88205      -0.23522     -0.37913     
1.49         -0.14038     0.42662      0.12474      0.87826      0.12474      0.87826      -0.25242     -0.36849     
1.5          -0.13278     0.42953      0.15248      0.87361      0.15248      0.87361      -0.26913     -0.35703     
1.51         -0.12511     0.43228      0.18006      0.8681       0.18006      0.8681       -0.28529     -0.34479     
1.52         -0.11738     0.43485      0.20744      0.86173      0.20744      0.86173      -0.30088     -0.33179     
1.53         -0.1096      0.43724      0.23461      0.85452      0.23461      0.85452      -0.31585     -0.31806     
1.54         -0.10176     0.43947      0.26154      0.84646      0.26154      0.84646      -0.33017     -0.30363     
1.55         -0.093869    0.44152      0.28819      0.83757      0.28819      0.83757      -0.34381     -0.28852     
1.56         -0.085936    0.4434       0.31456      0.82786      0.31456      0.82786      -0.35674     -0.27279     
1.57         -0.077963    0.4451       0.3406       0.81734      0.3406       0.81734      -0.36892     -0.25645     
1.58         -0.069953    0.44662      0.36631      0.80601      0.36631      0.80601      -0.38033     -0.23954     
1.59         -0.061912    0.44797      0.39164      0.79389      0.39164      0.79389      -0.39093     -0.22211     
1.6          -0.053844    0.44914      0.41659      0.78098      0.41659      0.78098      -0.40071     -0.20419     
1.61         -0.045753    0.45013      0.44112      0.7673       0.44112      0.7673       -0.40965     -0.18582     
1.62         -0.037643    0.45094      0.46522      0.75287      0.46522      0.75287      -0.41771     -0.16704     
1.63         -0.029519    0.45158      0.48886      0.73769      0.48886      0.73769      -0.42488     -0.1479      
1.64         -0.021385    0.45203      0.51201      0.72178      0.51201      0.72178      -0.43115     -0.12844     
1.65         -0.013246    0.45231      0.53466      0.70515      0.53466      0.70515      -0.4365      -0.1087      
1.66         -0.0051045   0.45241      0.55678      0.68782      0.55678      0.68782      -0.44091     -0.088721    
1.67         0.003034     0.45233      0.57836      0.66981      0.57836      0.66981      -0.44438     -0.068559    
1.68         0.011165     0.45207      0.59937      0.65113      0.59937      0.65113      -0.4469      -0.048256    
1.69         0.019286     0.45164      0.61979      0.6318       0.61979      0.6318       -0.44847     -0.027856    
1.7          0.027391     0.45103      0.6396       0.61184      0.6396       0.61184      -0.44907     -0.007407    
1.71         0.035477     0.45024      0.65879      0.59126      0.65879      0.59126      -0.44871     0.013045     
1.72         0.043539     0.44928      0.67732      0.57009      0.67732      0.57009      -0.44738     0.033453     
1.73         0.051574     0.44814      0.6952       0.54833      0.6952       0.54833      -0.4451      0.053771     
1.74         0.059577     0.44683      0.71239      0.52603      0.71239      0.52603      -0.44187     0.073952     
1.75         0.067544     0.44534      0.72888      0.50319      0.72888      0.50319      -0.43769     0.093951     
1.76         0.075473     0.44369      0.74466      0.47983      0.74466      0.47983      -0.43257     0.11372      
1.77         0.083357     0.44186      0.7597       0.45598      0.7597       0.45598      -0.42654     0.13322      
1.78         0.091195     0.43986      0.774        0.43166      0.774        0.43166      -0.41959     0.1524       
1.79         0.098981     0.4377       0.78754      0.40689      0.78754      0.40689      -0.41176     0.17122      
1.8          0.10671      0.43536      0.8003       0.3817       0.8003       0.3817       -0.40305     0.18963      
1.81         0.11439      0.43286      0.81227      0.35611      0.81227      0.35611      -0.39349     0.2076       
1.82         0.122        0.4302       0.82343      0.33013      0.82343      0.33013      -0.3831      0.22508      
1.83         0.12954      0.42738      0.83379      0.30381      0.83379      0.30381      -0.37191     0.24204      
1.84         0.13701      0.42439      0.84332      0.27716      0.84332      0.27716      -0.35994     0.25844      
1.85         0.14442      0.42124      0.85201      0.25021      0.85201      0.25021      -0.34723     0.27423      
1.86         0.15174      0.41794      0.85986      0.22297      0.85986      0.22297      -0.3338      0.28938      
1.87         0.15898      0.41448      0.86685      0.19549      0.86685      0.19549      -0.31968     0.30387      
1.88         0.16614      0.41087      0.87298      0.16778      0.87298      0.16778      -0.30492     0.31766      
1.89         0.17322      0.40711      0.87824      0.13987      0.87824      0.13987      -0.28954     0.33071      
1.9          0.1802       0.40319      0.88262      0.11179      0.88262      0.11179      -0.27358     0.343        
1.91         0.18708      0.39913      0.88612      0.083568     0.88612      0.083568     -0.25708     0.35451      
1.92         0.19387      0.39492      0.88873      0.055224     0.88873      0.055224     -0.24009     0.3652       
1.93         0.20056      0.39057      0.89045      0.02679      0.89045      0.02679      -0.22263     0.37506      
1.94         0.20715      0.38607      0.89127      -0.0017079   0.89127      -0.0017079   -0.20476     0.38407      
1.95         0.21362      0.38144      0.89119      -0.030242    0.89119      -0.030242    -0.18652     0.3922       
1.96         0.21999      0.37667      0.89022      -0.058783    0.89022      -0.058783    -0.16794     0.39944      
1.97         0.22624      0.37177      0.88834      -0.087305    0.88834      -0.087305    -0.14908     0.40578      
1.98         0.23238      0.36673      0.88555      -0.11578     0.88555      -0.11578     -0.12998     0.4112       
1.99         0.23839      0.36157      0.88187      -0.14418     0.88187      -0.14418     -0.11068     0.4157       
2            0.24428      0.35628      0.87729      -0.17247     0.87729      -0.17247     -0.091236    0.41926      
2.01         0.25005      0.35086      0.8718       -0.20063     0.8718       -0.20063     -0.071688    0.42189      
2.02         0.25569      0.34533      0.86543      -0.22863     0.86543      -0.22863     -0.052084    0.42358      
2.03         0.26119      0.33967      0.85816      -0.25645     0.85816      -0.25645     -0.032471    0.42433      
2.04         0.26656      0.3339       0.85001      -0.28405     0.85001      -0.28405     -0.012894    0.42415      
2.05         0.27179      0.32802      0.84098      -0.3114      0.84098      -0.3114      0.0065996    0.42303      
2.06         0.27688      0.32203      0.83108      -0.33849     0.83108      -0.33849     0.025964     0.42099      
2.07         0.28183      0.31593      0.82031      -0.36527     0.82031      -0.36527     0.045155     0.41803      
2.08         0.28663      0.30973      0.80868      -0.39173     0.80868      -0.39173     0.064127     0.41417      
2.09         0.29128      0.30343      0.7962       -0.41784     0.7962       -0.41784     0.082836     0.40942      
2.1          0.29578      0.29704      0.78289      -0.44357     0.78289      -0.44357     0.10124      0.40379      
2.11         0.30013      0.29055      0.76875      -0.46889     0.76875      -0.46889     0.11929      0.39731      
2.12         0.30432      0.28397      0.75379      -0.49377     0.75379      -0.49377     0.13695      0.38999      
2.13         0.30835      0.27731      0.73803      -0.5182      0.73803      -0.5182      0.15419      0.38186      
2.14         0.31222      0.27056      0.72148      -0.54215     0.72148      -0.54215     0.17095      0.37293      
2.15         0.31592      0.26373      0.70415      -0.56558     0.70415      -0.56558     0.18721      0.36325      
