!freq-unit  param-type  data-format  keyword  impedance-ohms
# GHZ           S          RI           R         50
!-----------------------------------------------------------------------------
!Freq          ReS11        ImS11        ReS21        ImS21        ReS12        ImS12        ReS22        ImS22
0.5          -0.29239     -0.032286    0.10612      -0.94688     0.10612      -0.94688     -0.29239     -0.032286    
0.51         -0.29764     -0.024332    0.079042     -0.9481      0.079042     -0.9481      -0.29764     -0.024332    
0.52         -0.30261     -0.016112    0.052012     -0.94854     0.052012     -0.94854     -0.30261     -0.016112    
0.53         -0.30728     -0.0076391   0.025054     -0.94821     0.025054     -0.94821     -0.30728     -0.0076391   
0.54         -0.31164     0.0010749    -0.0018099   -0.94711     -0.0018099   -0.94711     -0.31164     0.0010749    
0.55         -0.31569     0.010017     -0.028559    -0.94526     -0.028559    -0.94526     -0.31569     0.010017     
0.56         -0.31941     0.019173     -0.055172    -0.94265     -0.055172    -0.94265     -0.31941     0.019173     
0.57         -0.32279     0.02853      -0.081628    -0.93931     -0.081628    -0.93931     -0.32279     0.02853      
0.58         -0.32584     0.038073     -0.10791     -0.93523     -0.10791     -0.93523     -0.32584     0.038073     
0.59         -0.32853     0.04779      -0.13399     -0.93042     -0.13399     -0.93042     -0.32853     0.04779      
0.6          -0.33086     0.057665     -0.15986     -0.9249      -0.15986     -0.9249      -0.33086     0.057665     
0.61         -0.33284     0.067683     -0.18549     -0.91868     -0.18549     -0.91868     -0.33284     0.067683     
0.62         -0.33444     0.077831     -0.21088     -0.91176     -0.21088     -0.91176     -0.33444     0.077831     
0.63         -0.33568     0.088094     -0.23599     -0.90416     -0.23599     -0.90416     -0.33568     0.088094     
0.64         -0.33653     0.098455     -0.26082     -0.89588     -0.26082     -0.89588     -0.33653     0.098455     
0.65         -0.33701     0.1089       -0.28534     -0.88695     -0.28534     -0.88695     -0.33701     0.1089       
0.66         -0.33711     0.11942      -0.30954     -0.87736     -0.30954     -0.87736     -0.33711     0.11942      
0.67         -0.33682     0.12999      -0.33341     -0.86713     -0.33341     -0.86713     -0.33682     0.12999      
0.68         -0.33614     0.1406       -0.35692     -0.85628     -0.35692     -0.85628     -0.33614     0.1406       
0.69         -0.33508     0.15123      -0.38007     -0.84482     -0.38007     -0.84482     -0.33508     0.15123      
0.7          -0.33362     0.16188      -0.40283     -0.83275     -0.40283     -0.83275     -0.33362     0.16188      
0.71         -0.33178     0.17252      -0.42521     -0.8201      -0.42521     -0.8201      -0.33178     0.17252      
0.72         -0.32956     0.18314      -0.44717     -0.80688     -0.44717     -0.80688     -0.32956     0.18314      
0.73         -0.32694     0.19372      -0.46871     -0.79309     -0.46871     -0.79309     -0.32694     0.19372      
0.74         -0.32394     0.20425      -0.48982     -0.77876     -0.48982     -0.77876     -0.32394     0.20425      
0.75         -0.32056     0.21472      -0.51048     -0.7639      -0.51048     -0.7639      -0.32056     0.21472      
0.76         -0.3168      0.22512      -0.53069     -0.74852     -0.53069     -0.74852     -0.3168      0.22512      
0.77         -0.31267     0.23542      -0.55042     -0.73264     -0.55042     -0.73264     -0.31267     0.23542      
0.78         -0.30816     0.24561      -0.56968     -0.71626     -0.56968     -0.71626     -0.30816     0.24561      
0.79         -0.30328     0.25569      -0.58844     -0.69942     -0.58844     -0.69942     -0.30328     0.25569      
0.8          -0.29805     0.26563      -0.60671     -0.68211     -0.60671     -0.68211     -0.29805     0.26563      
0.81         -0.29245     0.27542      -0.62446     -0.66436     -0.62446     -0.66436     -0.29245     0.27542      
0.82         -0.2865      0.28505      -0.6417      -0.64617     -0.6417      -0.64617     -0.2865      0.28505      
0.83         -0.28021     0.29452      -0.65841     -0.62757     -0.65841     -0.62757     -0.28021     0.29452      
0.84         -0.27357     0.30379      -0.67458     -0.60858     -0.67458     -0.60858     -0.27357     0.30379      
0.85         -0.26661     0.31287      -0.69021     -0.58919     -0.69021     -0.58919     -0.26661     0.31287      
0.86         -0.25932     0.32175      -0.70529     -0.56944     -0.70529     -0.56944     -0.25932     0.32175      
0.87         -0.25171     0.3304       -0.71981     -0.54933     -0.71981     -0.54933     -0.25171     0.3304       
0.88         -0.24379     0.33882      -0.73376     -0.52889     -0.73376     -0.52889     -0.24379     0.33882      
0.89         -0.23558     0.34699      -0.74715     -0.50812     -0.74715     -0.50812     -0.23558     0.34699      
0.9          -0.22707     0.35492      -0.75995     -0.48704     -0.75995     -0.48704     -0.22707     0.35492      
0.91         -0.21828     0.36258      -0.77218     -0.46566     -0.77218     -0.46566     -0.21828     0.36258      
0.92         -0.20922     0.36997      -0.78382     -0.44401     -0.78382     -0.44401     -0.20922     0.36997      
0.93         -0.1999      0.37708      -0.79486     -0.4221      -0.79486     -0.4221      -0.1999      0.37708      
0.94         -0.19032     0.38389      -0.80531     -0.39994     -0.80531     -0.39994     -0.19032     0.38389      
0.95         -0.1805      0.39041      -0.81516     -0.37755     -0.81516     -0.37755     -0.1805      0.39041      
0.96         -0.17045     0.39661      -0.8244      -0.35494     -0.8244      -0.35494     -0.17045     0.39661      
0.97         -0.16019     0.40251      -0.83303     -0.33213     -0.83303     -0.33213     -0.16019     0.40251      
0.98         -0.14971     0.40807      -0.84106     -0.30914     -0.84106     -0.30914     -0.14971     0.40807      
0.99         -0.13904     0.41331      -0.84847     -0.28597     -0.84847     -0.28597     -0.13904     0.41331      
1            -0.12818     0.41821      -0.85526     -0.26265     -0.85526     -0.26265     -0.12818     0.41821      
1.01         -0.11714     0.42277      -0.86143     -0.23919     -0.86143     -0.23919     -0.11714     0.42277      
1.02         -0.10595     0.42698      -0.86699     -0.21561     -0.86699     -0.21561     -0.10595     0.42698      
1.03         -0.094603    0.43083      -0.87192     -0.19191     -0.87192     -0.19191     -0.094603    0.43083      
1.04         -0.083122    0.43432      -0.87623     -0.16812     -0.87623     -0.16812     -0.083122    0.43432      
1.05         -0.071516    0.43746      -0.87992     -0.14426     -0.87992     -0.14426     -0.071516    0.43746      
1.06         -0.059798    0.44022      -0.88298     -0.12033     -0.88298     -0.12033     -0.059798    0.44022      
1.07         -0.047981    0.44261      -0.88541     -0.096345    -0.88541     -0.096345    -0.047981    0.44261      
1.08         -0.036077    0.44462      -0.88723     -0.07233     -0.88723     -0.07233     -0.036077    0.44462      
1.09         -0.0241      0.44626      -0.88842     -0.048296    -0.88842     -0.048296    -0.0241      0.44626      
1.1          -0.012062    0.44752      -0.88898     -0.024258    -0.88898     -0.024258    -0.012062    0.44752      
1.11         2.2857e-05   0.4484       -0.88893     -0.00023022  -0.88893     -0.00023022  2.2857e-05   0.4484       
1.12         0.012142     0.44889      -0.88825     0.023773     -0.88825     0.023773     0.012142     0.44889      
1.13         0.024283     0.449        -0.88695     0.047736     -0.88695     0.047736     0.024283     0.449        
1.14         0.036432     0.44873      -0.88504     0.071644     -0.88504     0.071644     0.036432     0.44873      
1.15         0.048576     0.44807      -0.8825      0.095484     -0.8825      0.095484     0.048576     0.44807      
1.16         0.060702     0.44703      -0.87936     0.11924      -0.87936     0.11924      0.060702     0.44703      
1.17         0.072797     0.4456       -0.8756      0.1429       -0.8756      0.1429       0.072797     0.4456       
1.18         0.084848     0.44379      -0.87124     0.16645      -0.87124     0.16645      0.084848     0.44379      
1.19         0.096842     0.44161      -0.86627     0.18987      -0.86627     0.18987      0.096842     0.44161      
1.2          0.10877      0.43904      -0.8607      0.21315      -0.8607      0.21315      0.10877      0.43904      
1.21         0.12061      0.43609      -0.85453     0.23627      -0.85453     0.23627      0.12061      0.43609      
1.22         0.13235      0.43278      -0.84776     0.25923      -0.84776     0.25923      0.13235      0.43278      
1.23         0.14399      0.42909      -0.84041     0.282        -0.84041     0.282        0.14399      0.42909      
1.24         0.1555       0.42504      -0.83247     0.30458      -0.83247     0.30458      0.1555       0.42504      
1.25         0.16689      0.42063      -0.82395     0.32695      -0.82395     0.32695      0.16689      0.42063      
1.26         0.17812      0.41586      -0.81485     0.3491       -0.81485     0.3491       0.17812      0.41586      
1.27         0.1892       0.41074      -0.80519     0.371        -0.80519     0.371        0.1892       0.41074      
1.28         0.20011      0.40527      -0.79495     0.39266      -0.79495     0.39266      0.20011      0.40527      
1.29         0.21084      0.39946      -0.78416     0.41405      -0.78416     0.41405      0.21084      0.39946      
1.3          0.22138      0.39332      -0.77281     0.43517      -0.77281     0.43517      0.22138      0.39332      
1.31         0.23171      0.38685      -0.76092     0.45599      -0.76092     0.45599      0.23171      0.38685      
1.32         0.24183      0.38006      -0.74848     0.47651      -0.74848     0.47651      0.24183      0.38006      
1.33         0.25172      0.37296      -0.73552     0.49672      -0.73552     0.49672      0.25172      0.37296      
1.34         0.26137      0.36555      -0.72202     0.51659      -0.72202     0.51659      0.26137      0.36555      
1.35         0.27078      0.35784      -0.708       0.53612      -0.708       0.53612      0.27078      0.35784      
1.36         0.27993      0.34985      -0.69347     0.5553       -0.69347     0.5553       0.27993      0.34985      
1.37         0.28881      0.34158      -0.67844     0.57411      -0.67844     0.57411      0.28881      0.34158      
1.38         0.29742      0.33303      -0.66291     0.59253      -0.66291     0.59253      0.29742      0.33303      
1.39         0.30574      0.32423      -0.64689     0.61057      -0.64689     0.61057      0.30574      0.32423      
1.4          0.31376      0.31517      -0.63039     0.6282       -0.63039     0.6282       0.31376      0.31517      
1.41         0.32148      0.30588      -0.61342     0.64541      -0.61342     0.64541      0.32148      0.30588      
1.42         0.32889      0.29635      -0.59599     0.66219      -0.59599     0.66219      0.32889      0.29635      
1.43         0.33598      0.2866       -0.57811     0.67854      -0.57811     0.67854      0.33598      0.2866       
1.44         0.34274      0.27665      -0.55979     0.69443      -0.55979     0.69443      0.34274      0.27665      
1.45         0.34917      0.2665       -0.54103     0.70985      -0.54103     0.70985      0.34917      0.2665       
1.46         0.35526      0.25616      -0.52185     0.7248       -0.52185     0.7248       0.35526      0.25616      
1.47         0.361        0.24565      -0.50225     0.73927      -0.50225     0.73927      0.361        0.24565      
1.48         0.36638      0.23498      -0.48226     0.75323      -0.48226     0.75323      0.36638      0.23498      
1.49         0.37141      0.22416      -0.46188     0.76668      -0.46188     0.76668      0.37141      0.22416      
1.5          0.37607      0.21321      -0.44112     0.77962      -0.44112     0.77962      0.37607      0.21321      
1.51         0.38036      0.20213      -0.41999     0.79202      -0.41999     0.79202      0.38036      0.20213      
1.52         0.38427      0.19094      -0.3985      0.80389      -0.3985      0.80389      0.38427      0.19094      
1.53         0.38781      0.17966      -0.37668     0.8152       -0.37668     0.8152       0.38781      0.17966      
1.54         0.39097      0.16829      -0.35452     0.82595      -0.35452     0.82595      0.39097      0.16829      
1.55         0.39374      0.15685      -0.33205     0.83613      -0.33205     0.83613      0.39374      0.15685      
1.56         0.39613      0.14536      -0.30927     0.84572      -0.30927     0.84572      0.39613      0.14536      
1.57         0.39813      0.13382      -0.2862      0.85473      -0.2862      0.85473      0.39813      0.13382      
1.58         0.39974      0.12226      -0.26285     0.86314      -0.26285     0.86314      0.39974      0.12226      
1.59         0.40095      0.11068      -0.23924     0.87093      -0.23924     0.87093      0.40095      0.11068      
1.6          0.40178      0.099098     -0.21539     0.87811      -0.21539     0.87811      0.40178      0.099098     
1.61         0.40221      0.087533     -0.19129     0.88466      -0.19129     0.88466      0.40221      0.087533     
1.62         0.40225      0.075998     -0.16698     0.89058      -0.16698     0.89058      0.40225      0.075998     
1.63         0.4019       0.064505     -0.14247     0.89586      -0.14247     0.89586      0.4019       0.064505     
1.64         0.40117      0.05307      -0.11777     0.90048      -0.11777     0.90048      0.40117      0.05307      
1.65         0.40004      0.041706     -0.09289     0.90445      -0.09289     0.90445      0.40004      0.041706     
1.66         0.39853      0.030428     -0.067859    0.90775      -0.067859    0.90775      0.39853      0.030428     
1.67         0.39665      0.01925      -0.042688    0.91038      -0.042688    0.91038      0.39665      0.01925      
1.68         0.39438      0.0081871    -0.017394    0.91233      -0.017394    0.91233      0.39438      0.0081871    
1.69         0.39174      -0.0027475   0.0080062    0.9136       0.0080062    0.9136       0.39174      -0.0027475   
1.7          0.38873      -0.013539    0.033494     0.91417      0.033494     0.91417      0.38873      -0.013539    
1.71         0.38536      -0.024175    0.059053     0.91405      0.059053     0.91405      0.38536      -0.024175    
1.72         0.38164      -0.03464     0.084664     0.91323      0.084664     0.91323      0.38164      -0.03464     
1.73         0.37756      -0.044921    0.11031      0.91171      0.11031      0.91171      0.37756      -0.044921    
1.74         0.37314      -0.055005    0.13597      0.90947      0.13597      0.90947      0.37314      -0.055005    
1.75         0.36839      -0.064879    0.16163      0.90652      0.16163      0.90652      0.36839      -0.064879    
1.76         0.3633       -0.074529    0.18726      0.90286      0.18726      0.90286      0.3633       -0.074529    
1.77         0.3579       -0.083942    0.21286      0.89847      0.21286      0.89847      0.3579       -0.083942    
1.78         0.35219      -0.093107    0.23839      0.89337      0.23839      0.89337      0.35219      -0.093107    
1.79         0.34618      -0.10201     0.26384      0.88754      0.26384      0.88754      0.34618      -0.10201     
1.8          0.33988      -0.11064     0.28919      0.88098      0.28919      0.88098      0.33988      -0.11064     
1.81         0.3333       -0.11899     0.31442      0.8737       0.31442      0.8737       0.3333       -0.11899     
1.82         0.32646      -0.12704     0.3395       0.86569      0.3395       0.86569      0.32646      -0.12704     
1.83         0.31935      -0.13479     0.36442      0.85696      0.36442      0.85696      0.31935      -0.13479     
1.84         0.31201      -0.14222     0.38916      0.8475       0.38916      0.8475       0.31201      -0.14222     
1.85         0.30443      -0.14933     0.41369      0.83731      0.41369      0.83731      0.30443      -0.14933     
1.86         0.29664      -0.1561      0.43799      0.82641      0.43799      0.82641      0.29664      -0.1561      
1.87         0.28864      -0.16253     0.46204      0.81478      0.46204      0.81478      0.28864      -0.16253     
1.88         0.28045      -0.1686      0.48583      0.80244      0.48583      0.80244      0.28045      -0.1686      
1.89         0.27209      -0.17431     0.50932      0.78939      0.50932      0.78939      0.27209      -0.17431     
1.9          0.26357      -0.17966     0.53249      0.77563      0.53249      0.77563      0.26357      -0.17966     
1.91         0.2549       -0.18464     0.55533      0.76116      0.55533      0.76116      0.2549       -0.18464     
1.92         0.24611      -0.18923     0.5778       0.74601      0.5778       0.74601      0.24611      -0.18923     
1.93         0.2372       -0.19344     0.5999       0.73016      0.5999       0.73016      0.2372       -0.19344     
1.94         0.22819      -0.19726     0.62159      0.71363      0.62159      0.71363      0.22819      -0.19726     
1.95         0.2191       -0.20068     0.64286      0.69643      0.64286      0.69643      0.2191       -0.20068     
1.96         0.20995      -0.20371     0.66368      0.67857      0.66368      0.67857      0.20995      -0.20371     
1.97         0.20076      -0.20634     0.68402      0.66005      0.68402      0.66005      0.20076      -0.20634     
1.98         0.19153      -0.20857     0.70388      0.64089      0.70388      0.64089      0.19153      -0.20857     
1.99         0.18229      -0.21039     0.72322      0.6211       0.72322      0.6211       0.18229      -0.21039     
2            0.17306      -0.21182     0.74203      0.60068      0.74203      0.60068      0.17306      -0.21182     
2.01         0.16385      -0.21284     0.76027      0.57967      0.76027      0.57967      0.16385      -0.21284     
2.02         0.15468      -0.21345     0.77794      0.55806      0.77794      0.55806      0.15468      -0.21345     
2.03         0.14558      -0.21367     0.79501      0.53587      0.79501      0.53587      0.14558      -0.21367     
2.04         0.13654      -0.21349     0.81146      0.51312      0.81146      0.51312      0.13654      -0.21349     
2.05         0.12761      -0.21292     0.82727      0.48982      0.82727      0.48982      0.12761      -0.21292     
2.06         0.11878      -0.21196     0.84241      0.466        0.84241      0.466        0.11878      -0.21196     
2.07         0.11009      -0.21062     0.85687      0.44167      0.85687      0.44167      0.11009      -0.21062     
2.08         0.10154      -0.2089      0.87064      0.41685      0.87064      0.41685      0.10154      -0.2089      
2.09         0.093155     -0.20681     0.88368      0.39155      0.88368      0.39155      0.093155     -0.20681     
2.1          0.084952     -0.20436     0.89599      0.36581      0.89599      0.36581      0.084952     -0.20436     
2.11         0.076946     -0.20155     0.90754      0.33964      0.90754      0.33964      0.076946     -0.20155     
2.12         0.069154     -0.1984      0.91832      0.31306      0.91832      0.31306      0.069154     -0.1984      
2.13         0.061591     -0.19492     0.92831      0.2861       0.92831      0.2861       0.061591     -0.19492     
2.14         0.054274     -0.19111     0.9375       0.25878      0.9375       0.25878      0.054274     -0.19111     
2.15         0.047217     -0.18699     0.94587      0.23112      0.94587      0.23112      0.047217     -0.18699     
