!freq-unit  param-type  data-format  keyword  impedance-ohms
# GHZ           S          RI           R         50
!-----------------------------------------------------------------------------
!Freq          ReS11        ImS11        ReS21        ImS21        ReS12        ImS12        ReS22        ImS22
0.5          -0.25332     -0.12816     0.36773      -0.88298     0.36773      -0.88298     -0.26964     -0.088554    
0.51         -0.26037     -0.12478     0.34677      -0.88984     0.34677      -0.88984     -0.27635     -0.083301    
0.52         -0.26734     -0.12115     0.32571      -0.89619     0.32571      -0.89619     -0.28293     -0.077767    
0.53         -0.27424     -0.11726     0.30456      -0.90201     0.30456      -0.90201     -0.28935     -0.071957    
0.54         -0.28105     -0.11313     0.28333      -0.90732     0.28333      -0.90732     -0.29561     -0.065876    
0.55         -0.28776     -0.10875     0.26205      -0.91211     0.26205      -0.91211     -0.3017      -0.059531    
0.56         -0.29437     -0.10413     0.24071      -0.91639     0.24071      -0.91639     -0.30762     -0.052927    
0.57         -0.30086     -0.099268    0.21933      -0.92015     0.21933      -0.92015     -0.31334     -0.046071    
0.58         -0.30724     -0.094174    0.19794      -0.9234      0.19794      -0.9234      -0.31887     -0.038969    
0.59         -0.31349     -0.08885     0.17653      -0.92614     0.17653      -0.92614     -0.32419     -0.03163     
0.6          -0.31961     -0.083301    0.15512      -0.92837     0.15512      -0.92837     -0.32929     -0.024059    
0.61         -0.32558     -0.077531    0.13373      -0.93009     0.13373      -0.93009     -0.33417     -0.016265    
0.62         -0.33141     -0.071545    0.11236      -0.93132     0.11236      -0.93132     -0.33883     -0.0082556   
0.63         -0.33709     -0.065347    0.091037     -0.93204     0.091037     -0.93204     -0.34324     -3.8607e-05  
0.64         -0.34261     -0.058944    0.06976      -0.93227     0.06976      -0.93227     -0.34742     0.0083776    
0.65         -0.34796     -0.05234     0.048544     -0.932       0.048544     -0.932       -0.35133     0.016984     
0.66         -0.35314     -0.04554     0.027401     -0.93125     0.027401     -0.93125     -0.355       0.025774     
0.67         -0.35814     -0.038551    0.0063423    -0.93002     0.0063423    -0.93002     -0.3584      0.034736     
0.68         -0.36296     -0.031379    -0.014621    -0.9283      -0.014621    -0.9283      -0.36152     0.043862     
0.69         -0.36759     -0.024028    -0.035479    -0.92611     -0.035479    -0.92611     -0.36438     0.053144     
0.7          -0.37202     -0.016505    -0.056219    -0.92345     -0.056219    -0.92345     -0.36695     0.062571     
0.71         -0.37626     -0.0088165   -0.076833    -0.92033     -0.076833    -0.92033     -0.36924     0.072135     
0.72         -0.3803      -0.00096856  -0.09731     -0.91675     -0.09731     -0.91675     -0.37124     0.081826     
0.73         -0.38412     0.0070326    -0.11764     -0.91271     -0.11764     -0.91271     -0.37294     0.091634     
0.74         -0.38774     0.01518      -0.13781     -0.90823     -0.13781     -0.90823     -0.37435     0.10155      
0.75         -0.39113     0.023468     -0.15782     -0.9033      -0.15782     -0.9033      -0.37546     0.11156      
0.76         -0.39431     0.03189      -0.17765     -0.89794     -0.17765     -0.89794     -0.37626     0.12166      
0.77         -0.39727     0.040438     -0.1973      -0.89216     -0.1973      -0.89216     -0.37676     0.13184      
0.78         -0.4         0.049107     -0.21675     -0.88595     -0.21675     -0.88595     -0.37694     0.14209      
0.79         -0.4025      0.057889     -0.236       -0.87932     -0.236       -0.87932     -0.37682     0.15239      
0.8          -0.40476     0.066777     -0.25505     -0.87228     -0.25505     -0.87228     -0.37638     0.16274      
0.81         -0.40679     0.075764     -0.27387     -0.86484     -0.27387     -0.86484     -0.37563     0.17313      
0.82         -0.40858     0.084845     -0.29247     -0.85701     -0.29247     -0.85701     -0.37457     0.18355      
0.83         -0.41013     0.09401      -0.31083     -0.84879     -0.31083     -0.84879     -0.37318     0.19399      
0.84         -0.41144     0.10325      -0.32895     -0.84019     -0.32895     -0.84019     -0.37148     0.20443      
0.85         -0.41251     0.11257      -0.34682     -0.83121     -0.34682     -0.83121     -0.36947     0.21487      
0.86         -0.41333     0.12195      -0.36444     -0.82187     -0.36444     -0.82187     -0.36714     0.2253       
0.87         -0.4139      0.13139      -0.3818      -0.81217     -0.3818      -0.81217     -0.36449     0.2357       
0.88         -0.41422     0.14088      -0.39888     -0.80212     -0.39888     -0.80212     -0.36152     0.24608      
0.89         -0.41429     0.15041      -0.4157      -0.79172     -0.4157      -0.79172     -0.35825     0.25641      
0.9          -0.41411     0.15998      -0.43223     -0.781       -0.43223     -0.781       -0.35466     0.26669      
0.91         -0.41369     0.16958      -0.44847     -0.76994     -0.44847     -0.76994     -0.35075     0.27691      
0.92         -0.413       0.1792       -0.46442     -0.75856     -0.46442     -0.75856     -0.34654     0.28706      
0.93         -0.41207     0.18883      -0.48007     -0.74688     -0.48007     -0.74688     -0.34203     0.29713      
0.94         -0.41089     0.19848      -0.49542     -0.73489     -0.49542     -0.73489     -0.33721     0.30711      
0.95         -0.40945     0.20812      -0.51047     -0.7226      -0.51047     -0.7226      -0.33208     0.31699      
0.96         -0.40776     0.21776      -0.52519     -0.71003     -0.52519     -0.71003     -0.32666     0.32677      
0.97         -0.40582     0.22739      -0.53961     -0.69717     -0.53961     -0.69717     -0.32095     0.33643      
0.98         -0.40363     0.237        -0.5537      -0.68405     -0.5537      -0.68405     -0.31494     0.34596      
0.99         -0.40119     0.24658      -0.56746     -0.67066     -0.56746     -0.67066     -0.30864     0.35536      
1            -0.3985      0.25614      -0.58089     -0.65702     -0.58089     -0.65702     -0.30207     0.36462      
1.01         -0.39556     0.26565      -0.59399     -0.64313     -0.59399     -0.64313     -0.29521     0.37373      
1.02         -0.39238     0.27512      -0.60676     -0.62901     -0.60676     -0.62901     -0.28808     0.38267      
1.03         -0.38895     0.28454      -0.61918     -0.61465     -0.61918     -0.61465     -0.28068     0.39145      
1.04         -0.38528     0.29389      -0.63126     -0.60007     -0.63126     -0.60007     -0.27301     0.40006      
1.05         -0.38137     0.30319      -0.64299     -0.58528     -0.64299     -0.58528     -0.26508     0.40849      
1.06         -0.37722     0.31241      -0.65437     -0.57029     -0.65437     -0.57029     -0.2569      0.41672      
1.07         -0.37284     0.32156      -0.6654      -0.55509     -0.6654      -0.55509     -0.24848     0.42476      
1.08         -0.36821     0.33062      -0.67608     -0.53971     -0.67608     -0.53971     -0.23981     0.43259      
1.09         -0.36336     0.3396       -0.6864      -0.52415     -0.6864      -0.52415     -0.2309      0.44021      
1.1          -0.35827     0.34848      -0.69636     -0.50841     -0.69636     -0.50841     -0.22176     0.44762      
1.11         -0.35296     0.35726      -0.70596     -0.49251     -0.70596     -0.49251     -0.2124      0.4548       
1.12         -0.34743     0.36593      -0.7152      -0.47646     -0.7152      -0.47646     -0.20282     0.46175      
1.13         -0.34167     0.3745       -0.72408     -0.46025     -0.72408     -0.46025     -0.19303     0.46846      
1.14         -0.33569     0.38294      -0.73259     -0.44391     -0.73259     -0.44391     -0.18303     0.47493      
1.15         -0.3295      0.39127      -0.74073     -0.42743     -0.74073     -0.42743     -0.17284     0.48115      
1.16         -0.3231      0.39946      -0.74851     -0.41083     -0.74851     -0.41083     -0.16246     0.48712      
1.17         -0.31649     0.40752      -0.75592     -0.39412     -0.75592     -0.39412     -0.15189     0.49283      
1.18         -0.30968     0.41545      -0.76296     -0.37729     -0.76296     -0.37729     -0.14115     0.49828      
1.19         -0.30266     0.42323      -0.76963     -0.36037     -0.76963     -0.36037     -0.13024     0.50346      
1.2          -0.29545     0.43086      -0.77594     -0.34335     -0.77594     -0.34335     -0.11917     0.50836      
1.21         -0.28804     0.43834      -0.78187     -0.32624     -0.78187     -0.32624     -0.10795     0.51299      
1.22         -0.28045     0.44566      -0.78743     -0.30906     -0.78743     -0.30906     -0.09658     0.51733      
1.23         -0.27267     0.45282      -0.79262     -0.29181     -0.79262     -0.29181     -0.085075    0.52139      
1.24         -0.26471     0.45982      -0.79745     -0.2745      -0.79745     -0.2745      -0.07344     0.52516      
1.25         -0.25657     0.46664      -0.8019      -0.25714     -0.8019      -0.25714     -0.061683    0.52864      
1.26         -0.24826     0.47329      -0.80599     -0.23972     -0.80599     -0.23972     -0.049813    0.53182      
1.27         -0.23978     0.47976      -0.8097      -0.22227     -0.8097      -0.22227     -0.037837    0.5347       
1.28         -0.23113     0.48605      -0.81305     -0.20479     -0.81305     -0.20479     -0.025765    0.53728      
1.29         -0.22233     0.49215      -0.81604     -0.18728     -0.81604     -0.18728     -0.013604    0.53956      
1.3          -0.21338     0.49806      -0.81865     -0.16975     -0.81865     -0.16975     -0.0013621   0.54153      
1.31         -0.20427     0.50377      -0.82091     -0.15221     -0.82091     -0.15221     0.010952     0.54319      
1.32         -0.19502     0.50929      -0.82279     -0.13467     -0.82279     -0.13467     0.02333      0.54454      
1.33         -0.18563     0.51461      -0.82432     -0.11714     -0.82432     -0.11714     0.035763     0.54558      
1.34         -0.1761      0.51973      -0.82549     -0.099609    -0.82549     -0.099609    0.048243     0.5463       
1.35         -0.16645     0.52463      -0.8263      -0.0821      -0.8263      -0.0821      0.060762     0.54671      
1.36         -0.15667     0.52933      -0.82675     -0.064615    -0.82675     -0.064615    0.073312     0.54681      
1.37         -0.14677     0.53382      -0.82684     -0.047162    -0.82684     -0.047162    0.085883     0.54659      
1.38         -0.13675     0.53809      -0.82658     -0.029746    -0.82658     -0.029746    0.098467     0.54606      
1.39         -0.12663     0.54214      -0.82597     -0.012374    -0.82597     -0.012374    0.11106      0.5452       
1.4          -0.1164      0.54597      -0.82501     0.0049468    -0.82501     0.0049468    0.12364      0.54403      
1.41         -0.10607     0.54958      -0.8237      0.02221      -0.8237      0.02221      0.13622      0.54255      
1.42         -0.095651    0.55297      -0.82205     0.03941      -0.82205     0.03941      0.14877      0.54075      
1.43         -0.085142    0.55613      -0.82006     0.05654      -0.82006     0.05654      0.1613       0.53863      
1.44         -0.074549    0.55905      -0.81772     0.073594     -0.81772     0.073594     0.17379      0.5362       
1.45         -0.063879    0.56175      -0.81505     0.090566     -0.81505     0.090566     0.18623      0.53345      
1.46         -0.053136    0.56422      -0.81204     0.10745      -0.81204     0.10745      0.19862      0.5304       
1.47         -0.042327    0.56645      -0.8087      0.12424      -0.8087      0.12424      0.21095      0.52703      
1.48         -0.031457    0.56845      -0.80504     0.14093      -0.80504     0.14093      0.22321      0.52336      
1.49         -0.020531    0.57021      -0.80104     0.15751      -0.80104     0.15751      0.23539      0.51937      
1.5          -0.0095549   0.57174      -0.79672     0.17398      -0.79672     0.17398      0.24749      0.51509      
1.51         0.001466     0.57302      -0.79208     0.19034      -0.79208     0.19034      0.2595       0.5105       
1.52         0.012526     0.57407      -0.78713     0.20657      -0.78713     0.20657      0.2714       0.50561      
1.53         0.02362      0.57488      -0.78186     0.22267      -0.78186     0.22267      0.2832       0.50042      
1.54         0.034741     0.57544      -0.77628     0.23864      -0.77628     0.23864      0.29488      0.49494      
1.55         0.045885     0.57577      -0.77039     0.25447      -0.77039     0.25447      0.30643      0.48917      
1.56         0.057046     0.57585      -0.7642      0.27015      -0.7642      0.27015      0.31785      0.48311      
1.57         0.068219     0.57569      -0.75771     0.28569      -0.75771     0.28569      0.32914      0.47677      
1.58         0.079397     0.57529      -0.75092     0.30107      -0.75092     0.30107      0.34028      0.47014      
1.59         0.090576     0.57464      -0.74384     0.31629      -0.74384     0.31629      0.35127      0.46324      
1.6          0.10175      0.57376      -0.73646     0.33135      -0.73646     0.33135      0.36209      0.45607      
1.61         0.11291      0.57263      -0.72881     0.34623      -0.72881     0.34623      0.37275      0.44862      
1.62         0.12406      0.57126      -0.72087     0.36095      -0.72087     0.36095      0.38324      0.44092      
1.63         0.13518      0.56965      -0.71265     0.37548      -0.71265     0.37548      0.39354      0.43295      
1.64         0.14628      0.5678       -0.70416     0.38983      -0.70416     0.38983      0.40366      0.42473      
1.65         0.15735      0.56571      -0.6954      0.40399      -0.6954      0.40399      0.41359      0.41626      
1.66         0.16837      0.56338      -0.68637     0.41796      -0.68637     0.41796      0.42331      0.40754      
1.67         0.17936      0.56081      -0.67708     0.43174      -0.67708     0.43174      0.43283      0.39858      
1.68         0.19029      0.55801      -0.66753     0.44531      -0.66753     0.44531      0.44214      0.38939      
1.69         0.20117      0.55497      -0.65773     0.45868      -0.65773     0.45868      0.45123      0.37997      
1.7          0.21199      0.55169      -0.64768     0.47184      -0.64768     0.47184      0.4601       0.37033      
1.71         0.22275      0.54819      -0.63738     0.48478      -0.63738     0.48478      0.46874      0.36046      
1.72         0.23343      0.54445      -0.62685     0.49751      -0.62685     0.49751      0.47714      0.35039      
1.73         0.24405      0.54048      -0.61607     0.51002      -0.61607     0.51002      0.48531      0.34011      
1.74         0.25458      0.53628      -0.60507     0.5223       -0.60507     0.5223       0.49323      0.32962      
1.75         0.26502      0.53186      -0.59383     0.53435      -0.59383     0.53435      0.5009       0.31895      
1.76         0.27538      0.52721      -0.58237     0.54617      -0.58237     0.54617      0.50831      0.30809      
1.77         0.28564      0.52234      -0.5707      0.55776      -0.5707      0.55776      0.51547      0.29704      
1.78         0.2958       0.51725      -0.5588      0.5691       -0.5588      0.5691       0.52236      0.28582      
1.79         0.30585      0.51195      -0.5467      0.5802       -0.5467      0.5802       0.52899      0.27443      
1.8          0.3158       0.50643      -0.5344      0.59106      -0.5344      0.59106      0.53534      0.26289      
1.81         0.32563      0.50069      -0.52189     0.60167      -0.52189     0.60167      0.54141      0.25118      
1.82         0.33534      0.49475      -0.50919     0.61202      -0.50919     0.61202      0.54721      0.23933      
1.83         0.34492      0.48859      -0.49629     0.62212      -0.49629     0.62212      0.55272      0.22734      
1.84         0.35438      0.48224      -0.48321     0.63196      -0.48321     0.63196      0.55795      0.21522      
1.85         0.3637       0.47568      -0.46995     0.64154      -0.46995     0.64154      0.56289      0.20297      
1.86         0.37289      0.46892      -0.45651     0.65086      -0.45651     0.65086      0.56753      0.1906       
1.87         0.38193      0.46197      -0.4429      0.6599       -0.4429      0.6599       0.57188      0.17812      
1.88         0.39082      0.45482      -0.42912     0.66868      -0.42912     0.66868      0.57592      0.16553      
1.89         0.39957      0.44749      -0.41517     0.67719      -0.41517     0.67719      0.57967      0.15285      
1.9          0.40816      0.43997      -0.40107     0.68542      -0.40107     0.68542      0.58311      0.14008      
1.91         0.41659      0.43227      -0.38682     0.69337      -0.38682     0.69337      0.58625      0.12723      
1.92         0.42485      0.42438      -0.37242     0.70104      -0.37242     0.70104      0.58908      0.1143       
1.93         0.43295      0.41633      -0.35788     0.70843      -0.35788     0.70843      0.5916       0.10131      
1.94         0.44088      0.4081       -0.3432      0.71553      -0.3432      0.71553      0.5938       0.088259     
1.95         0.44863      0.3997       -0.32839     0.72235      -0.32839     0.72235      0.5957       0.075158     
1.96         0.45621      0.39115      -0.31345     0.72888      -0.31345     0.72888      0.59728      0.062013     
1.97         0.4636       0.38243      -0.29838     0.73512      -0.29838     0.73512      0.59854      0.048834     
1.98         0.4708       0.37355      -0.2832      0.74106      -0.2832      0.74106      0.59949      0.035627     
1.99         0.47782      0.36453      -0.26791     0.74671      -0.26791     0.74671      0.60012      0.022401     
2            0.48464      0.35536      -0.25251     0.75206      -0.25251     0.75206      0.60044      0.009163     
2.01         0.49127      0.34604      -0.23701     0.75711      -0.23701     0.75711      0.60044      -0.0040783   
2.02         0.49769      0.33659      -0.22141     0.76186      -0.22141     0.76186      0.60012      -0.017315    
2.03         0.50391      0.327        -0.20572     0.76631      -0.20572     0.76631      0.59948      -0.03054     
2.04         0.50993      0.31728      -0.18994     0.77045      -0.18994     0.77045      0.59853      -0.043745    
2.05         0.51574      0.30744      -0.17408     0.77429      -0.17408     0.77429      0.59726      -0.056922    
2.06         0.52134      0.29748      -0.15815     0.77783      -0.15815     0.77783      0.59567      -0.070063    
2.07         0.52672      0.2874       -0.14214     0.78105      -0.14214     0.78105      0.59377      -0.08316     
2.08         0.53189      0.27721      -0.12607     0.78396      -0.12607     0.78396      0.59156      -0.096205    
2.09         0.53684      0.26691      -0.10994     0.78657      -0.10994     0.78657      0.58903      -0.10919     
2.1          0.54156      0.25652      -0.093749    0.78886      -0.093749    0.78886      0.58619      -0.12211     
2.11         0.54606      0.24602      -0.077513    0.79084      -0.077513    0.79084      0.58304      -0.13495     
2.12         0.55034      0.23544      -0.061233    0.7925       -0.061233    0.7925       0.57959      -0.14771     
2.13         0.55438      0.22477      -0.044914    0.79385      -0.044914    0.79385      0.57583      -0.16038     
2.14         0.5582       0.21402      -0.028562    0.79488      -0.028562    0.79488      0.57176      -0.17296     
2.15         0.56178      0.2032       -0.012182    0.79559      -0.012182    0.79559      0.5674       -0.18542     
