!freq-unit  param-type  data-format  keyword  impedance-ohms
# GHZ           S          RI           R         50
!-----------------------------------------------------------------------------
!Freq          ReS11        ImS11        ReS21        ImS21        ReS12        ImS12        ReS22        ImS22
0.5          -0.2588      -0.052634    0.26375      -0.925       0.26375      -0.925       -0.24804     -0.090916    
0.51         -0.26462     -0.046415    0.23978      -0.93016     0.23978      -0.93016     -0.25447     -0.086427    
0.52         -0.27025     -0.039919    0.21574      -0.93469     0.21574      -0.93469     -0.26078     -0.081678    
0.53         -0.27569     -0.033154    0.19164      -0.93858     0.19164      -0.93858     -0.26697     -0.076672    
0.54         -0.28091     -0.026126    0.16749      -0.94184     0.16749      -0.94184     -0.27303     -0.071413    
0.55         -0.28592     -0.018844    0.14333      -0.94446     0.14333      -0.94446     -0.27896     -0.065906    
0.56         -0.29071     -0.011314    0.11915      -0.94644     0.11915      -0.94644     -0.28474     -0.060156    
0.57         -0.29525     -0.0035462   0.094991     -0.9478      0.094991     -0.9478      -0.29036     -0.054167    
0.58         -0.29955     0.0044518    0.070855     -0.94853     0.070855     -0.94853     -0.29583     -0.047944    
0.59         -0.3036      0.012671     0.046762     -0.94864     0.046762     -0.94864     -0.30112     -0.041495    
0.6          -0.30737     0.021101     0.02273      -0.94812     0.02273      -0.94812     -0.30623     -0.034823    
0.61         -0.31088     0.029734     -0.0012259   -0.94699     -0.0012259   -0.94699     -0.31116     -0.027936    
0.62         -0.31411     0.038559     -0.02509     -0.94524     -0.02509     -0.94524     -0.31589     -0.02084     
0.63         -0.31705     0.047566     -0.048845    -0.94289     -0.048845    -0.94289     -0.32043     -0.013541    
0.64         -0.3197      0.056745     -0.072478    -0.93994     -0.072478    -0.93994     -0.32476     -0.0060455   
0.65         -0.32204     0.066085     -0.095971    -0.93639     -0.095971    -0.93639     -0.32887     0.0016391    
0.66         -0.32408     0.075576     -0.11931     -0.93225     -0.11931     -0.93225     -0.33276     0.0095059    
0.67         -0.3258      0.085206     -0.14248     -0.92752     -0.14248     -0.92752     -0.33643     0.017548     
0.68         -0.32721     0.094965     -0.16547     -0.92222     -0.16547     -0.92222     -0.33986     0.025757     
0.69         -0.32829     0.10484      -0.18826     -0.91635     -0.18826     -0.91635     -0.34306     0.034126     
0.7          -0.32904     0.11482      -0.21084     -0.90992     -0.21084     -0.90992     -0.34602     0.042647     
0.71         -0.32946     0.1249       -0.2332      -0.90293     -0.2332      -0.90293     -0.34873     0.051313     
0.72         -0.32955     0.13505      -0.25531     -0.89539     -0.25531     -0.89539     -0.35118     0.060114     
0.73         -0.3293      0.14528      -0.27718     -0.88732     -0.27718     -0.88732     -0.35338     0.069044     
0.74         -0.3287      0.15557      -0.29878     -0.87872     -0.29878     -0.87872     -0.35532     0.078094     
0.75         -0.32776     0.1659       -0.3201      -0.86959     -0.3201      -0.86959     -0.35699     0.087255     
0.76         -0.32647     0.17627      -0.34114     -0.85996     -0.34114     -0.85996     -0.3584      0.09652      
0.77         -0.32483     0.18666      -0.36188     -0.84982     -0.36188     -0.84982     -0.35953     0.10588      
0.78         -0.32285     0.19706      -0.3823      -0.83919     -0.3823      -0.83919     -0.36039     0.11532      
0.79         -0.32051     0.20746      -0.4024      -0.82808     -0.4024      -0.82808     -0.36098     0.12485      
0.8          -0.31782     0.21785      -0.42217     -0.8165      -0.42217     -0.8165      -0.36128     0.13444      
0.81         -0.31479     0.22821      -0.44159     -0.80446     -0.44159     -0.80446     -0.3613      0.14409      
0.82         -0.3114      0.23853      -0.46066     -0.79196     -0.46066     -0.79196     -0.36104     0.15379      
0.83         -0.30766     0.24881      -0.47936     -0.77903     -0.47936     -0.77903     -0.36049     0.16354      
0.84         -0.30358     0.25902      -0.49769     -0.76566     -0.49769     -0.76566     -0.35965     0.17332      
0.85         -0.29915     0.26916      -0.51563     -0.75188     -0.51563     -0.75188     -0.35853     0.18312      
0.86         -0.29437     0.27921      -0.53319     -0.73769     -0.53319     -0.73769     -0.35712     0.19294      
0.87         -0.28926     0.28917      -0.55034     -0.72311     -0.55034     -0.72311     -0.35542     0.20277      
0.88         -0.2838      0.29902      -0.56708     -0.70814     -0.56708     -0.70814     -0.35343     0.2126       
0.89         -0.27801     0.30875      -0.58341     -0.6928      -0.58341     -0.6928      -0.35115     0.22241      
0.9          -0.27189     0.31835      -0.59931     -0.6771      -0.59931     -0.6771      -0.34858     0.23221      
0.91         -0.26544     0.3278       -0.61479     -0.66105     -0.61479     -0.66105     -0.34572     0.24198      
0.92         -0.25866     0.33711      -0.62982     -0.64467     -0.62982     -0.64467     -0.34257     0.25171      
0.93         -0.25157     0.34625      -0.64441     -0.62796     -0.64441     -0.62796     -0.33914     0.2614       
0.94         -0.24417     0.35521      -0.65855     -0.61095     -0.65855     -0.61095     -0.33542     0.27104      
0.95         -0.23645     0.36399      -0.67223     -0.59363     -0.67223     -0.59363     -0.33142     0.28061      
0.96         -0.22844     0.37258      -0.68545     -0.57602     -0.68545     -0.57602     -0.32713     0.29011      
0.97         -0.22012     0.38096      -0.69821     -0.55814     -0.69821     -0.55814     -0.32257     0.29954      
0.98         -0.21152     0.38913      -0.71049     -0.54        -0.71049     -0.54        -0.31773     0.30888      
0.99         -0.20263     0.39708      -0.72229     -0.52161     -0.72229     -0.52161     -0.31261     0.31812      
1            -0.19347     0.40479      -0.73362     -0.50299     -0.73362     -0.50299     -0.30721     0.32726      
1.01         -0.18404     0.41225      -0.74446     -0.48413     -0.74446     -0.48413     -0.30155     0.33629      
1.02         -0.17434     0.41947      -0.75482     -0.46507     -0.75482     -0.46507     -0.29563     0.3452       
1.03         -0.16439     0.42643      -0.76468     -0.44581     -0.76468     -0.44581     -0.28943     0.35398      
1.04         -0.1542      0.43312      -0.77405     -0.42636     -0.77405     -0.42636     -0.28298     0.36263      
1.05         -0.14376     0.43953      -0.78292     -0.40674     -0.78292     -0.40674     -0.27627     0.37114      
1.06         -0.1331      0.44566      -0.7913      -0.38696     -0.7913      -0.38696     -0.26932     0.3795       
1.07         -0.12222     0.4515       -0.79917     -0.36703     -0.79917     -0.36703     -0.26211     0.3877       
1.08         -0.11113     0.45704      -0.80655     -0.34696     -0.80655     -0.34696     -0.25466     0.39574      
1.09         -0.099829    0.46228      -0.81342     -0.32677     -0.81342     -0.32677     -0.24697     0.40361      
1.1          -0.088339    0.4672       -0.81979     -0.30647     -0.81979     -0.30647     -0.23904     0.41131      
1.11         -0.076666    0.47181      -0.82565     -0.28607     -0.82565     -0.28607     -0.23089     0.41882      
1.12         -0.064819    0.47609      -0.83101     -0.26558     -0.83101     -0.26558     -0.22251     0.42614      
1.13         -0.052808    0.48005      -0.83586     -0.24502     -0.83586     -0.24502     -0.21392     0.43326      
1.14         -0.040643    0.48367      -0.84021     -0.2244      -0.84021     -0.2244      -0.20511     0.44019      
1.15         -0.028334    0.48695      -0.84405     -0.20373     -0.84405     -0.20373     -0.19609     0.4469       
1.16         -0.015891    0.48988      -0.84739     -0.18302     -0.84739     -0.18302     -0.18687     0.4534       
1.17         -0.003326    0.49247      -0.85023     -0.16229     -0.85023     -0.16229     -0.17746     0.45968      
1.18         0.009352     0.49471      -0.85257     -0.14154     -0.85257     -0.14154     -0.16785     0.46574      
1.19         0.022132     0.49659      -0.85441     -0.12079     -0.85441     -0.12079     -0.15806     0.47157      
1.2          0.035003     0.49811      -0.85575     -0.10005     -0.85575     -0.10005     -0.14809     0.47716      
1.21         0.047955     0.49927      -0.85659     -0.07933     -0.85659     -0.07933     -0.13795     0.48251      
1.22         0.060976     0.50006      -0.85694     -0.058644    -0.85694     -0.058644    -0.12765     0.48761      
1.23         0.074055     0.50049      -0.85681     -0.038003    -0.85681     -0.038003    -0.11719     0.49247      
1.24         0.087182     0.50055      -0.85618     -0.017417    -0.85618     -0.017417    -0.10658     0.49707      
1.25         0.10035      0.50023      -0.85507     0.0031026    -0.85507     0.0031026    -0.095817    0.50141      
1.26         0.11354      0.49955      -0.85348     0.023544     -0.85348     0.023544     -0.084921    0.5055       
1.27         0.12674      0.49849      -0.85141     0.043898     -0.85141     0.043898     -0.073895    0.50931      
1.28         0.13995      0.49706      -0.84886     0.064152     -0.84886     0.064152     -0.062744    0.51286      
1.29         0.15315      0.49526      -0.84585     0.084297     -0.84585     0.084297     -0.051478    0.51613      
1.3          0.16633      0.49308      -0.84237     0.10432      -0.84237     0.10432      -0.040102    0.51913      
1.31         0.17948      0.49053      -0.83843     0.12422      -0.83843     0.12422      -0.028625    0.52185      
1.32         0.19259      0.48761      -0.83403     0.14397      -0.83403     0.14397      -0.017053    0.52429      
1.33         0.20565      0.48432      -0.82918     0.16357      -0.82918     0.16357      -0.0053949   0.52645      
1.34         0.21864      0.48065      -0.82388     0.18302      -0.82388     0.18302      0.0063429    0.52832      
1.35         0.23156      0.47662      -0.81814     0.20229      -0.81814     0.20229      0.018152     0.5299       
1.36         0.2444       0.47222      -0.81197     0.22138      -0.81197     0.22138      0.030026     0.53119      
1.37         0.25715      0.46746      -0.80536     0.24029      -0.80536     0.24029      0.041956     0.53218      
1.38         0.26978      0.46234      -0.79833     0.259        -0.79833     0.259        0.053935     0.53289      
1.39         0.2823       0.45685      -0.79089     0.2775       -0.79089     0.2775       0.065956     0.5333       
1.4          0.2947       0.45102      -0.78302     0.29579      -0.78302     0.29579      0.078009     0.53341      
1.41         0.30696      0.44483      -0.77475     0.31385      -0.77475     0.31385      0.090089     0.53323      
1.42         0.31907      0.43829      -0.76609     0.33168      -0.76609     0.33168      0.10219      0.53275      
1.43         0.33102      0.43141      -0.75702     0.34927      -0.75702     0.34927      0.11429      0.53197      
1.44         0.34281      0.42419      -0.74757     0.36661      -0.74757     0.36661      0.1264       0.53089      
1.45         0.35442      0.41664      -0.73775     0.38369      -0.73775     0.38369      0.13851      0.52951      
1.46         0.36584      0.40876      -0.72754     0.40052      -0.72754     0.40052      0.1506       0.52784      
1.47         0.37707      0.40055      -0.71697     0.41706      -0.71697     0.41706      0.16267      0.52587      
1.48         0.38809      0.39203      -0.70605     0.43333      -0.70605     0.43333      0.17471      0.5236       
1.49         0.3989       0.38319      -0.69477     0.44932      -0.69477     0.44932      0.18672      0.52103      
1.5          0.40948      0.37405      -0.68314     0.46501      -0.68314     0.46501      0.19868      0.51817      
1.51         0.41984      0.3646       -0.67118     0.4804       -0.67118     0.4804       0.21059      0.51501      
1.52         0.42995      0.35486      -0.6589      0.49549      -0.6589      0.49549      0.22244      0.51156      
1.53         0.43981      0.34484      -0.64629     0.51026      -0.64629     0.51026      0.23423      0.50782      
1.54         0.44942      0.33453      -0.63336     0.52471      -0.63336     0.52471      0.24594      0.50378      
1.55         0.45876      0.32395      -0.62014     0.53884      -0.62014     0.53884      0.25757      0.49946      
1.56         0.46783      0.3131       -0.60661     0.55264      -0.60661     0.55264      0.26911      0.49485      
1.57         0.47661      0.302        -0.5928      0.56611      -0.5928      0.56611      0.28056      0.48996      
1.58         0.48511      0.29065      -0.5787      0.57923      -0.5787      0.57923      0.2919       0.48479      
1.59         0.49332      0.27905      -0.56433     0.592        -0.56433     0.592        0.30313      0.47934      
1.6          0.50122      0.26723      -0.5497      0.60443      -0.5497      0.60443      0.31425      0.47361      
1.61         0.50882      0.25517      -0.53481     0.6165       -0.53481     0.6165       0.32524      0.4676       
1.62         0.5161       0.2429       -0.51968     0.6282       -0.51968     0.6282       0.3361       0.46133      
1.63         0.52306      0.23042      -0.5043      0.63955      -0.5043      0.63955      0.34682      0.45479      
1.64         0.5297       0.21775      -0.4887      0.65052      -0.4887      0.65052      0.3574       0.44799      
1.65         0.536        0.20488      -0.47287     0.66112      -0.47287     0.66112      0.36782      0.44093      
1.66         0.54197      0.19183      -0.45684     0.67134      -0.45684     0.67134      0.37809      0.43361      
1.67         0.54759      0.17861      -0.44059     0.68118      -0.44059     0.68118      0.38819      0.42604      
1.68         0.55287      0.16523      -0.42415     0.69064      -0.42415     0.69064      0.39812      0.41822      
1.69         0.55779      0.15169      -0.40753     0.69971      -0.40753     0.69971      0.40787      0.41016      
1.7          0.56236      0.13802      -0.39072     0.70839      -0.39072     0.70839      0.41744      0.40186      
1.71         0.56657      0.12421      -0.37375     0.71667      -0.37375     0.71667      0.42683      0.39333      
1.72         0.57042      0.11028      -0.35662     0.72456      -0.35662     0.72456      0.43601      0.38456      
1.73         0.57389      0.09623      -0.33933     0.73206      -0.33933     0.73206      0.445        0.37557      
1.74         0.577        0.082082     -0.3219      0.73915      -0.3219      0.73915      0.45378      0.36636      
1.75         0.57974      0.067842     -0.30434     0.74583      -0.30434     0.74583      0.46235      0.35694      
1.76         0.5821       0.053519     -0.28666     0.75212      -0.28666     0.75212      0.4707       0.34731      
1.77         0.58409      0.039124     -0.26886     0.75799      -0.26886     0.75799      0.47883      0.33747      
1.78         0.58569      0.024668     -0.25095     0.76346      -0.25095     0.76346      0.48673      0.32744      
1.79         0.58691      0.01016      -0.23294     0.76852      -0.23294     0.76852      0.4944       0.31721      
1.8          0.58776      -0.0043883   -0.21484     0.77316      -0.21484     0.77316      0.50184      0.30679      
1.81         0.58821      -0.018967    -0.19667     0.7774       -0.19667     0.7774       0.50903      0.2962       
1.82         0.58828      -0.033566    -0.17842     0.78122      -0.17842     0.78122      0.51597      0.28543      
1.83         0.58797      -0.048173    -0.16011     0.78463      -0.16011     0.78463      0.52267      0.27449      
1.84         0.58727      -0.06278     -0.14174     0.78762      -0.14174     0.78762      0.52911      0.26338      
1.85         0.58619      -0.077375    -0.12333     0.7902       -0.12333     0.7902       0.5353       0.25213      
1.86         0.58472      -0.091947    -0.10488     0.79236      -0.10488     0.79236      0.54122      0.24072      
1.87         0.58287      -0.10649     -0.086409    0.79411      -0.086409    0.79411      0.54687      0.22916      
1.88         0.58063      -0.12098     -0.067917    0.79545      -0.067917    0.79545      0.55226      0.21747      
1.89         0.57801      -0.13543     -0.049414    0.79637      -0.049414    0.79637      0.55737      0.20565      
1.9          0.57501      -0.1498      -0.03091     0.79688      -0.03091     0.79688      0.56221      0.19371      
1.91         0.57163      -0.16411     -0.012413    0.79697      -0.012413    0.79697      0.56676      0.18165      
1.92         0.56788      -0.17833     0.0060674    0.79665      0.0060674    0.79665      0.57104      0.16948      
1.93         0.56375      -0.19245     0.024524     0.79592      0.024524     0.79592      0.57503      0.1572       
1.94         0.55924      -0.20647     0.042947     0.79478      0.042947     0.79478      0.57874      0.14483      
1.95         0.55437      -0.22038     0.061329     0.79323      0.061329     0.79323      0.58215      0.13237      
1.96         0.54913      -0.23415     0.07966      0.79127      0.07966      0.79127      0.58528      0.11983      
1.97         0.54353      -0.2478      0.097933     0.7889       0.097933     0.7889       0.58811      0.10722      
1.98         0.53757      -0.2613      0.11614      0.78614      0.11614      0.78614      0.59065      0.094534     
1.99         0.53126      -0.27464     0.13427      0.78296      0.13427      0.78296      0.59289      0.08179      
2            0.52459      -0.28782     0.15232      0.77939      0.15232      0.77939      0.59483      0.068994     
2.01         0.51758      -0.30082     0.17028      0.77542      0.17028      0.77542      0.59647      0.056151     
2.02         0.51022      -0.31365     0.18813      0.77105      0.18813      0.77105      0.59781      0.043271     
2.03         0.50253      -0.32627     0.20588      0.76628      0.20588      0.76628      0.59885      0.030359     
2.04         0.49451      -0.3387      0.22351      0.76113      0.22351      0.76113      0.59959      0.017424     
2.05         0.48616      -0.35092     0.24102      0.75559      0.24102      0.75559      0.60003      0.0044719    
2.06         0.47749      -0.36292     0.2584       0.74966      0.2584       0.74966      0.60016      -0.0084886   
2.07         0.4685       -0.37469     0.27564      0.74334      0.27564      0.74334      0.59999      -0.021451    
2.08         0.45921      -0.38622     0.29273      0.73665      0.29273      0.73665      0.59952      -0.034407    
2.09         0.44962      -0.39751     0.30966      0.72958      0.30966      0.72958      0.59874      -0.04735     
2.1          0.43973      -0.40854     0.32643      0.72214      0.32643      0.72214      0.59767      -0.060272    
2.11         0.42955      -0.41931     0.34303      0.71433      0.34303      0.71433      0.59629      -0.073166    
2.12         0.41909      -0.42982     0.35946      0.70615      0.35946      0.70615      0.59461      -0.086024    
2.13         0.40836      -0.44004     0.37569      0.69761      0.37569      0.69761      0.59263      -0.09884     
2.14         0.39736      -0.44999     0.39174      0.68871      0.39174      0.68871      0.59035      -0.11161     
2.15         0.3861       -0.45964     0.40758      0.67945      0.40758      0.67945      0.58777      -0.12431     
