!freq-unit  param-type  data-format  keyword  impedance-ohms
# GHZ           S          RI           R         50
!-----------------------------------------------------------------------------
!Freq          ReS11        ImS11        ReS21        ImS21        ReS12        ImS12        ReS22        ImS22
0.5          -0.20965     -0.030296    0.28357      -0.93255     0.28357      -0.93255     -0.19148     -0.090907    
0.51         -0.21421     -0.024763    0.25962      -0.9386      0.25962      -0.9386      -0.19693     -0.088186    
0.52         -0.21859     -0.018995    0.23555      -0.94402     0.23555      -0.94402     -0.20233     -0.085261    
0.53         -0.2228      -0.012997    0.21139      -0.94882     0.21139      -0.94882     -0.20767     -0.082135    
0.54         -0.22682     -0.0067767   0.18714      -0.95298     0.18714      -0.95298     -0.21296     -0.078809    
0.55         -0.23064     -0.00033953  0.16282      -0.95652     0.16282      -0.95652     -0.21817     -0.075283    
0.56         -0.23426     0.0063072    0.13845      -0.95942     0.13845      -0.95942     -0.22332     -0.071562    
0.57         -0.23766     0.013156     0.11405      -0.96169     0.11405      -0.96169     -0.22838     -0.067645    
0.58         -0.24084     0.0202       0.089626     -0.96334     0.089626     -0.96334     -0.23335     -0.063537    
0.59         -0.24378     0.02743      0.065204     -0.96435     0.065204     -0.96435     -0.23823     -0.05924     
0.6          -0.24649     0.034838     0.040798     -0.96473     0.040798     -0.96473     -0.24302     -0.054755    
0.61         -0.24894     0.042417     0.016425     -0.96449     0.016425     -0.96449     -0.2477      -0.050087    
0.62         -0.25114     0.050156     -0.0079006   -0.96363     -0.0079006   -0.96363     -0.25226     -0.045238    
0.63         -0.25309     0.058047     -0.032161    -0.96214     -0.032161    -0.96214     -0.25671     -0.040212    
0.64         -0.25476     0.06608      -0.056342    -0.96004     -0.056342    -0.96004     -0.26104     -0.035012    
0.65         -0.25616     0.074246     -0.080426    -0.95732     -0.080426    -0.95732     -0.26524     -0.029641    
0.66         -0.25727     0.082535     -0.1044      -0.954       -0.1044      -0.954       -0.26931     -0.024104    
0.67         -0.2581      0.090937     -0.12824     -0.95007     -0.12824     -0.95007     -0.27324     -0.018404    
0.68         -0.25865     0.099442     -0.15194     -0.94553     -0.15194     -0.94553     -0.27703     -0.012545    
0.69         -0.25889     0.10804      -0.17549     -0.9404      -0.17549     -0.9404      -0.28067     -0.0065314   
0.7          -0.25883     0.11672      -0.19886     -0.93468     -0.19886     -0.93468     -0.28415     -0.00036765  
0.71         -0.25847     0.12547      -0.22204     -0.92838     -0.22204     -0.92838     -0.28748     0.0059419    
0.72         -0.25781     0.13428      -0.24501     -0.9215      -0.24501     -0.9215      -0.29065     0.012393     
0.73         -0.25683     0.14313      -0.26778     -0.91405     -0.26778     -0.91405     -0.29364     0.01898      
0.74         -0.25554     0.15203      -0.29031     -0.90603     -0.29031     -0.90603     -0.29647     0.025699     
0.75         -0.25393     0.16095      -0.31259     -0.89746     -0.31259     -0.89746     -0.29912     0.032545     
0.76         -0.252       0.16989      -0.33461     -0.88834     -0.33461     -0.88834     -0.30159     0.039513     
0.77         -0.24976     0.17883      -0.35637     -0.87868     -0.35637     -0.87868     -0.30388     0.046597     
0.78         -0.24719     0.18776      -0.37783     -0.86848     -0.37783     -0.86848     -0.30598     0.053793     
0.79         -0.2443      0.19667      -0.399       -0.85776     -0.399       -0.85776     -0.30789     0.061095     
0.8          -0.24109     0.20556      -0.41986     -0.84653     -0.41986     -0.84653     -0.30961     0.068497     
0.81         -0.23756     0.2144       -0.44039     -0.83479     -0.44039     -0.83479     -0.31113     0.075994     
0.82         -0.23371     0.22318      -0.46059     -0.82256     -0.46059     -0.82256     -0.31245     0.083581     
0.83         -0.22954     0.2319       -0.48044     -0.80984     -0.48044     -0.80984     -0.31357     0.091252     
0.84         -0.22504     0.24054      -0.49993     -0.79664     -0.49993     -0.79664     -0.31448     0.099        
0.85         -0.22023     0.2491       -0.51905     -0.78298     -0.51905     -0.78298     -0.31518     0.10682      
0.86         -0.21511     0.25755      -0.53779     -0.76886     -0.53779     -0.76886     -0.31567     0.11471      
0.87         -0.20967     0.2659       -0.55613     -0.7543      -0.55613     -0.7543      -0.31595     0.12266      
0.88         -0.20393     0.27412      -0.57408     -0.73931     -0.57408     -0.73931     -0.31602     0.13066      
0.89         -0.19787     0.28221      -0.59161     -0.72389     -0.59161     -0.72389     -0.31586     0.13871      
0.9          -0.19152     0.29015      -0.60872     -0.70807     -0.60872     -0.70807     -0.31549     0.1468       
0.91         -0.18486     0.29794      -0.6254      -0.69185     -0.6254      -0.69185     -0.3149      0.15493      
0.92         -0.17791     0.30556      -0.64164     -0.67524     -0.64164     -0.67524     -0.31409     0.16309      
0.93         -0.17067     0.313        -0.65744     -0.65826     -0.65744     -0.65826     -0.31306     0.17128      
0.94         -0.16315     0.32026      -0.67277     -0.64092     -0.67277     -0.64092     -0.3118      0.17948      
0.95         -0.15535     0.32732      -0.68764     -0.62322     -0.68764     -0.62322     -0.31031     0.18769      
0.96         -0.14728     0.33417      -0.70204     -0.60519     -0.70204     -0.60519     -0.30861     0.19591      
0.97         -0.13894     0.34081      -0.71596     -0.58684     -0.71596     -0.58684     -0.30667     0.20412      
0.98         -0.13034     0.34722      -0.72939     -0.56818     -0.72939     -0.56818     -0.30451     0.21233      
0.99         -0.12149     0.35339      -0.74233     -0.54922     -0.74233     -0.54922     -0.30213     0.22053      
1            -0.11239     0.35932      -0.75477     -0.52998     -0.75477     -0.52998     -0.29952     0.22871      
1.01         -0.10306     0.36499      -0.76671     -0.51046     -0.76671     -0.51046     -0.29668     0.23686      
1.02         -0.09349     0.3704       -0.77813     -0.49069     -0.77813     -0.49069     -0.29362     0.24498      
1.03         -0.083703    0.37554      -0.78904     -0.47067     -0.78904     -0.47067     -0.29033     0.25306      
1.04         -0.073703    0.38039      -0.79943     -0.45042     -0.79943     -0.45042     -0.28682     0.26109      
1.05         -0.063498    0.38497      -0.8093      -0.42996     -0.8093      -0.42996     -0.28308     0.26908      
1.06         -0.053097    0.38924      -0.81864     -0.40929     -0.81864     -0.40929     -0.27912     0.27701      
1.07         -0.04251     0.39322      -0.82744     -0.38844     -0.82744     -0.38844     -0.27494     0.28487      
1.08         -0.031747    0.39688      -0.83571     -0.36741     -0.83571     -0.36741     -0.27054     0.29267      
1.09         -0.020816    0.40023      -0.84344     -0.34621     -0.84344     -0.34621     -0.26593     0.30039      
1.1          -0.0097278   0.40326      -0.85063     -0.32487     -0.85063     -0.32487     -0.26109     0.30803      
1.11         0.0015073    0.40596      -0.85728     -0.3034      -0.85728     -0.3034      -0.25604     0.31558      
1.12         0.012879     0.40832      -0.86339     -0.2818      -0.86339     -0.2818      -0.25078     0.32304      
1.13         0.024377     0.41035      -0.86894     -0.2601      -0.86894     -0.2601      -0.2453      0.3304       
1.14         0.03599      0.41204      -0.87395     -0.23831     -0.87395     -0.23831     -0.23962     0.33766      
1.15         0.047707     0.41337      -0.87841     -0.21644     -0.87841     -0.21644     -0.23373     0.34481      
1.16         0.059518     0.41435      -0.88233     -0.1945      -0.88233     -0.1945      -0.22764     0.35184      
1.17         0.071411     0.41498      -0.88569     -0.17251     -0.88569     -0.17251     -0.22135     0.35874      
1.18         0.083375     0.41525      -0.88851     -0.15049     -0.88851     -0.15049     -0.21486     0.36553      
1.19         0.095399     0.41515      -0.89077     -0.12844     -0.89077     -0.12844     -0.20817     0.37217      
1.2          0.10747      0.41469      -0.89249     -0.10639     -0.89249     -0.10639     -0.2013      0.37869      
1.21         0.11958      0.41386      -0.89367     -0.084333    -0.89367     -0.084333    -0.19423     0.38505      
1.22         0.13171      0.41266      -0.8943      -0.062297    -0.8943      -0.062297    -0.18698     0.39127      
1.23         0.14386      0.4111       -0.89439     -0.040291    -0.89439     -0.040291    -0.17955     0.39734      
1.24         0.156        0.40915      -0.89394     -0.01833     -0.89394     -0.01833     -0.17194     0.40325      
1.25         0.16814      0.40684      -0.89295     0.003575     -0.89295     0.003575     -0.16415     0.40899      
1.26         0.18025      0.40415      -0.89143     0.02541      -0.89143     0.02541      -0.1562      0.41457      
1.27         0.19233      0.40108      -0.88938     0.047162     -0.88938     0.047162     -0.14808     0.41998      
1.28         0.20436      0.39765      -0.8868      0.068818     -0.8868      0.068818     -0.1398      0.42521      
1.29         0.21633      0.39384      -0.8837      0.090366     -0.8837      0.090366     -0.13136     0.43025      
1.3          0.22824      0.38966      -0.88007     0.11179      -0.88007     0.11179      -0.12277     0.43511      
1.31         0.24006      0.38511      -0.87593     0.13309      -0.87593     0.13309      -0.11403     0.43978      
1.32         0.25179      0.38019      -0.87129     0.15424      -0.87129     0.15424      -0.10515     0.44426      
1.33         0.26341      0.3749       -0.86613     0.17523      -0.86613     0.17523      -0.096131    0.44854      
1.34         0.27491      0.36925      -0.86048     0.19605      -0.86048     0.19605      -0.086977    0.45261      
1.35         0.28629      0.36324      -0.85433     0.21669      -0.85433     0.21669      -0.077693    0.45648      
1.36         0.29753      0.35688      -0.84769     0.23714      -0.84769     0.23714      -0.068286    0.46014      
1.37         0.30861      0.35016      -0.84057     0.25738      -0.84057     0.25738      -0.058761    0.46359      
1.38         0.31953      0.34309      -0.83297     0.27741      -0.83297     0.27741      -0.049122    0.46682      
1.39         0.33028      0.33567      -0.82491     0.29722      -0.82491     0.29722      -0.039375    0.46983      
1.4          0.34084      0.32792      -0.81638     0.31678      -0.81638     0.31678      -0.029526    0.47262      
1.41         0.35121      0.31983      -0.80739     0.3361       -0.80739     0.3361       -0.01958     0.47519      
1.42         0.36137      0.31141      -0.79796     0.35517      -0.79796     0.35517      -0.0095418   0.47752      
1.43         0.37131      0.30267      -0.78808     0.37396      -0.78808     0.37396      0.00058161   0.47963      
1.44         0.38103      0.29361      -0.77777     0.39248      -0.77777     0.39248      0.010785     0.4815       
1.45         0.39051      0.28424      -0.76704     0.41071      -0.76704     0.41071      0.021063     0.48314      
1.46         0.39974      0.27457      -0.75588     0.42864      -0.75588     0.42864      0.031409     0.48454      
1.47         0.40872      0.2646       -0.74432     0.44627      -0.74432     0.44627      0.041818     0.4857       
1.48         0.41743      0.25434      -0.73236     0.46359      -0.73236     0.46359      0.052283     0.48662      
1.49         0.42586      0.2438       -0.72001     0.48058      -0.72001     0.48058      0.062799     0.4873       
1.5          0.43401      0.23298      -0.70727     0.49724      -0.70727     0.49724      0.073359     0.48773      
1.51         0.44187      0.2219       -0.69415     0.51356      -0.69415     0.51356      0.083958     0.48791      
1.52         0.44943      0.21056      -0.68068     0.52953      -0.68068     0.52953      0.094589     0.48785      
1.53         0.45667      0.19898      -0.66684     0.54514      -0.66684     0.54514      0.10525      0.48754      
1.54         0.4636       0.18715      -0.65266     0.56039      -0.65266     0.56039      0.11592      0.48698      
1.55         0.4702       0.17509      -0.63815     0.57528      -0.63815     0.57528      0.12662      0.48617      
1.56         0.47647      0.16282      -0.6233      0.58978      -0.6233      0.58978      0.13731      0.48511      
1.57         0.4824       0.15033      -0.60814     0.6039       -0.60814     0.6039       0.14802      0.48379      
1.58         0.48798      0.13764      -0.59267     0.61763      -0.59267     0.61763      0.15871      0.48223      
1.59         0.49321      0.12476      -0.57691     0.63096      -0.57691     0.63096      0.1694       0.48042      
1.6          0.49808      0.1117       -0.56086     0.64389      -0.56086     0.64389      0.18006      0.47835      
1.61         0.50258      0.098472     -0.54453     0.65642      -0.54453     0.65642      0.19071      0.47603      
1.62         0.50672      0.085084     -0.52793     0.66853      -0.52793     0.66853      0.20132      0.47346      
1.63         0.51047      0.071548     -0.51108     0.68022      -0.51108     0.68022      0.2119       0.47064      
1.64         0.51385      0.057875     -0.49398     0.69148      -0.49398     0.69148      0.22244      0.46757      
1.65         0.51684      0.044076     -0.47665     0.70232      -0.47665     0.70232      0.23292      0.46425      
1.66         0.51944      0.030163     -0.4591      0.71273      -0.4591      0.71273      0.24336      0.46069      
1.67         0.52165      0.016147     -0.44133     0.7227       -0.44133     0.7227       0.25373      0.45687      
1.68         0.52346      0.0020388    -0.42336     0.73222      -0.42336     0.73222      0.26404      0.45282      
1.69         0.52488      -0.012149    -0.4052      0.74131      -0.4052      0.74131      0.27427      0.44851      
1.7          0.52588      -0.026405    -0.38686     0.74994      -0.38686     0.74994      0.28443      0.44397      
1.71         0.52649      -0.040716    -0.36834     0.75813      -0.36834     0.75813      0.2945       0.43918      
1.72         0.52668      -0.055072    -0.34967     0.76586      -0.34967     0.76586      0.30448      0.43415      
1.73         0.52647      -0.069461    -0.33085     0.77314      -0.33085     0.77314      0.31436      0.42889      
1.74         0.52585      -0.083869    -0.3119      0.77996      -0.3119      0.77996      0.32414      0.4234       
1.75         0.52481      -0.098286    -0.29281     0.78632      -0.29281     0.78632      0.33382      0.41767      
1.76         0.52337      -0.1127      -0.27362     0.79222      -0.27362     0.79222      0.34338      0.41171      
1.77         0.52151      -0.1271      -0.25431     0.79766      -0.25431     0.79766      0.35282      0.40552      
1.78         0.51923      -0.14146     -0.23492     0.80263      -0.23492     0.80263      0.36213      0.39911      
1.79         0.51655      -0.15579     -0.21544     0.80713      -0.21544     0.80713      0.37132      0.39248      
1.8          0.51346      -0.17007     -0.19589     0.81117      -0.19589     0.81117      0.38037      0.38563      
1.81         0.50995      -0.18428     -0.17628     0.81475      -0.17628     0.81475      0.38927      0.37856      
1.82         0.50604      -0.19841     -0.15662     0.81786      -0.15662     0.81786      0.39804      0.37129      
1.83         0.50172      -0.21246     -0.13693     0.8205       -0.13693     0.8205       0.40665      0.3638       
1.84         0.497        -0.2264      -0.1172      0.82267      -0.1172      0.82267      0.4151       0.35611      
1.85         0.49187      -0.24024     -0.097459    0.82438      -0.097459    0.82438      0.42339      0.34822      
1.86         0.48635      -0.25395     -0.07771     0.82562      -0.07771     0.82562      0.43152      0.34012      
1.87         0.48043      -0.26752     -0.057965    0.8264       -0.057965    0.8264       0.43948      0.33184      
1.88         0.47412      -0.28095     -0.038234    0.82671      -0.038234    0.82671      0.44726      0.32337      
1.89         0.46742      -0.29421     -0.018529    0.82657      -0.018529    0.82657      0.45485      0.31471      
1.9          0.46033      -0.30731     0.0011405    0.82596      0.0011405    0.82596      0.46227      0.30587      
1.91         0.45287      -0.32022     0.020764     0.82489      0.020764     0.82489      0.46949      0.29685      
1.92         0.44504      -0.33294     0.040331     0.82337      0.040331     0.82337      0.47653      0.28766      
1.93         0.43683      -0.34546     0.059832     0.8214       0.059832     0.8214       0.48336      0.2783       
1.94         0.42827      -0.35777     0.079256     0.81897      0.079256     0.81897      0.49         0.26878      
1.95         0.41934      -0.36984     0.098593     0.8161       0.098593     0.8161       0.49642      0.2591       
1.96         0.41007      -0.38169     0.11783      0.81278      0.11783      0.81278      0.50264      0.24927      
1.97         0.40045      -0.39328     0.13697      0.80901      0.13697      0.80901      0.50865      0.23929      
1.98         0.39049      -0.40462     0.15599      0.80481      0.15599      0.80481      0.51444      0.22916      
1.99         0.3802       -0.4157      0.17488      0.80017      0.17488      0.80017      0.52001      0.2189       
2            0.36959      -0.4265      0.19363      0.7951       0.19363      0.7951       0.52536      0.2085       
2.01         0.35866      -0.43701     0.21225      0.7896       0.21225      0.7896       0.53048      0.19798      
2.02         0.34743      -0.44723     0.2307       0.78368      0.2307       0.78368      0.53537      0.18733      
2.03         0.3359       -0.45714     0.249        0.77734      0.249        0.77734      0.54003      0.17656      
2.04         0.32408      -0.46675     0.26712      0.77058      0.26712      0.77058      0.54446      0.16568      
2.05         0.31197      -0.47603     0.28506      0.76341      0.28506      0.76341      0.54865      0.1547       
2.06         0.29959      -0.48498     0.30281      0.75584      0.30281      0.75584      0.55259      0.14361      
2.07         0.28695      -0.4936      0.32036      0.74786      0.32036      0.74786      0.5563       0.13243      
2.08         0.27406      -0.50187     0.3377       0.73949      0.3377       0.73949      0.55976      0.12116      
2.09         0.26092      -0.50978     0.35483      0.73073      0.35483      0.73073      0.56298      0.1098       
2.1          0.24755      -0.51734     0.37173      0.72159      0.37173      0.72159      0.56595      0.098364     
2.11         0.23395      -0.52453     0.3884       0.71206      0.3884       0.71206      0.56867      0.086857     
2.12         0.22014      -0.53135     0.40483      0.70216      0.40483      0.70216      0.57114      0.075282     
2.13         0.20613      -0.53779     0.42101      0.6919       0.42101      0.6919       0.57335      0.063646     
2.14         0.19192      -0.54384     0.43693      0.68127      0.43693      0.68127      0.57531      0.051954     
2.15         0.17753      -0.54951     0.45259      0.67029      0.45259      0.67029      0.57702      0.040213     
