!freq-unit  param-type  data-format  keyword  impedance-ohms
# GHZ           S          RI           R         50
!-----------------------------------------------------------------------------
!Freq          ReS11        ImS11        ReS21        ImS21        ReS12        ImS12        ReS22        ImS22
0.5          -0.34029     -0.11382     0.29678      -0.88232     0.29678      -0.88232     -0.34029     -0.11382     
0.51         -0.34819     -0.10731     0.27501      -0.88707     0.27501      -0.88707     -0.34819     -0.10731     
0.52         -0.3559      -0.10048     0.25323      -0.89126     0.25323      -0.89126     -0.3559      -0.10048     
0.53         -0.36339     -0.093344    0.23144      -0.89491     0.23144      -0.89491     -0.36339     -0.093344    
0.54         -0.37066     -0.085911    0.20967      -0.898       0.20967      -0.898       -0.37066     -0.085911    
0.55         -0.37771     -0.078189    0.18793      -0.90056     0.18793      -0.90056     -0.37771     -0.078189    
0.56         -0.38451     -0.070188    0.16623      -0.90258     0.16623      -0.90258     -0.38451     -0.070188    
0.57         -0.39107     -0.061916    0.14459      -0.90407     0.14459      -0.90407     -0.39107     -0.061916    
0.58         -0.39737     -0.053385    0.12301      -0.90503     0.12301      -0.90503     -0.39737     -0.053385    
0.59         -0.4034      -0.044604    0.10152      -0.90548     0.10152      -0.90548     -0.4034      -0.044604    
0.6          -0.40916     -0.035583    0.080116     -0.90542     0.080116     -0.90542     -0.40916     -0.035583    
0.61         -0.41465     -0.026332    0.058818     -0.90485     0.058818     -0.90485     -0.41465     -0.026332    
0.62         -0.41984     -0.016863    0.037636     -0.90379     0.037636     -0.90379     -0.41984     -0.016863    
0.63         -0.42474     -0.0071866   0.01658      -0.90223     0.01658      -0.90223     -0.42474     -0.0071866   
0.64         -0.42935     0.0026873    -0.0043389   -0.9002      -0.0043389   -0.9002      -0.42935     0.0026873    
0.65         -0.43365     0.012747     -0.025111    -0.89768     -0.025111    -0.89768     -0.43365     0.012747     
0.66         -0.43763     0.022982     -0.045725    -0.8947      -0.045725    -0.8947      -0.43763     0.022982     
0.67         -0.44131     0.033382     -0.066174    -0.89127     -0.066174    -0.89127     -0.44131     0.033382     
0.68         -0.44466     0.043934     -0.086446    -0.88737     -0.086446    -0.88737     -0.44466     0.043934     
0.69         -0.4477      0.054627     -0.10653     -0.88304     -0.10653     -0.88304     -0.4477      0.054627     
0.7          -0.4504      0.065452     -0.12643     -0.87827     -0.12643     -0.87827     -0.4504      0.065452     
0.71         -0.45278     0.076396     -0.14612     -0.87307     -0.14612     -0.87307     -0.45278     0.076396     
0.72         -0.45483     0.087448     -0.16561     -0.86745     -0.16561     -0.86745     -0.45483     0.087448     
0.73         -0.45654     0.098597     -0.18488     -0.86142     -0.18488     -0.86142     -0.45654     0.098597     
0.74         -0.45791     0.10983      -0.20392     -0.85499     -0.20392     -0.85499     -0.45791     0.10983      
0.75         -0.45895     0.12114      -0.22273     -0.84816     -0.22273     -0.84816     -0.45895     0.12114      
0.76         -0.45965     0.13251      -0.24131     -0.84095     -0.24131     -0.84095     -0.45965     0.13251      
0.77         -0.46001     0.14394      -0.25964     -0.83336     -0.25964     -0.83336     -0.46001     0.14394      
0.78         -0.46003     0.15541      -0.27773     -0.8254      -0.27773     -0.8254      -0.46003     0.15541      
0.79         -0.45971     0.16691      -0.29556     -0.81707     -0.29556     -0.81707     -0.45971     0.16691      
0.8          -0.45905     0.17843      -0.31312     -0.8084      -0.31312     -0.8084      -0.45905     0.17843      
0.81         -0.45805     0.18996      -0.33042     -0.79938     -0.33042     -0.79938     -0.45805     0.18996      
0.82         -0.45672     0.20149      -0.34746     -0.79002     -0.34746     -0.79002     -0.45672     0.20149      
0.83         -0.45504     0.21301      -0.36421     -0.78034     -0.36421     -0.78034     -0.45504     0.21301      
0.84         -0.45303     0.2245       -0.38068     -0.77034     -0.38068     -0.77034     -0.45303     0.2245       
0.85         -0.45069     0.23597      -0.39687     -0.76003     -0.39687     -0.76003     -0.45069     0.23597      
0.86         -0.44801     0.24739      -0.41278     -0.74941     -0.41278     -0.74941     -0.44801     0.24739      
0.87         -0.445       0.25877      -0.42838     -0.7385      -0.42838     -0.7385      -0.445       0.25877      
0.88         -0.44167     0.27008      -0.4437      -0.7273      -0.4437      -0.7273      -0.44167     0.27008      
0.89         -0.43801     0.28132      -0.45871     -0.71582     -0.45871     -0.71582     -0.43801     0.28132      
0.9          -0.43403     0.29248      -0.47342     -0.70408     -0.47342     -0.70408     -0.43403     0.29248      
0.91         -0.42973     0.30356      -0.48783     -0.69206     -0.48783     -0.69206     -0.42973     0.30356      
0.92         -0.42512     0.31453      -0.50193     -0.6798      -0.50193     -0.6798      -0.42512     0.31453      
0.93         -0.42019     0.3254       -0.51572     -0.66729     -0.51572     -0.66729     -0.42019     0.3254       
0.94         -0.41496     0.33615      -0.52919     -0.65453     -0.52919     -0.65453     -0.41496     0.33615      
0.95         -0.40943     0.34678      -0.54235     -0.64155     -0.54235     -0.64155     -0.40943     0.34678      
0.96         -0.4036      0.35728      -0.55519     -0.62834     -0.55519     -0.62834     -0.4036      0.35728      
0.97         -0.39747     0.36763      -0.56771     -0.61491     -0.56771     -0.61491     -0.39747     0.36763      
0.98         -0.39106     0.37784      -0.57991     -0.60127     -0.57991     -0.60127     -0.39106     0.37784      
0.99         -0.38436     0.38789      -0.59178     -0.58744     -0.59178     -0.58744     -0.38436     0.38789      
1            -0.37739     0.39777      -0.60333     -0.5734      -0.60333     -0.5734      -0.37739     0.39777      
1.01         -0.37014     0.40749      -0.61456     -0.55918     -0.61456     -0.55918     -0.37014     0.40749      
1.02         -0.36262     0.41702      -0.62546     -0.54478     -0.62546     -0.54478     -0.36262     0.41702      
1.03         -0.35484     0.42637      -0.63602     -0.5302      -0.63602     -0.5302      -0.35484     0.42637      
1.04         -0.34681     0.43553      -0.64626     -0.51546     -0.64626     -0.51546     -0.34681     0.43553      
1.05         -0.33852     0.44449      -0.65617     -0.50056     -0.65617     -0.50056     -0.33852     0.44449      
1.06         -0.33        0.45324      -0.66575     -0.4855      -0.66575     -0.4855      -0.33        0.45324      
1.07         -0.32123     0.46178      -0.67499     -0.4703      -0.67499     -0.4703      -0.32123     0.46178      
1.08         -0.31223     0.4701       -0.6839      -0.45496     -0.6839      -0.45496     -0.31223     0.4701       
1.09         -0.30301     0.4782       -0.69248     -0.43948     -0.69248     -0.43948     -0.30301     0.4782       
1.1          -0.29356     0.48606      -0.70072     -0.42388     -0.70072     -0.42388     -0.29356     0.48606      
1.11         -0.28391     0.4937       -0.70863     -0.40816     -0.70863     -0.40816     -0.28391     0.4937       
1.12         -0.27405     0.50109      -0.71621     -0.39232     -0.71621     -0.39232     -0.27405     0.50109      
1.13         -0.26399     0.50824      -0.72344     -0.37637     -0.72344     -0.37637     -0.26399     0.50824      
1.14         -0.25374     0.51513      -0.73035     -0.36033     -0.73035     -0.36033     -0.25374     0.51513      
1.15         -0.24331     0.52178      -0.73692     -0.34418     -0.73692     -0.34418     -0.24331     0.52178      
1.16         -0.2327      0.52816      -0.74315     -0.32795     -0.74315     -0.32795     -0.2327      0.52816      
1.17         -0.22191     0.53428      -0.74905     -0.31164     -0.74905     -0.31164     -0.22191     0.53428      
1.18         -0.21097     0.54013      -0.75461     -0.29524     -0.75461     -0.29524     -0.21097     0.54013      
1.19         -0.19987     0.54571      -0.75984     -0.27878     -0.75984     -0.27878     -0.19987     0.54571      
1.2          -0.18863     0.55101      -0.76474     -0.26225     -0.76474     -0.26225     -0.18863     0.55101      
1.21         -0.17724     0.55604      -0.7693      -0.24566     -0.7693      -0.24566     -0.17724     0.55604      
1.22         -0.16572     0.56078      -0.77352     -0.22901     -0.77352     -0.22901     -0.16572     0.56078      
1.23         -0.15408     0.56524      -0.77742     -0.21232     -0.77742     -0.21232     -0.15408     0.56524      
1.24         -0.14232     0.56941      -0.78098     -0.19558     -0.78098     -0.19558     -0.14232     0.56941      
1.25         -0.13044     0.57329      -0.7842      -0.1788      -0.7842      -0.1788      -0.13044     0.57329      
1.26         -0.11847     0.57688      -0.7871      -0.162       -0.7871      -0.162       -0.11847     0.57688      
1.27         -0.1064      0.58017      -0.78966     -0.14516     -0.78966     -0.14516     -0.1064      0.58017      
1.28         -0.094248    0.58317      -0.7919      -0.1283      -0.7919      -0.1283      -0.094248    0.58317      
1.29         -0.082016    0.58586      -0.7938      -0.11143     -0.7938      -0.11143     -0.082016    0.58586      
1.3          -0.069712    0.58826      -0.79537     -0.094546    -0.79537     -0.094546    -0.069712    0.58826      
1.31         -0.057345    0.59035      -0.79662     -0.077656    -0.79662     -0.077656    -0.057345    0.59035      
1.32         -0.044924    0.59214      -0.79753     -0.060765    -0.79753     -0.060765    -0.044924    0.59214      
1.33         -0.032455    0.59362      -0.79812     -0.043879    -0.79812     -0.043879    -0.032455    0.59362      
1.34         -0.019947    0.59479      -0.79838     -0.027003    -0.79838     -0.027003    -0.019947    0.59479      
1.35         -0.0074077   0.59566      -0.79832     -0.010141    -0.79832     -0.010141    -0.0074077   0.59566      
1.36         0.005155     0.59623      -0.79793     0.0067012    -0.79793     0.0067012    0.005155     0.59623      
1.37         0.017733     0.59648      -0.79722     0.023519     -0.79722     0.023519     0.017733     0.59648      
1.38         0.030319     0.59643      -0.79619     0.040306     -0.79619     0.040306     0.030319     0.59643      
1.39         0.042904     0.59607      -0.79483     0.057059     -0.79483     0.057059     0.042904     0.59607      
1.4          0.055482     0.5954       -0.79315     0.073773     -0.79315     0.073773     0.055482     0.5954       
1.41         0.068043     0.59443      -0.79116     0.090441     -0.79116     0.090441     0.068043     0.59443      
1.42         0.08058      0.59314      -0.78884     0.10706      -0.78884     0.10706      0.08058      0.59314      
1.43         0.093086     0.59156      -0.78621     0.12363      -0.78621     0.12363      0.093086     0.59156      
1.44         0.10555      0.58966      -0.78326     0.14013      -0.78326     0.14013      0.10555      0.58966      
1.45         0.11797      0.58747      -0.77999     0.15657      -0.77999     0.15657      0.11797      0.58747      
1.46         0.13033      0.58497      -0.77641     0.17295      -0.77641     0.17295      0.13033      0.58497      
1.47         0.14263      0.58217      -0.77252     0.18925      -0.77252     0.18925      0.14263      0.58217      
1.48         0.15486      0.57907      -0.76832     0.20547      -0.76832     0.20547      0.15486      0.57907      
1.49         0.16702      0.57567      -0.7638      0.22161      -0.7638      0.22161      0.16702      0.57567      
1.5          0.17908      0.57198      -0.75898     0.23766      -0.75898     0.23766      0.17908      0.57198      
1.51         0.19106      0.56799      -0.75385     0.25362      -0.75385     0.25362      0.19106      0.56799      
1.52         0.20293      0.56371      -0.74841     0.26948      -0.74841     0.26948      0.20293      0.56371      
1.53         0.21469      0.55915      -0.74266     0.28524      -0.74266     0.28524      0.21469      0.55915      
1.54         0.22634      0.5543       -0.73661     0.30089      -0.73661     0.30089      0.22634      0.5543       
1.55         0.23786      0.54916      -0.73026     0.31643      -0.73026     0.31643      0.23786      0.54916      
1.56         0.24926      0.54375      -0.72361     0.33186      -0.72361     0.33186      0.24926      0.54375      
1.57         0.26052      0.53806      -0.71666     0.34716      -0.71666     0.34716      0.26052      0.53806      
1.58         0.27163      0.5321       -0.70941     0.36234      -0.70941     0.36234      0.27163      0.5321       
1.59         0.28259      0.52586      -0.70186     0.37738      -0.70186     0.37738      0.28259      0.52586      
1.6          0.29339      0.51937      -0.69402     0.39229      -0.69402     0.39229      0.29339      0.51937      
1.61         0.30403      0.51261      -0.68588     0.40707      -0.68588     0.40707      0.30403      0.51261      
1.62         0.31449      0.50559      -0.67746     0.42169      -0.67746     0.42169      0.31449      0.50559      
1.63         0.32478      0.49832      -0.66874     0.43617      -0.66874     0.43617      0.32478      0.49832      
1.64         0.33488      0.4908       -0.65973     0.45049      -0.65973     0.45049      0.33488      0.4908       
1.65         0.34479      0.48304      -0.65044     0.46465      -0.65044     0.46465      0.34479      0.48304      
1.66         0.35449      0.47504      -0.64086     0.47865      -0.64086     0.47865      0.35449      0.47504      
1.67         0.364        0.4668       -0.631       0.49248      -0.631       0.49248      0.364        0.4668       
1.68         0.37329      0.45834      -0.62086     0.50613      -0.62086     0.50613      0.37329      0.45834      
1.69         0.38236      0.44965      -0.61044     0.5196       -0.61044     0.5196       0.38236      0.44965      
1.7          0.39121      0.44075      -0.59974     0.53289      -0.59974     0.53289      0.39121      0.44075      
1.71         0.39983      0.43163      -0.58877     0.546        -0.58877     0.546        0.39983      0.43163      
1.72         0.40822      0.4223       -0.57753     0.5589       -0.57753     0.5589       0.40822      0.4223       
1.73         0.41636      0.41278      -0.56601     0.57161      -0.56601     0.57161      0.41636      0.41278      
1.74         0.42426      0.40305      -0.55422     0.58412      -0.55422     0.58412      0.42426      0.40305      
1.75         0.43191      0.39315      -0.54217     0.59641      -0.54217     0.59641      0.43191      0.39315      
1.76         0.4393       0.38305      -0.52986     0.60849      -0.52986     0.60849      0.4393       0.38305      
1.77         0.44642      0.37279      -0.51728     0.62035      -0.51728     0.62035      0.44642      0.37279      
1.78         0.45328      0.36235      -0.50444     0.63199      -0.50444     0.63199      0.45328      0.36235      
1.79         0.45987      0.35176      -0.49135     0.64339      -0.49135     0.64339      0.45987      0.35176      
1.8          0.46618      0.341        -0.47801     0.65456      -0.47801     0.65456      0.46618      0.341        
1.81         0.4722       0.33011      -0.46441     0.66549      -0.46441     0.66549      0.4722       0.33011      
1.82         0.47794      0.31907      -0.45056     0.67618      -0.45056     0.67618      0.47794      0.31907      
1.83         0.48339      0.3079       -0.43647     0.68661      -0.43647     0.68661      0.48339      0.3079       
1.84         0.48855      0.2966       -0.42214     0.69678      -0.42214     0.69678      0.48855      0.2966       
1.85         0.49341      0.28519      -0.40757     0.7067       -0.40757     0.7067       0.49341      0.28519      
1.86         0.49797      0.27367      -0.39276     0.71635      -0.39276     0.71635      0.49797      0.27367      
1.87         0.50222      0.26204      -0.37772     0.72572      -0.37772     0.72572      0.50222      0.26204      
1.88         0.50616      0.25033      -0.36245     0.73481      -0.36245     0.73481      0.50616      0.25033      
1.89         0.50979      0.23853      -0.34695     0.74362      -0.34695     0.74362      0.50979      0.23853      
1.9          0.5131       0.22665      -0.33123     0.75215      -0.33123     0.75215      0.5131       0.22665      
1.91         0.5161       0.21471      -0.31529     0.76037      -0.31529     0.76037      0.5161       0.21471      
1.92         0.51878      0.20271      -0.29914     0.7683       -0.29914     0.7683       0.51878      0.20271      
1.93         0.52113      0.19066      -0.28278     0.77591      -0.28278     0.77591      0.52113      0.19066      
1.94         0.52316      0.17857      -0.26621     0.78322      -0.26621     0.78322      0.52316      0.17857      
1.95         0.52487      0.16644      -0.24944     0.79021      -0.24944     0.79021      0.52487      0.16644      
1.96         0.52624      0.1543       -0.23247     0.79687      -0.23247     0.79687      0.52624      0.1543       
1.97         0.52729      0.14214      -0.21531     0.80321      -0.21531     0.80321      0.52729      0.14214      
1.98         0.52801      0.12997      -0.19796     0.8092       -0.19796     0.8092       0.52801      0.12997      
1.99         0.52839      0.11782      -0.18043     0.81486      -0.18043     0.81486      0.52839      0.11782      
2            0.52845      0.10567      -0.16272     0.82017      -0.16272     0.82017      0.52845      0.10567      
2.01         0.52817      0.093558     -0.14483     0.82513      -0.14483     0.82513      0.52817      0.093558     
2.02         0.52756      0.081476     -0.12678     0.82973      -0.12678     0.82973      0.52756      0.081476     
2.03         0.52661      0.069439     -0.10857     0.83396      -0.10857     0.83396      0.52661      0.069439     
2.04         0.52534      0.057456     -0.090196    0.83783      -0.090196    0.83783      0.52534      0.057456     
2.05         0.52373      0.045538     -0.071676    0.84132      -0.071676    0.84132      0.52373      0.045538     
2.06         0.5218       0.033695     -0.053012    0.84442      -0.053012    0.84442      0.5218       0.033695     
2.07         0.51953      0.021936     -0.03421     0.84714      -0.03421     0.84714      0.51953      0.021936     
2.08         0.51694      0.010272     -0.015278    0.84946      -0.015278    0.84946      0.51694      0.010272     
2.09         0.51403      -0.0012869   0.0037793    0.85139      0.0037793    0.85139      0.51403      -0.0012869   
2.1          0.51079      -0.012731    0.022953     0.85291      0.022953     0.85291      0.51079      -0.012731    
2.11         0.50723      -0.024049    0.042237     0.85402      0.042237     0.85402      0.50723      -0.024049    
2.12         0.50335      -0.035232    0.061622     0.85471      0.061622     0.85471      0.50335      -0.035232    
2.13         0.49917      -0.04627     0.081103     0.85498      0.081103     0.85498      0.49917      -0.04627     
2.14         0.49467      -0.057151    0.10067      0.85482      0.10067      0.85482      0.49467      -0.057151    
2.15         0.48986      -0.067867    0.12031      0.85423      0.12031      0.85423      0.48986      -0.067867    
