!freq-unit  param-type  data-format  keyword  impedance-ohms
# GHZ           S          RI           R         50
!-----------------------------------------------------------------------------
!Freq          ReS11        ImS11        ReS21        ImS21        ReS12        ImS12        ReS22        ImS22
0.5          -0.28595     -0.12601     0.38365      -0.86647     0.38365      -0.86647     -0.28595     -0.12601     
0.51         -0.29345     -0.12155     0.36348      -0.87324     0.36348      -0.87324     -0.29345     -0.12155     
0.52         -0.30085     -0.11681     0.34323      -0.87951     0.34323      -0.87951     -0.30085     -0.11681     
0.53         -0.30812     -0.11179     0.32291      -0.8853      0.32291      -0.8853      -0.30812     -0.11179     
0.54         -0.31526     -0.1065      0.30253      -0.8906      0.30253      -0.8906      -0.31526     -0.1065      
0.55         -0.32226     -0.10094     0.2821       -0.89541     0.2821       -0.89541     -0.32226     -0.10094     
0.56         -0.32911     -0.095116    0.26164      -0.89973     0.26164      -0.89973     -0.32911     -0.095116    
0.57         -0.3358      -0.089036    0.24115      -0.90357     0.24115      -0.90357     -0.3358      -0.089036    
0.58         -0.34233     -0.082704    0.22066      -0.90693     0.22066      -0.90693     -0.34233     -0.082704    
0.59         -0.34868     -0.076127    0.20016      -0.90981     0.20016      -0.90981     -0.34868     -0.076127    
0.6          -0.35485     -0.069311    0.17968      -0.91222     0.17968      -0.91222     -0.35485     -0.069311    
0.61         -0.36084     -0.062263    0.15921      -0.91416     0.15921      -0.91416     -0.36084     -0.062263    
0.62         -0.36662     -0.054989    0.13879      -0.91563     0.13879      -0.91563     -0.36662     -0.054989    
0.63         -0.37221     -0.047497    0.1184       -0.91663     0.1184       -0.91663     -0.37221     -0.047497    
0.64         -0.37758     -0.039794    0.098073     -0.91718     0.098073     -0.91718     -0.37758     -0.039794    
0.65         -0.38274     -0.031887    0.07781      -0.91727     0.07781      -0.91727     -0.38274     -0.031887    
0.66         -0.38768     -0.023783    0.057621     -0.91691     0.057621     -0.91691     -0.38768     -0.023783    
0.67         -0.39239     -0.01549     0.037519     -0.91611     0.037519     -0.91611     -0.39239     -0.01549     
0.68         -0.39686     -0.0070163   0.01751      -0.91486     0.01751      -0.91486     -0.39686     -0.0070163   
0.69         -0.4011      0.0016312    -0.0023936   -0.91318     -0.0023936   -0.91318     -0.4011      0.0016312    
0.7          -0.4051      0.010444     -0.022184    -0.91107     -0.022184    -0.91107     -0.4051      0.010444     
0.71         -0.40884     0.019415     -0.041853    -0.90853     -0.041853    -0.90853     -0.40884     0.019415     
0.72         -0.41234     0.028535     -0.061391    -0.90558     -0.061391    -0.90558     -0.41234     0.028535     
0.73         -0.41558     0.037796     -0.08079     -0.90221     -0.08079     -0.90221     -0.41558     0.037796     
0.74         -0.41856     0.04719      -0.10004     -0.89843     -0.10004     -0.89843     -0.41856     0.04719      
0.75         -0.42127     0.056708     -0.11914     -0.89425     -0.11914     -0.89425     -0.42127     0.056708     
0.76         -0.42372     0.066343     -0.13807     -0.88968     -0.13807     -0.88968     -0.42372     0.066343     
0.77         -0.4259      0.076086     -0.15683     -0.88471     -0.15683     -0.88471     -0.4259      0.076086     
0.78         -0.42781     0.085928     -0.17542     -0.87937     -0.17542     -0.87937     -0.42781     0.085928     
0.79         -0.42944     0.095861     -0.19382     -0.87364     -0.19382     -0.87364     -0.42944     0.095861     
0.8          -0.4308      0.10588      -0.21203     -0.86755     -0.21203     -0.86755     -0.4308      0.10588      
0.81         -0.43187     0.11597      -0.23004     -0.86109     -0.23004     -0.86109     -0.43187     0.11597      
0.82         -0.43267     0.12612      -0.24784     -0.85427     -0.24784     -0.85427     -0.43267     0.12612      
0.83         -0.43319     0.13633      -0.26544     -0.84711     -0.26544     -0.84711     -0.43319     0.13633      
0.84         -0.43342     0.14659      -0.28281     -0.8396      -0.28281     -0.8396      -0.43342     0.14659      
0.85         -0.43337     0.1569       -0.29997     -0.83175     -0.29997     -0.83175     -0.43337     0.1569       
0.86         -0.43304     0.16723      -0.3169      -0.82357     -0.3169      -0.82357     -0.43304     0.16723      
0.87         -0.43242     0.17759      -0.33359     -0.81507     -0.33359     -0.81507     -0.43242     0.17759      
0.88         -0.43152     0.18796      -0.35005     -0.80626     -0.35005     -0.80626     -0.43152     0.18796      
0.89         -0.43033     0.19834      -0.36626     -0.79713     -0.36626     -0.79713     -0.43033     0.19834      
0.9          -0.42886     0.20872      -0.38222     -0.7877      -0.38222     -0.7877      -0.42886     0.20872      
0.91         -0.42711     0.21909      -0.39793     -0.77797     -0.39793     -0.77797     -0.42711     0.21909      
0.92         -0.42507     0.22944      -0.41339     -0.76796     -0.41339     -0.76796     -0.42507     0.22944      
0.93         -0.42276     0.23977      -0.42858     -0.75766     -0.42858     -0.75766     -0.42276     0.23977      
0.94         -0.42016     0.25006      -0.44351     -0.74709     -0.44351     -0.74709     -0.42016     0.25006      
0.95         -0.41729     0.26032      -0.45817     -0.73625     -0.45817     -0.73625     -0.41729     0.26032      
0.96         -0.41414     0.27053      -0.47256     -0.72515     -0.47256     -0.72515     -0.41414     0.27053      
0.97         -0.41071     0.28068      -0.48667     -0.7138      -0.48667     -0.7138      -0.41071     0.28068      
0.98         -0.40702     0.29076      -0.5005      -0.7022      -0.5005      -0.7022      -0.40702     0.29076      
0.99         -0.40305     0.30078      -0.51405     -0.69036     -0.51405     -0.69036     -0.40305     0.30078      
1            -0.39881     0.31072      -0.52732     -0.67828     -0.52732     -0.67828     -0.39881     0.31072      
1.01         -0.39431     0.32057      -0.54029     -0.66598     -0.54029     -0.66598     -0.39431     0.32057      
1.02         -0.38955     0.33033      -0.55298     -0.65346     -0.55298     -0.65346     -0.38955     0.33033      
1.03         -0.38453     0.33999      -0.56537     -0.64072     -0.56537     -0.64072     -0.38453     0.33999      
1.04         -0.37925     0.34955      -0.57747     -0.62778     -0.57747     -0.62778     -0.37925     0.34955      
1.05         -0.37372     0.35899      -0.58927     -0.61464     -0.58927     -0.61464     -0.37372     0.35899      
1.06         -0.36793     0.36832      -0.60077     -0.60131     -0.60077     -0.60131     -0.36793     0.36832      
1.07         -0.36191     0.37752      -0.61197     -0.58779     -0.61197     -0.58779     -0.36191     0.37752      
1.08         -0.35564     0.38658      -0.62287     -0.5741      -0.62287     -0.5741      -0.35564     0.38658      
1.09         -0.34913     0.39551      -0.63346     -0.56023     -0.63346     -0.56023     -0.34913     0.39551      
1.1          -0.34239     0.4043       -0.64374     -0.54619     -0.64374     -0.54619     -0.34239     0.4043       
1.11         -0.33542     0.41293      -0.65372     -0.53199     -0.65372     -0.53199     -0.33542     0.41293      
1.12         -0.32822     0.42141      -0.66338     -0.51765     -0.66338     -0.51765     -0.32822     0.42141      
1.13         -0.32081     0.42973      -0.67274     -0.50315     -0.67274     -0.50315     -0.32081     0.42973      
1.14         -0.31317     0.43788      -0.68179     -0.48852     -0.68179     -0.48852     -0.31317     0.43788      
1.15         -0.30533     0.44585      -0.69052     -0.47375     -0.69052     -0.47375     -0.30533     0.44585      
1.16         -0.29727     0.45365      -0.69894     -0.45885     -0.69894     -0.45885     -0.29727     0.45365      
1.17         -0.28902     0.46127      -0.70704     -0.44383     -0.70704     -0.44383     -0.28902     0.46127      
1.18         -0.28056     0.4687       -0.71483     -0.4287      -0.71483     -0.4287      -0.28056     0.4687       
1.19         -0.27192     0.47594      -0.72231     -0.41346     -0.72231     -0.41346     -0.27192     0.47594      
1.2          -0.26309     0.48298      -0.72947     -0.39811     -0.72947     -0.39811     -0.26309     0.48298      
1.21         -0.25408     0.48982      -0.73632     -0.38267     -0.73632     -0.38267     -0.25408     0.48982      
1.22         -0.24489     0.49646      -0.74285     -0.36714     -0.74285     -0.36714     -0.24489     0.49646      
1.23         -0.23553     0.50288      -0.74906     -0.35152     -0.74906     -0.35152     -0.23553     0.50288      
1.24         -0.226       0.50909      -0.75496     -0.33582     -0.75496     -0.33582     -0.226       0.50909      
1.25         -0.21632     0.51509      -0.76054     -0.32005     -0.76054     -0.32005     -0.21632     0.51509      
1.26         -0.20648     0.52086      -0.7658      -0.30422     -0.7658      -0.30422     -0.20648     0.52086      
1.27         -0.19649     0.52641      -0.77075     -0.28832     -0.77075     -0.28832     -0.19649     0.52641      
1.28         -0.18636     0.53173      -0.77539     -0.27237     -0.77539     -0.27237     -0.18636     0.53173      
1.29         -0.17609     0.53681      -0.77971     -0.25636     -0.77971     -0.25636     -0.17609     0.53681      
1.3          -0.16569     0.54167      -0.78371     -0.24031     -0.78371     -0.24031     -0.16569     0.54167      
1.31         -0.15517     0.54628      -0.7874      -0.22423     -0.7874      -0.22423     -0.15517     0.54628      
1.32         -0.14453     0.55066      -0.79078     -0.20811     -0.79078     -0.20811     -0.14453     0.55066      
1.33         -0.13378     0.55479      -0.79384     -0.19196     -0.79384     -0.19196     -0.13378     0.55479      
1.34         -0.12292     0.55867      -0.7966      -0.17578     -0.7966      -0.17578     -0.12292     0.55867      
1.35         -0.11196     0.56231      -0.79904     -0.1596      -0.79904     -0.1596      -0.11196     0.56231      
1.36         -0.1009      0.5657       -0.80117     -0.14339     -0.80117     -0.14339     -0.1009      0.5657       
1.37         -0.089759    0.56884      -0.80299     -0.12719     -0.80299     -0.12719     -0.089759    0.56884      
1.38         -0.078534    0.57172      -0.8045      -0.11098     -0.8045      -0.11098     -0.078534    0.57172      
1.39         -0.067234    0.57435      -0.80571     -0.094771    -0.80571     -0.094771    -0.067234    0.57435      
1.4          -0.055863    0.57672      -0.80661     -0.078574    -0.80661     -0.078574    -0.055863    0.57672      
1.41         -0.04443     0.57883      -0.8072      -0.06239     -0.8072      -0.06239     -0.04443     0.57883      
1.42         -0.03294     0.58068      -0.80749     -0.046225    -0.80749     -0.046225    -0.03294     0.58068      
1.43         -0.0214      0.58227      -0.80748     -0.030084    -0.80748     -0.030084    -0.0214      0.58227      
1.44         -0.0098154   0.5836       -0.80716     -0.013971    -0.80716     -0.013971    -0.0098154   0.5836       
1.45         0.001807     0.58466      -0.80655     0.0021086    -0.80655     0.0021086    0.001807     0.58466      
1.46         0.013461     0.58547      -0.80564     0.01815      -0.80564     0.01815      0.013461     0.58547      
1.47         0.02514      0.586        -0.80443     0.034149     -0.80443     0.034149     0.02514      0.586        
1.48         0.036838     0.58628      -0.80292     0.0501       -0.80292     0.0501       0.036838     0.58628      
1.49         0.048548     0.58629      -0.80112     0.065998     -0.80112     0.065998     0.048548     0.58629      
1.5          0.060265     0.58603      -0.79903     0.08184      -0.79903     0.08184      0.060265     0.58603      
1.51         0.071981     0.58551      -0.79665     0.097621     -0.79665     0.097621     0.071981     0.58551      
1.52         0.083692     0.58472      -0.79398     0.11333      -0.79398     0.11333      0.083692     0.58472      
1.53         0.095389     0.58367      -0.79102     0.12898      -0.79102     0.12898      0.095389     0.58367      
1.54         0.10707      0.58236      -0.78777     0.14455      -0.78777     0.14455      0.10707      0.58236      
1.55         0.11872      0.58078      -0.78425     0.16004      -0.78425     0.16004      0.11872      0.58078      
1.56         0.13034      0.57894      -0.78044     0.17544      -0.78044     0.17544      0.13034      0.57894      
1.57         0.14193      0.57684      -0.77635     0.19076      -0.77635     0.19076      0.14193      0.57684      
1.58         0.15347      0.57448      -0.77198     0.20599      -0.77198     0.20599      0.15347      0.57448      
1.59         0.16496      0.57186      -0.76734     0.22112      -0.76734     0.22112      0.16496      0.57186      
1.6          0.1764       0.56898      -0.76242     0.23614      -0.76242     0.23614      0.1764       0.56898      
1.61         0.18777      0.56585      -0.75723     0.25107      -0.75723     0.25107      0.18777      0.56585      
1.62         0.19907      0.56246      -0.75177     0.26588      -0.75177     0.26588      0.19907      0.56246      
1.63         0.21031      0.55882      -0.74604     0.28058      -0.74604     0.28058      0.21031      0.55882      
1.64         0.22146      0.55492      -0.74005     0.29517      -0.74005     0.29517      0.22146      0.55492      
1.65         0.23252      0.55078      -0.7338      0.30963      -0.7338      0.30963      0.23252      0.55078      
1.66         0.2435       0.54639      -0.72728     0.32396      -0.72728     0.32396      0.2435       0.54639      
1.67         0.25438      0.54175      -0.7205      0.33817      -0.7205      0.33817      0.25438      0.54175      
1.68         0.26515      0.53687      -0.71347     0.35225      -0.71347     0.35225      0.26515      0.53687      
1.69         0.27582      0.53175      -0.70619     0.36619      -0.70619     0.36619      0.27582      0.53175      
1.7          0.28637      0.52639      -0.69865     0.37998      -0.69865     0.37998      0.28637      0.52639      
1.71         0.2968       0.5208       -0.69086     0.39363      -0.69086     0.39363      0.2968       0.5208       
1.72         0.30711      0.51497      -0.68283     0.40714      -0.68283     0.40714      0.30711      0.51497      
1.73         0.31728      0.50892      -0.67455     0.42049      -0.67455     0.42049      0.31728      0.50892      
1.74         0.32732      0.50264      -0.66603     0.43368      -0.66603     0.43368      0.32732      0.50264      
1.75         0.33722      0.49614      -0.65727     0.44672      -0.65727     0.44672      0.33722      0.49614      
1.76         0.34697      0.48941      -0.64827     0.45959      -0.64827     0.45959      0.34697      0.48941      
1.77         0.35657      0.48247      -0.63904     0.4723       -0.63904     0.4723       0.35657      0.48247      
1.78         0.36602      0.47532      -0.62958     0.48483      -0.62958     0.48483      0.36602      0.47532      
1.79         0.3753       0.46796      -0.61989     0.49719      -0.61989     0.49719      0.3753       0.46796      
1.8          0.38442      0.46039      -0.60997     0.50938      -0.60997     0.50938      0.38442      0.46039      
1.81         0.39336      0.45262      -0.59983     0.52138      -0.59983     0.52138      0.39336      0.45262      
1.82         0.40213      0.44466      -0.58947     0.53319      -0.58947     0.53319      0.40213      0.44466      
1.83         0.41072      0.4365       -0.57889     0.54482      -0.57889     0.54482      0.41072      0.4365       
1.84         0.41912      0.42815      -0.56809     0.55626      -0.56809     0.55626      0.41912      0.42815      
1.85         0.42733      0.41962      -0.55709     0.5675       -0.55709     0.5675       0.42733      0.41962      
1.86         0.43535      0.41091      -0.54587     0.57854      -0.54587     0.57854      0.43535      0.41091      
1.87         0.44317      0.40202      -0.53445     0.58938      -0.53445     0.58938      0.44317      0.40202      
1.88         0.45079      0.39296      -0.52282     0.60002      -0.52282     0.60002      0.45079      0.39296      
1.89         0.4582       0.38374      -0.511       0.61044      -0.511       0.61044      0.4582       0.38374      
1.9          0.4654       0.37435      -0.49898     0.62066      -0.49898     0.62066      0.4654       0.37435      
1.91         0.47239      0.3648       -0.48676     0.63066      -0.48676     0.63066      0.47239      0.3648       
1.92         0.47916      0.35511      -0.47435     0.64044      -0.47435     0.64044      0.47916      0.35511      
1.93         0.4857       0.34526      -0.46175     0.65         -0.46175     0.65         0.4857       0.34526      
1.94         0.49202      0.33528      -0.44897     0.65933      -0.44897     0.65933      0.49202      0.33528      
1.95         0.49812      0.32516      -0.43601     0.66843      -0.43601     0.66843      0.49812      0.32516      
1.96         0.50397      0.31491      -0.42287     0.67731      -0.42287     0.67731      0.50397      0.31491      
1.97         0.5096       0.30453      -0.40955     0.68594      -0.40955     0.68594      0.5096       0.30453      
1.98         0.51498      0.29403      -0.39607     0.69434      -0.39607     0.69434      0.51498      0.29403      
1.99         0.52013      0.28342      -0.38241     0.7025       -0.38241     0.7025       0.52013      0.28342      
2            0.52503      0.2727       -0.36859     0.71042      -0.36859     0.71042      0.52503      0.2727       
2.01         0.52968      0.26188      -0.35461     0.71809      -0.35461     0.71809      0.52968      0.26188      
2.02         0.53408      0.25096      -0.34047     0.72551      -0.34047     0.72551      0.53408      0.25096      
2.03         0.53823      0.23995      -0.32618     0.73267      -0.32618     0.73267      0.53823      0.23995      
2.04         0.54213      0.22885      -0.31174     0.73958      -0.31174     0.73958      0.54213      0.22885      
2.05         0.54576      0.21768      -0.29715     0.74623      -0.29715     0.74623      0.54576      0.21768      
2.06         0.54914      0.20643      -0.28242     0.75261      -0.28242     0.75261      0.54914      0.20643      
2.07         0.55226      0.19512      -0.26755     0.75873      -0.26755     0.75873      0.55226      0.19512      
2.08         0.55512      0.18374      -0.25254     0.76458      -0.25254     0.76458      0.55512      0.18374      
2.09         0.55771      0.17231      -0.2374      0.77016      -0.2374      0.77016      0.55771      0.17231      
2.1          0.56003      0.16084      -0.22214     0.77547      -0.22214     0.77547      0.56003      0.16084      
2.11         0.56209      0.14932      -0.20675     0.7805       -0.20675     0.7805       0.56209      0.14932      
2.12         0.56388      0.13776      -0.19124     0.78525      -0.19124     0.78525      0.56388      0.13776      
2.13         0.5654       0.12618      -0.17562     0.78971      -0.17562     0.78971      0.5654       0.12618      
2.14         0.56665      0.11458      -0.15989     0.79389      -0.15989     0.79389      0.56665      0.11458      
2.15         0.56762      0.10296      -0.14405     0.79779      -0.14405     0.79779      0.56762      0.10296      
