!freq-unit  param-type  data-format  keyword  impedance-ohms
# GHZ           S          RI           R         50
!-----------------------------------------------------------------------------
!Freq          ReS11        ImS11        ReS21        ImS21        ReS12        ImS12        ReS22        ImS22
0.5          -0.35853     -0.13606     0.28871      -0.87463     0.28871      -0.87463     -0.36935     -0.10287     
0.51         -0.36688     -0.12976     0.2672       -0.87893     0.2672       -0.87893     -0.37727     -0.095135    
0.52         -0.37503     -0.12314     0.2457       -0.88268     0.2457       -0.88268     -0.38493     -0.087076    
0.53         -0.38298     -0.11621     0.22423      -0.8859      0.22423      -0.8859      -0.39233     -0.078704    
0.54         -0.3907      -0.10899     0.20279      -0.88858     0.20279      -0.88858     -0.39945     -0.070029    
0.55         -0.3982      -0.10148     0.18141      -0.89073     0.18141      -0.89073     -0.40629     -0.061065    
0.56         -0.40547     -0.093688    0.1601       -0.89237     0.1601       -0.89237     -0.41283     -0.051821    
0.57         -0.41249     -0.08563     0.13886      -0.8935      0.13886      -0.8935      -0.41907     -0.042311    
0.58         -0.41926     -0.077313    0.11771      -0.89412     0.11771      -0.89412     -0.425       -0.032548    
0.59         -0.42577     -0.068748    0.096662     -0.89424     0.096662     -0.89424     -0.43061     -0.022542    
0.6          -0.43202     -0.059944    0.075726     -0.89388     0.075726     -0.89388     -0.43589     -0.012308    
0.61         -0.43799     -0.050912    0.054911     -0.89303     0.054911     -0.89303     -0.44084     -0.0018574   
0.62         -0.44369     -0.041662    0.034228     -0.89171     0.034228     -0.89171     -0.44546     0.0087965    
0.63         -0.44909     -0.032206    0.013687     -0.88992     0.013687     -0.88992     -0.44972     0.019641     
0.64         -0.45421     -0.022553    -0.0067034   -0.88768     -0.0067034   -0.88768     -0.45364     0.030663     
0.65         -0.45904     -0.012715    -0.026934    -0.88498     -0.026934    -0.88498     -0.4572      0.041849     
0.66         -0.46357     -0.002701    -0.046996    -0.88185     -0.046996    -0.88185     -0.46041     0.053187     
0.67         -0.46779     0.0074771    -0.066882    -0.87828     -0.066882    -0.87828     -0.46325     0.064663     
0.68         -0.4717      0.017809     -0.086584    -0.87429     -0.086584    -0.87429     -0.46573     0.076265     
0.69         -0.47531     0.028284     -0.10609     -0.86988     -0.10609     -0.86988     -0.46784     0.08798      
0.7          -0.4786      0.038891     -0.12541     -0.86506     -0.12541     -0.86506     -0.46958     0.099794     
0.71         -0.48158     0.04962      -0.14451     -0.85984     -0.14451     -0.85984     -0.47095     0.1117       
0.72         -0.48424     0.06046      -0.16341     -0.85423     -0.16341     -0.85423     -0.47195     0.12367      
0.73         -0.48658     0.071401     -0.18208     -0.84824     -0.18208     -0.84824     -0.47257     0.13571      
0.74         -0.48859     0.082432     -0.20054     -0.84188     -0.20054     -0.84188     -0.47282     0.14779      
0.75         -0.49029     0.093543     -0.21876     -0.83515     -0.21876     -0.83515     -0.4727      0.15992      
0.76         -0.49166     0.10472      -0.23675     -0.82806     -0.23675     -0.82806     -0.4722      0.17206      
0.77         -0.49271     0.11596      -0.2545      -0.82062     -0.2545      -0.82062     -0.47133     0.18422      
0.78         -0.49343     0.12725      -0.272       -0.81284     -0.272       -0.81284     -0.47008     0.19638      
0.79         -0.49384     0.13858      -0.28926     -0.80472     -0.28926     -0.80472     -0.46847     0.20853      
0.8          -0.49391     0.14994      -0.30627     -0.79628     -0.30627     -0.79628     -0.46649     0.22065      
0.81         -0.49367     0.16132      -0.32301     -0.78753     -0.32301     -0.78753     -0.46414     0.23274      
0.82         -0.4931      0.1727       -0.3395      -0.77846     -0.3395      -0.77846     -0.46143     0.24478      
0.83         -0.49221     0.18409      -0.35573     -0.76909     -0.35573     -0.76909     -0.45835     0.25677      
0.84         -0.491       0.19547      -0.37168     -0.75943     -0.37168     -0.75943     -0.45492     0.26868      
0.85         -0.48947     0.20683      -0.38737     -0.74948     -0.38737     -0.74948     -0.45114     0.28052      
0.86         -0.48763     0.21816      -0.40278     -0.73925     -0.40278     -0.73925     -0.447       0.29226      
0.87         -0.48548     0.22946      -0.41792     -0.72875     -0.41792     -0.72875     -0.44252     0.30391      
0.88         -0.48301     0.24071      -0.43278     -0.71799     -0.43278     -0.71799     -0.4377      0.31545      
0.89         -0.48023     0.25191      -0.44736     -0.70696     -0.44736     -0.70696     -0.43253     0.32686      
0.9          -0.47715     0.26305      -0.46166     -0.69569     -0.46166     -0.69569     -0.42704     0.33815      
0.91         -0.47377     0.27411      -0.47567     -0.68418     -0.47567     -0.68418     -0.42121     0.34929      
0.92         -0.47008     0.2851       -0.48939     -0.67243     -0.48939     -0.67243     -0.41507     0.36029      
0.93         -0.4661      0.296        -0.50283     -0.66045     -0.50283     -0.66045     -0.4086      0.37113      
0.94         -0.46182     0.3068       -0.51597     -0.64825     -0.51597     -0.64825     -0.40183     0.3818       
0.95         -0.45726     0.3175       -0.52883     -0.63583     -0.52883     -0.63583     -0.39474     0.39229      
0.96         -0.45241     0.32809      -0.54139     -0.6232      -0.54139     -0.6232      -0.38736     0.40261      
0.97         -0.44727     0.33857      -0.55365     -0.61037     -0.55365     -0.61037     -0.37969     0.41272      
0.98         -0.44186     0.34892      -0.56562     -0.59734     -0.56562     -0.59734     -0.37172     0.42264      
0.99         -0.43618     0.35913      -0.5773      -0.58413     -0.5773      -0.58413     -0.36348     0.43235      
1            -0.43023     0.36921      -0.58867     -0.57072     -0.58867     -0.57072     -0.35496     0.44185      
1.01         -0.42401     0.37914      -0.59975     -0.55714     -0.59975     -0.55714     -0.34618     0.45112      
1.02         -0.41754     0.38892      -0.61052     -0.54339     -0.61052     -0.54339     -0.33713     0.46016      
1.03         -0.41081     0.39854      -0.621       -0.52947     -0.621       -0.52947     -0.32784     0.46897      
1.04         -0.40383     0.408        -0.63117     -0.51539     -0.63117     -0.51539     -0.31829     0.47753      
1.05         -0.39661     0.41728      -0.64105     -0.50115     -0.64105     -0.50115     -0.30851     0.48584      
1.06         -0.38914     0.42639      -0.65062     -0.48677     -0.65062     -0.48677     -0.2985      0.4939       
1.07         -0.38145     0.43531      -0.65988     -0.47224     -0.65988     -0.47224     -0.28827     0.50169      
1.08         -0.37352     0.44404      -0.66885     -0.45757     -0.66885     -0.45757     -0.27782     0.50922      
1.09         -0.36537     0.45258      -0.67751     -0.44277     -0.67751     -0.44277     -0.26717     0.51647      
1.1          -0.35701     0.46092      -0.68586     -0.42784     -0.68586     -0.42784     -0.25631     0.52345      
1.11         -0.34843     0.46906      -0.69391     -0.41279     -0.69391     -0.41279     -0.24527     0.53014      
1.12         -0.33964     0.47698      -0.70166     -0.39762     -0.70166     -0.39762     -0.23404     0.53655      
1.13         -0.33066     0.48469      -0.7091      -0.38233     -0.7091      -0.38233     -0.22264     0.54266      
1.14         -0.32148     0.49219      -0.71623     -0.36694     -0.71623     -0.36694     -0.21108     0.54848      
1.15         -0.31212     0.49945      -0.72306     -0.35145     -0.72306     -0.35145     -0.19935     0.55399      
1.16         -0.30257     0.50649      -0.72958     -0.33586     -0.72958     -0.33586     -0.18748     0.5592       
1.17         -0.29284     0.5133       -0.7358      -0.32017     -0.7358      -0.32017     -0.17547     0.56411      
1.18         -0.28295     0.51986      -0.7417      -0.30439     -0.7417      -0.30439     -0.16332     0.5687       
1.19         -0.27289     0.52619      -0.74731     -0.28854     -0.74731     -0.28854     -0.15105     0.57298      
1.2          -0.26268     0.53228      -0.7526      -0.2726      -0.7526      -0.2726      -0.13867     0.57694      
1.21         -0.25231     0.53811      -0.75759     -0.25658     -0.75759     -0.25658     -0.12618     0.58058      
1.22         -0.2418      0.54369      -0.76227     -0.2405      -0.76227     -0.2405      -0.1136      0.58389      
1.23         -0.23116     0.54902      -0.76664     -0.22435     -0.76664     -0.22435     -0.10093     0.58689      
1.24         -0.22038     0.55409      -0.77071     -0.20814     -0.77071     -0.20814     -0.088175    0.58955      
1.25         -0.20948     0.5589       -0.77447     -0.19187     -0.77447     -0.19187     -0.075354    0.59189      
1.26         -0.19846     0.56345      -0.77792     -0.17555     -0.77792     -0.17555     -0.062472    0.5939       
1.27         -0.18733     0.56773      -0.78106     -0.15919     -0.78106     -0.15919     -0.049537    0.59557      
1.28         -0.1761      0.57173      -0.78389     -0.14277     -0.78389     -0.14277     -0.036559    0.59692      
1.29         -0.16477     0.57547      -0.78642     -0.12632     -0.78642     -0.12632     -0.023547    0.59793      
1.3          -0.15335     0.57894      -0.78864     -0.10983     -0.78864     -0.10983     -0.01051     0.5986       
1.31         -0.14184     0.58212      -0.79055     -0.093314    -0.79055     -0.093314    0.0025429    0.59894      
1.32         -0.13026     0.58503      -0.79215     -0.076768    -0.79215     -0.076768    0.015603     0.59895      
1.33         -0.11861     0.58766      -0.79344     -0.0602      -0.79344     -0.0602      0.028662     0.59862      
1.34         -0.1069      0.59001      -0.79442     -0.043613    -0.79442     -0.043613    0.04171      0.59795      
1.35         -0.095134    0.59208      -0.7951      -0.027012    -0.7951      -0.027012    0.054738     0.59696      
1.36         -0.08332     0.59386      -0.79546     -0.010401    -0.79546     -0.010401    0.067737     0.59562      
1.37         -0.071464    0.59535      -0.79552     0.006216     -0.79552     0.006216     0.080699     0.59396      
1.38         -0.059575    0.59656      -0.79526     0.022835     -0.79526     0.022835     0.093614     0.59196      
1.39         -0.047659    0.59749      -0.7947      0.039451     -0.7947      0.039451     0.10647      0.58963      
1.4          -0.035724    0.59812      -0.79383     0.05606      -0.79383     0.05606      0.11927      0.58698      
1.41         -0.023777    0.59847      -0.79264     0.072658     -0.79264     0.072658     0.13199      0.58399      
1.42         -0.011825    0.59852      -0.79115     0.08924      -0.79115     0.08924      0.14463      0.58068      
1.43         0.00012487   0.59829      -0.78935     0.1058       -0.78935     0.1058       0.15718      0.57705      
1.44         0.012065     0.59777      -0.78723     0.12234      -0.78723     0.12234      0.16963      0.57309      
1.45         0.023988     0.59696      -0.78481     0.13885      -0.78481     0.13885      0.18197      0.56882      
1.46         0.035886     0.59586      -0.78207     0.15533      -0.78207     0.15533      0.19419      0.56424      
1.47         0.047753     0.59447      -0.77902     0.17177      -0.77902     0.17177      0.20629      0.55934      
1.48         0.059581     0.5928       -0.77566     0.18817      -0.77566     0.18817      0.21826      0.55413      
1.49         0.071362     0.59083      -0.77199     0.20453      -0.77199     0.20453      0.23008      0.54861      
1.5          0.08309      0.58858      -0.76801     0.22083      -0.76801     0.22083      0.24175      0.54279      
1.51         0.094757     0.58605      -0.76371     0.23708      -0.76371     0.23708      0.25326      0.53668      
1.52         0.10636      0.58323      -0.75911     0.25327      -0.75911     0.25327      0.26461      0.53027      
1.53         0.11788      0.58013      -0.75419     0.26939      -0.75419     0.26939      0.27577      0.52357      
1.54         0.12932      0.57675      -0.74895     0.28545      -0.74895     0.28545      0.28676      0.51659      
1.55         0.14067      0.57308      -0.74341     0.30143      -0.74341     0.30143      0.29755      0.50932      
1.56         0.15192      0.56914      -0.73755     0.31734      -0.73755     0.31734      0.30815      0.50178      
1.57         0.16306      0.56493      -0.73138     0.33316      -0.73138     0.33316      0.31853      0.49397      
1.58         0.1741       0.56044      -0.72489     0.34889      -0.72489     0.34889      0.3287       0.48589      
1.59         0.18501      0.55568      -0.71809     0.36453      -0.71809     0.36453      0.33865      0.47756      
1.6          0.1958       0.55066      -0.71098     0.38007      -0.71098     0.38007      0.34837      0.46897      
1.61         0.20645      0.54537      -0.70355     0.39551      -0.70355     0.39551      0.35785      0.46013      
1.62         0.21696      0.53981      -0.69582     0.41084      -0.69582     0.41084      0.36709      0.45106      
1.63         0.22733      0.534        -0.68776     0.42606      -0.68776     0.42606      0.37607      0.44174      
1.64         0.23753      0.52793      -0.6794      0.44115      -0.6794      0.44115      0.3848       0.4322       
1.65         0.24758      0.52161      -0.67071     0.45612      -0.67071     0.45612      0.39326      0.42244      
1.66         0.25745      0.51505      -0.66172     0.47096      -0.66172     0.47096      0.40145      0.41247      
1.67         0.26715      0.50823      -0.65241     0.48567      -0.65241     0.48567      0.40935      0.40229      
1.68         0.27666      0.50118      -0.64279     0.50023      -0.64279     0.50023      0.41698      0.39191      
1.69         0.28599      0.49389      -0.63286     0.51465      -0.63286     0.51465      0.42431      0.38134      
1.7          0.29511      0.48637      -0.62262     0.52891      -0.62262     0.52891      0.43134      0.37058      
1.71         0.30403      0.47863      -0.61206     0.54301      -0.61206     0.54301      0.43807      0.35965      
1.72         0.31274      0.47066      -0.60119     0.55695      -0.60119     0.55695      0.4445       0.34856      
1.73         0.32124      0.46247      -0.59001     0.57071      -0.59001     0.57071      0.4506       0.3373       
1.74         0.3295       0.45408      -0.57852     0.58429      -0.57852     0.58429      0.45639      0.3259       
1.75         0.33754      0.44548      -0.56672     0.59769      -0.56672     0.59769      0.46185      0.31435      
1.76         0.34534      0.43668      -0.55462     0.6109       -0.55462     0.6109       0.46698      0.30268      
1.77         0.35289      0.42768      -0.5422      0.62391      -0.5422      0.62391      0.47178      0.29088      
1.78         0.3602       0.4185       -0.52948     0.63672      -0.52948     0.63672      0.47624      0.27897      
1.79         0.36725      0.40913      -0.51645     0.64931      -0.51645     0.64931      0.48036      0.26696      
1.8          0.37404      0.3996       -0.50312     0.66169      -0.50312     0.66169      0.48413      0.25486      
1.81         0.38056      0.38989      -0.48948     0.67383      -0.48948     0.67383      0.48754      0.24267      
1.82         0.3868       0.38002      -0.47554     0.68575      -0.47554     0.68575      0.49061      0.23042      
1.83         0.39277      0.37001      -0.46131     0.69742      -0.46131     0.69742      0.49331      0.2181       
1.84         0.39845      0.35984      -0.44677     0.70884      -0.44677     0.70884      0.49566      0.20573      
1.85         0.40385      0.34954      -0.43194     0.72001      -0.43194     0.72001      0.49765      0.19332      
1.86         0.40894      0.3391       -0.41682     0.73092      -0.41682     0.73092      0.49926      0.18089      
1.87         0.41374      0.32855      -0.4014      0.74155      -0.4014      0.74155      0.50052      0.16843      
1.88         0.41824      0.31788      -0.3857      0.7519       -0.3857      0.7519       0.5014       0.15598      
1.89         0.42242      0.3071       -0.36971     0.76197      -0.36971     0.76197      0.50191      0.14352      
1.9          0.42629      0.29623      -0.35344     0.77174      -0.35344     0.77174      0.50206      0.13109      
1.91         0.42984      0.28528      -0.33688     0.7812       -0.33688     0.7812       0.50183      0.11868      
1.92         0.43308      0.27424      -0.32005     0.79035      -0.32005     0.79035      0.50123      0.10632      
1.93         0.43598      0.26314      -0.30295     0.79918      -0.30295     0.79918      0.50026      0.094005     
1.94         0.43856      0.25198      -0.28558     0.80768      -0.28558     0.80768      0.49892      0.081759     
1.95         0.4408       0.24077      -0.26794     0.81585      -0.26794     0.81585      0.49721      0.069591     
1.96         0.44271      0.22952      -0.25005     0.82366      -0.25005     0.82366      0.49513      0.057512     
1.97         0.44429      0.21824      -0.23189     0.83112      -0.23189     0.83112      0.49268      0.045537     
1.98         0.44552      0.20695      -0.21349     0.83821      -0.21349     0.83821      0.48986      0.033676     
1.99         0.44641      0.19565      -0.19484     0.84493      -0.19484     0.84493      0.48669      0.021943     
2            0.44696      0.18435      -0.17595     0.85126      -0.17595     0.85126      0.48316      0.01035      
2.01         0.44716      0.17307      -0.15683     0.85721      -0.15683     0.85721      0.47927      -0.0010906   
2.02         0.44701      0.16181      -0.13748     0.86275      -0.13748     0.86275      0.47502      -0.012365    
2.03         0.44652      0.1506       -0.11791     0.86788      -0.11791     0.86788      0.47043      -0.023462    
2.04         0.44568      0.13943      -0.098125    0.87259      -0.098125    0.87259      0.4655       -0.034368    
2.05         0.44449      0.12832      -0.078133    0.87687      -0.078133    0.87687      0.46023      -0.045071    
2.06         0.44296      0.11728      -0.057942    0.88071      -0.057942    0.88071      0.45463      -0.055558    
2.07         0.44107      0.10633      -0.037561    0.8841       -0.037561    0.8841       0.4487       -0.065817    
2.08         0.43885      0.095481     -0.016997    0.88704      -0.016997    0.88704      0.44246      -0.075835    
2.09         0.43628      0.084737     0.0037398    0.88951      0.0037398    0.88951      0.4359       -0.0856      
2.1          0.43337      0.074114     0.024641     0.89151      0.024641     0.89151      0.42905      -0.095101    
2.11         0.43012      0.063626     0.045696     0.89302      0.045696     0.89302      0.42189      -0.10432     
2.12         0.42653      0.053283     0.066895     0.89405      0.066895     0.89405      0.41445      -0.11326     
2.13         0.42262      0.043099     0.088227     0.89457      0.088227     0.89457      0.40674      -0.12189     
2.14         0.41837      0.033086     0.10968      0.89458      0.10968      0.89458      0.39876      -0.13022     
2.15         0.4138       0.023257     0.13125      0.89407      0.13125      0.89407      0.39052      -0.13822     
