!freq-unit  param-type  data-format  keyword  impedance-ohms
# GHZ           S          RI           R         50
!-----------------------------------------------------------------------------
!Freq          ReS11        ImS11        ReS21        ImS21        ReS12        ImS12        ReS22        ImS22
0.5          -0.32154     -0.095205    0.3049       -0.88874     0.3049       -0.88874     -0.31274     -0.12118     
0.51         -0.32897     -0.088608    0.28294      -0.89392     0.28294      -0.89392     -0.32049     -0.11574     
0.52         -0.3362      -0.081699    0.26095      -0.89854     0.26095      -0.89854     -0.32809     -0.11001     
0.53         -0.34321     -0.074487    0.23894      -0.9026      0.23894      -0.9026      -0.33552     -0.10398     
0.54         -0.35001     -0.06698     0.21691      -0.90611     0.21691      -0.90611     -0.34278     -0.097659    
0.55         -0.35658     -0.059187    0.19489      -0.90907     0.19489      -0.90907     -0.34986     -0.09106     
0.56         -0.3629      -0.051117    0.17289      -0.91147     0.17289      -0.91147     -0.35675     -0.084189    
0.57         -0.36898     -0.04278     0.15093      -0.91334     0.15093      -0.91334     -0.36344     -0.077051    
0.58         -0.37479     -0.034185    0.12901      -0.91466     0.12901      -0.91466     -0.36992     -0.069656    
0.59         -0.38034     -0.025342    0.10715      -0.91546     0.10715      -0.91546     -0.37618     -0.06201     
0.6          -0.38562     -0.016262    0.085366     -0.91572     0.085366     -0.91572     -0.38222     -0.054122    
0.61         -0.3906      -0.0069555   0.063667     -0.91547     0.063667     -0.91547     -0.38802     -0.046001    
0.62         -0.3953      0.002568     0.042065     -0.9147      0.042065     -0.9147      -0.39359     -0.037655    
0.63         -0.3997      0.012297     0.020574     -0.91342     0.020574     -0.91342     -0.39891     -0.029093    
0.64         -0.4038      0.022221     -0.00079616  -0.91164     -0.00079616  -0.91164     -0.40398     -0.020324    
0.65         -0.40758     0.032328     -0.022034    -0.90936     -0.022034    -0.90936     -0.40879     -0.011356    
0.66         -0.41105     0.042608     -0.043128    -0.90659     -0.043128    -0.90659     -0.41333     -0.0021989   
0.67         -0.4142      0.053049     -0.064067    -0.90334     -0.064067    -0.90334     -0.4176      0.0071378    
0.68         -0.41702     0.06364      -0.084843    -0.89961     -0.084843    -0.89961     -0.4216      0.016645     
0.69         -0.41951     0.074369     -0.10544     -0.89542     -0.10544     -0.89542     -0.42533     0.026313     
0.7          -0.42167     0.085225     -0.12586     -0.89077     -0.12586     -0.89077     -0.42876     0.036133     
0.71         -0.42348     0.096196     -0.14608     -0.88567     -0.14608     -0.88567     -0.43191     0.046095     
0.72         -0.42496     0.10727      -0.1661      -0.88012     -0.1661      -0.88012     -0.43477     0.056188     
0.73         -0.4261      0.11844      -0.18591     -0.87413     -0.18591     -0.87413     -0.43733     0.066405     
0.74         -0.42688     0.12968      -0.2055      -0.86772     -0.2055      -0.86772     -0.4396      0.076735     
0.75         -0.42733     0.141        -0.22486     -0.86089     -0.22486     -0.86089     -0.44156     0.087168     
0.76         -0.42742     0.15237      -0.24399     -0.85364     -0.24399     -0.85364     -0.44323     0.097694     
0.77         -0.42716     0.16379      -0.26287     -0.84599     -0.26287     -0.84599     -0.44458     0.1083       
0.78         -0.42655     0.17524      -0.28151     -0.83795     -0.28151     -0.83795     -0.44563     0.11899      
0.79         -0.42559     0.18672      -0.29988     -0.82952     -0.29988     -0.82952     -0.44638     0.12974      
0.8          -0.42428     0.1982       -0.31799     -0.82071     -0.31799     -0.82071     -0.44681     0.14054      
0.81         -0.42262     0.20969      -0.33583     -0.81153     -0.33583     -0.81153     -0.44694     0.15139      
0.82         -0.4206      0.22116      -0.35339     -0.802       -0.35339     -0.802       -0.44676     0.16228      
0.83         -0.41824     0.23262      -0.37068     -0.79211     -0.37068     -0.79211     -0.44626     0.17319      
0.84         -0.41554     0.24404      -0.38767     -0.78187     -0.38767     -0.78187     -0.44546     0.18412      
0.85         -0.41248     0.25541      -0.40437     -0.7713      -0.40437     -0.7713      -0.44434     0.19506      
0.86         -0.40908     0.26673      -0.42077     -0.7604      -0.42077     -0.7604      -0.44292     0.206        
0.87         -0.40535     0.27799      -0.43687     -0.74919     -0.43687     -0.74919     -0.44118     0.21692      
0.88         -0.40127     0.28917      -0.45265     -0.73767     -0.45265     -0.73767     -0.43915     0.22783      
0.89         -0.39686     0.30026      -0.46813     -0.72584     -0.46813     -0.72584     -0.4368      0.23871      
0.9          -0.39212     0.31126      -0.48329     -0.71372     -0.48329     -0.71372     -0.43415     0.24955      
0.91         -0.38705     0.32215      -0.49813     -0.70132     -0.49813     -0.70132     -0.4312      0.26035      
0.92         -0.38165     0.33293      -0.51264     -0.68865     -0.51264     -0.68865     -0.42795     0.27109      
0.93         -0.37593     0.34358      -0.52683     -0.67571     -0.52683     -0.67571     -0.4244      0.28176      
0.94         -0.3699      0.3541       -0.54069     -0.66251     -0.54069     -0.66251     -0.42055     0.29237      
0.95         -0.36356     0.36447      -0.55421     -0.64906     -0.55421     -0.64906     -0.41641     0.3029       
0.96         -0.35691     0.37469      -0.56739     -0.63536     -0.56739     -0.63536     -0.41199     0.31334      
0.97         -0.34996     0.38475      -0.58023     -0.62144     -0.58023     -0.62144     -0.40727     0.32368      
0.98         -0.34271     0.39463      -0.59274     -0.60729     -0.59274     -0.60729     -0.40228     0.33392      
0.99         -0.33518     0.40434      -0.60489     -0.59292     -0.60489     -0.59292     -0.397       0.34405      
1            -0.32736     0.41386      -0.6167      -0.57835     -0.6167      -0.57835     -0.39145     0.35407      
1.01         -0.31926     0.42319      -0.62816     -0.56357     -0.62816     -0.56357     -0.38562     0.36395      
1.02         -0.31089     0.43232      -0.63927     -0.54861     -0.63927     -0.54861     -0.37953     0.3737       
1.03         -0.30225     0.44123      -0.65003     -0.53346     -0.65003     -0.53346     -0.37317     0.38332      
1.04         -0.29335     0.44992      -0.66043     -0.51813     -0.66043     -0.51813     -0.36656     0.39278      
1.05         -0.2842      0.4584       -0.67048     -0.50263     -0.67048     -0.50263     -0.35969     0.4021       
1.06         -0.27481     0.46664      -0.68017     -0.48697     -0.68017     -0.48697     -0.35257     0.41125      
1.07         -0.26518     0.47464      -0.68951     -0.47116     -0.68951     -0.47116     -0.3452      0.42023      
1.08         -0.25531     0.48239      -0.69848     -0.45521     -0.69848     -0.45521     -0.3376      0.42904      
1.09         -0.24522     0.4899       -0.7071      -0.43912     -0.7071      -0.43912     -0.32976     0.43768      
1.1          -0.23492     0.49715      -0.71535     -0.42289     -0.71535     -0.42289     -0.32169     0.44612      
1.11         -0.2244      0.50414      -0.72325     -0.40655     -0.72325     -0.40655     -0.3134      0.45438      
1.12         -0.21368     0.51085      -0.73078     -0.39009     -0.73078     -0.39009     -0.30488     0.46244      
1.13         -0.20277     0.5173       -0.73795     -0.37352     -0.73795     -0.37352     -0.29616     0.4703       
1.14         -0.19168     0.52347      -0.74476     -0.35685     -0.74476     -0.35685     -0.28722     0.47795      
1.15         -0.1804      0.52935      -0.75121     -0.34009     -0.75121     -0.34009     -0.27809     0.48539      
1.16         -0.16896     0.53495      -0.7573      -0.32324     -0.7573      -0.32324     -0.26876     0.49261      
1.17         -0.15736     0.54025      -0.76303     -0.30631     -0.76303     -0.30631     -0.25924     0.49961      
1.18         -0.1456      0.54526      -0.76839     -0.28931     -0.76839     -0.28931     -0.24953     0.50639      
1.19         -0.1337      0.54997      -0.7734      -0.27225     -0.7734      -0.27225     -0.23965     0.51293      
1.2          -0.12166     0.55438      -0.77804     -0.25513     -0.77804     -0.25513     -0.2296      0.51924      
1.21         -0.10949     0.55848      -0.78233     -0.23795     -0.78233     -0.23795     -0.21938     0.52531      
1.22         -0.097209    0.56227      -0.78625     -0.22073     -0.78625     -0.22073     -0.209       0.53114      
1.23         -0.084813    0.56574      -0.78982     -0.20347     -0.78982     -0.20347     -0.19847     0.53672      
1.24         -0.072316    0.56891      -0.79303     -0.18618     -0.79303     -0.18618     -0.1878      0.54204      
1.25         -0.059725    0.57175      -0.79588     -0.16887     -0.79588     -0.16887     -0.17699     0.54712      
1.26         -0.047049    0.57427      -0.79837     -0.15154     -0.79837     -0.15154     -0.16604     0.55194      
1.27         -0.034297    0.57648      -0.80052     -0.13419     -0.80052     -0.13419     -0.15497     0.5565       
1.28         -0.021478    0.57836      -0.8023      -0.11684     -0.8023      -0.11684     -0.14378     0.5608       
1.29         -0.008601    0.57991      -0.80374     -0.099488    -0.80374     -0.099488    -0.13248     0.56483      
1.3          0.0043259    0.58114      -0.80483     -0.082143    -0.80483     -0.082143    -0.12107     0.56859      
1.31         0.017294     0.58204      -0.80556     -0.064811    -0.80556     -0.064811    -0.10957     0.57208      
1.32         0.030293     0.58262      -0.80595     -0.047498    -0.80595     -0.047498    -0.097971    0.5753       
1.33         0.043316     0.58286      -0.80599     -0.030209    -0.80599     -0.030209    -0.08629     0.57825      
1.34         0.056354     0.58278      -0.80568     -0.012951    -0.80568     -0.012951    -0.074532    0.58092      
1.35         0.069397     0.58237      -0.80503     0.0042704    -0.80503     0.0042704    -0.062703    0.58332      
1.36         0.082438     0.58163      -0.80404     0.02145      -0.80404     0.02145      -0.050811    0.58543      
1.37         0.095467     0.58056      -0.80271     0.03858      -0.80271     0.03858      -0.038862    0.58726      
1.38         0.10848      0.57917      -0.80104     0.055657     -0.80104     0.055657     -0.026864    0.58881      
1.39         0.12146      0.57744      -0.79903     0.072675     -0.79903     0.072675     -0.014823    0.59008      
1.4          0.1344       0.5754       -0.79669     0.089627     -0.79669     0.089627     -0.0027476   0.59107      
1.41         0.14729      0.57302      -0.79402     0.10651      -0.79402     0.10651      0.0093566    0.59177      
1.42         0.16014      0.57033      -0.79101     0.12331      -0.79101     0.12331      0.021482     0.59219      
1.43         0.17291      0.56731      -0.78768     0.14004      -0.78768     0.14004      0.033622     0.59232      
1.44         0.18562      0.56397      -0.78402     0.15667      -0.78402     0.15667      0.045768     0.59217      
1.45         0.19825      0.56032      -0.78004     0.17322      -0.78004     0.17322      0.057915     0.59173      
1.46         0.21079      0.55635      -0.77573     0.18967      -0.77573     0.18967      0.070055     0.59101      
1.47         0.22323      0.55207      -0.7711      0.20601      -0.7711      0.20601      0.082181     0.59         
1.48         0.23557      0.54748      -0.76616     0.22224      -0.76616     0.22224      0.094286     0.58871      
1.49         0.2478       0.54258      -0.7609      0.23837      -0.7609      0.23837      0.10636      0.58713      
1.5          0.25991      0.53738      -0.75533     0.25437      -0.75533     0.25437      0.11841      0.58528      
1.51         0.27189      0.53187      -0.74944     0.27025      -0.74944     0.27025      0.13041      0.58314      
1.52         0.28373      0.52607      -0.74325     0.286        -0.74325     0.286        0.14236      0.58072      
1.53         0.29543      0.51998      -0.73676     0.30162      -0.73676     0.30162      0.15426      0.57802      
1.54         0.30698      0.51359      -0.72996     0.3171       -0.72996     0.3171       0.16609      0.57504      
1.55         0.31837      0.50692      -0.72286     0.33244      -0.72286     0.33244      0.17786      0.57179      
1.56         0.32959      0.49997      -0.71546     0.34762      -0.71546     0.34762      0.18955      0.56827      
1.57         0.34064      0.49275      -0.70777     0.36266      -0.70777     0.36266      0.20115      0.56447      
1.58         0.35151      0.48524      -0.69979     0.37754      -0.69979     0.37754      0.21267      0.5604       
1.59         0.3622       0.47748      -0.69152     0.39225      -0.69152     0.39225      0.22409      0.55606      
1.6          0.37269      0.46944      -0.68296     0.4068       -0.68296     0.4068       0.23541      0.55146      
1.61         0.38298      0.46116      -0.67412     0.42117      -0.67412     0.42117      0.24663      0.54659      
1.62         0.39306      0.45261      -0.665       0.43537      -0.665       0.43537      0.25772      0.54147      
1.63         0.40293      0.44383      -0.6556      0.44939      -0.6556      0.44939      0.2687       0.53609      
1.64         0.41257      0.4348       -0.64592     0.46322      -0.64592     0.46322      0.27954      0.53045      
1.65         0.42199      0.42553      -0.63598     0.47686      -0.63598     0.47686      0.29026      0.52456      
1.66         0.43118      0.41603      -0.62576     0.4903       -0.62576     0.4903       0.30083      0.51842      
1.67         0.44013      0.40631      -0.61528     0.50355      -0.61528     0.50355      0.31126      0.51204      
1.68         0.44883      0.39638      -0.60454     0.51659      -0.60454     0.51659      0.32153      0.50541      
1.69         0.45728      0.38623      -0.59354     0.52942      -0.59354     0.52942      0.33165      0.49855      
1.7          0.46548      0.37588      -0.58229     0.54205      -0.58229     0.54205      0.3416       0.49145      
1.71         0.47342      0.36532      -0.57078     0.55445      -0.57078     0.55445      0.35138      0.48413      
1.72         0.48109      0.35458      -0.55902     0.56663      -0.55902     0.56663      0.36099      0.47657      
1.73         0.48848      0.34365      -0.54702     0.57859      -0.54702     0.57859      0.37041      0.4688       
1.74         0.49561      0.33255      -0.53478     0.59031      -0.53478     0.59031      0.37965      0.46081      
1.75         0.50245      0.32128      -0.5223      0.6018       -0.5223      0.6018       0.3887       0.45261      
1.76         0.509        0.30984      -0.50958     0.61305      -0.50958     0.61305      0.39754      0.44419      
1.77         0.51527      0.29824      -0.49664     0.62406      -0.49664     0.62406      0.40619      0.43558      
1.78         0.52124      0.2865       -0.48346     0.63483      -0.48346     0.63483      0.41463      0.42677      
1.79         0.52692      0.27462      -0.47007     0.64534      -0.47007     0.64534      0.42285      0.41776      
1.8          0.53229      0.26261      -0.45645     0.65559      -0.45645     0.65559      0.43086      0.40856      
1.81         0.53736      0.25047      -0.44262     0.66558      -0.44262     0.66558      0.43864      0.39919      
1.82         0.54212      0.23822      -0.42857     0.67531      -0.42857     0.67531      0.4462       0.38963      
1.83         0.54656      0.22585      -0.41432     0.68478      -0.41432     0.68478      0.45352      0.3799       
1.84         0.5507       0.21339      -0.39987     0.69397      -0.39987     0.69397      0.46061      0.37001      
1.85         0.55451      0.20083      -0.38521     0.70288      -0.38521     0.70288      0.46746      0.35996      
1.86         0.558        0.18819      -0.37036     0.71151      -0.37036     0.71151      0.47406      0.34975      
1.87         0.56118      0.17548      -0.35532     0.71986      -0.35532     0.71986      0.48041      0.33939      
1.88         0.56402      0.16269      -0.34009     0.72792      -0.34009     0.72792      0.48651      0.32889      
1.89         0.56654      0.14985      -0.32467     0.73569      -0.32467     0.73569      0.49235      0.31825      
1.9          0.56873      0.13696      -0.30908     0.74316      -0.30908     0.74316      0.49793      0.30749      
1.91         0.57059      0.12403      -0.29332     0.75033      -0.29332     0.75033      0.50325      0.2966       
1.92         0.57212      0.11107      -0.27739     0.7572       -0.27739     0.7572       0.5083       0.28559      
1.93         0.57332      0.098082     -0.26129     0.76376      -0.26129     0.76376      0.51308      0.27448      
1.94         0.57418      0.085082     -0.24503     0.77         -0.24503     0.77         0.51758      0.26326      
1.95         0.57471      0.072076     -0.22862     0.77593      -0.22862     0.77593      0.52181      0.25194      
1.96         0.57491      0.059075     -0.21206     0.78154      -0.21206     0.78154      0.52575      0.24053      
1.97         0.57476      0.046086     -0.19535     0.78683      -0.19535     0.78683      0.52942      0.22905      
1.98         0.57429      0.033119     -0.1785      0.79179      -0.1785      0.79179      0.5328       0.21748      
1.99         0.57348      0.020184     -0.16152     0.79642      -0.16152     0.79642      0.53589      0.20585      
2            0.57234      0.0072886    -0.14441     0.80071      -0.14441     0.80071      0.53869      0.19416      
2.01         0.57086      -0.0055571   -0.12718     0.80466      -0.12718     0.80466      0.5412       0.18242      
2.02         0.56905      -0.018344    -0.10982     0.80827      -0.10982     0.80827      0.54342      0.17063      
2.03         0.56691      -0.031063    -0.092357    0.81154      -0.092357    0.81154      0.54534      0.1588       
2.04         0.56444      -0.043705    -0.074784    0.81445      -0.074784    0.81445      0.54697      0.14694      
2.05         0.56164      -0.056261    -0.057109    0.81702      -0.057109    0.81702      0.5483       0.13506      
2.06         0.55852      -0.068721    -0.039338    0.81922      -0.039338    0.81922      0.54933      0.12316      
2.07         0.55507      -0.081076    -0.021479    0.82107      -0.021479    0.82107      0.55006      0.11126      
2.08         0.55131      -0.093317    -0.0035352   0.82255      -0.0035352   0.82255      0.55049      0.099361     
2.09         0.54722      -0.10544     0.014485     0.82366      0.014485     0.82366      0.55062      0.08747      
2.1          0.54282      -0.11742     0.032577     0.82441      0.032577     0.82441      0.55044      0.075596     
2.11         0.53811      -0.12927     0.050733     0.82478      0.050733     0.82478      0.54997      0.063747     
2.12         0.53309      -0.14096     0.068947     0.82477      0.068947     0.82477      0.5492       0.051932     
2.13         0.52777      -0.1525      0.087212     0.82439      0.087212     0.82439      0.54812      0.040159     
2.14         0.52215      -0.16386     0.10552      0.82362      0.10552      0.82362      0.54675      0.028436     
2.15         0.51623      -0.17505     0.12387      0.82246      0.12387      0.82246      0.54508      0.016772     
