!freq-unit  param-type  data-format  keyword  impedance-ohms
# GHZ           S          RI           R         50
!-----------------------------------------------------------------------------
!Freq          ReS11        ImS11        ReS21        ImS21        ReS12        ImS12        ReS22        ImS22
0.5          -0.44197     -0.12727     0.25031      -0.84922     0.25031      -0.84922     -0.4408      -0.1313      
0.51         -0.4512      -0.11836     0.22917      -0.85159     0.22917      -0.85159     -0.45009     -0.12256     
0.52         -0.46014     -0.10909     0.20813      -0.85342     0.20813      -0.85342     -0.45909     -0.11346     
0.53         -0.46877     -0.099482    0.1872       -0.85472     0.1872       -0.85472     -0.46779     -0.10402     
0.54         -0.47708     -0.089546    0.1664       -0.8555      0.1664       -0.8555      -0.47619     -0.094253    
0.55         -0.48507     -0.079297    0.14574      -0.85577     0.14574      -0.85577     -0.48426     -0.084172    
0.56         -0.49272     -0.068747    0.12524      -0.85554     0.12524      -0.85554     -0.492       -0.073791    
0.57         -0.50003     -0.057911    0.10489      -0.85481     0.10489      -0.85481     -0.49941     -0.063123    
0.58         -0.50699     -0.046803    0.084722     -0.85361     0.084722     -0.85361     -0.50648     -0.052183    
0.59         -0.51359     -0.035437    0.064735     -0.85194     0.064735     -0.85194     -0.51319     -0.040983    
0.6          -0.51983     -0.023828    0.04494      -0.84981     0.04494      -0.84981     -0.51955     -0.029538    
0.61         -0.5257      -0.01199     0.025346     -0.84723     0.025346     -0.84723     -0.52555     -0.017863    
0.62         -0.5312      6.3507e-05   0.0059612    -0.84422     0.0059612    -0.84422     -0.53118     -0.0059704   
0.63         -0.53632     0.012318     -0.013206    -0.84079     -0.013206    -0.84079     -0.53643     0.0061252    
0.64         -0.54105     0.024759     -0.032149    -0.83694     -0.032149    -0.83694     -0.54132     0.01841      
0.65         -0.5454      0.037373     -0.050861    -0.83269     -0.050861    -0.83269     -0.54582     0.030871     
0.66         -0.54936     0.050146     -0.069335    -0.82805     -0.069335    -0.82805     -0.54994     0.043493     
0.67         -0.55293     0.063064     -0.087566    -0.82303     -0.087566    -0.82303     -0.55367     0.056264     
0.68         -0.5561      0.076113     -0.10555     -0.81764     -0.10555     -0.81764     -0.55702     0.06917      
0.69         -0.55888     0.089281     -0.12328     -0.8119      -0.12328     -0.8119      -0.55998     0.082197     
0.7          -0.56127     0.10255      -0.14074     -0.8058      -0.14074     -0.8058      -0.56255     0.095334     
0.71         -0.56326     0.11592      -0.15795     -0.79937     -0.15795     -0.79937     -0.56473     0.10857      
0.72         -0.56485     0.12936      -0.17489     -0.79261     -0.17489     -0.79261     -0.56653     0.12188      
0.73         -0.56605     0.14287      -0.19156     -0.78553     -0.19156     -0.78553     -0.56793     0.13527      
0.74         -0.56685     0.15643      -0.20796     -0.77814     -0.20796     -0.77814     -0.56894     0.14871      
0.75         -0.56726     0.17003      -0.22408     -0.77046     -0.22408     -0.77046     -0.56956     0.1622       
0.76         -0.56727     0.18366      -0.23992     -0.76249     -0.23992     -0.76249     -0.5698      0.17572      
0.77         -0.56689     0.19731      -0.25548     -0.75424     -0.25548     -0.75424     -0.56965     0.18927      
0.78         -0.56613     0.21097      -0.27075     -0.74573     -0.27075     -0.74573     -0.56911     0.20282      
0.79         -0.56497     0.22461      -0.28574     -0.73695     -0.28574     -0.73695     -0.56819     0.21638      
0.8          -0.56344     0.23824      -0.30045     -0.72793     -0.30045     -0.72793     -0.5669      0.22992      
0.81         -0.56152     0.25184      -0.31486     -0.71866     -0.31486     -0.71866     -0.56522     0.24344      
0.82         -0.55922     0.2654       -0.32899     -0.70917     -0.32899     -0.70917     -0.56318     0.25693      
0.83         -0.55655     0.27891      -0.34282     -0.69944     -0.34282     -0.69944     -0.56076     0.27038      
0.84         -0.5535      0.29236      -0.35637     -0.68951     -0.35637     -0.68951     -0.55798     0.28376      
0.85         -0.55009     0.30574      -0.36962     -0.67936     -0.36962     -0.67936     -0.55483     0.29709      
0.86         -0.54632     0.31903      -0.38259     -0.66902     -0.38259     -0.66902     -0.55132     0.31034      
0.87         -0.54219     0.33224      -0.39526     -0.65848     -0.39526     -0.65848     -0.54746     0.32351      
0.88         -0.5377      0.34535      -0.40764     -0.64776     -0.40764     -0.64776     -0.54325     0.33659      
0.89         -0.53286     0.35835      -0.41973     -0.63686     -0.41973     -0.63686     -0.53869     0.34956      
0.9          -0.52768     0.37123      -0.43152     -0.6258      -0.43152     -0.6258      -0.53379     0.36242      
0.91         -0.52216     0.38398      -0.44303     -0.61457     -0.44303     -0.61457     -0.52855     0.37517      
0.92         -0.5163      0.3966       -0.45424     -0.60319     -0.45424     -0.60319     -0.52298     0.38779      
0.93         -0.51012     0.40908      -0.46517     -0.59166     -0.46517     -0.59166     -0.51708     0.40027      
0.94         -0.50361     0.4214       -0.47581     -0.57999     -0.47581     -0.57999     -0.51086     0.41261      
0.95         -0.49678     0.43357      -0.48616     -0.56819     -0.48616     -0.56819     -0.50433     0.42479      
0.96         -0.48965     0.44556      -0.49622     -0.55625     -0.49622     -0.55625     -0.49749     0.43682      
0.97         -0.4822      0.45739      -0.506       -0.5442      -0.506       -0.5442      -0.49034     0.44869      
0.98         -0.47446     0.46903      -0.51549     -0.53203     -0.51549     -0.53203     -0.48289     0.46038      
0.99         -0.46642     0.48049      -0.52469     -0.51974     -0.52469     -0.51974     -0.47515     0.47189      
1            -0.45809     0.49175      -0.53362     -0.50736     -0.53362     -0.50736     -0.46712     0.48321      
1.01         -0.44948     0.50281      -0.54226     -0.49487     -0.54226     -0.49487     -0.45881     0.49434      
1.02         -0.4406      0.51366      -0.55062     -0.4823      -0.55062     -0.4823      -0.45022     0.50527      
1.03         -0.43145     0.5243       -0.55871     -0.46963     -0.55871     -0.46963     -0.44137     0.516        
1.04         -0.42203     0.53472      -0.56652     -0.45688     -0.56652     -0.45688     -0.43226     0.52652      
1.05         -0.41236     0.54492      -0.57405     -0.44406     -0.57405     -0.44406     -0.42288     0.53682      
1.06         -0.40244     0.55488      -0.58131     -0.43116     -0.58131     -0.43116     -0.41326     0.5469       
1.07         -0.39228     0.56461      -0.58829     -0.41819     -0.58829     -0.41819     -0.4034      0.55675      
1.08         -0.38188     0.5741       -0.59501     -0.40516     -0.59501     -0.40516     -0.3933      0.56637      
1.09         -0.37125     0.58335      -0.60145     -0.39208     -0.60145     -0.39208     -0.38297     0.57575      
1.1          -0.36041     0.59234      -0.60763     -0.37893     -0.60763     -0.37893     -0.37241     0.58489      
1.11         -0.34934     0.60108      -0.61354     -0.36574     -0.61354     -0.36574     -0.36164     0.59379      
1.12         -0.33807     0.60956      -0.61919     -0.35251     -0.61919     -0.35251     -0.35066     0.60243      
1.13         -0.3266      0.61778      -0.62457     -0.33923     -0.62457     -0.33923     -0.33947     0.61083      
1.14         -0.31493     0.62573      -0.62969     -0.32592     -0.62969     -0.32592     -0.32809     0.61896      
1.15         -0.30308     0.63341      -0.63455     -0.31257     -0.63455     -0.31257     -0.31652     0.62683      
1.16         -0.29105     0.64082      -0.63916     -0.29919     -0.63916     -0.29919     -0.30477     0.63444      
1.17         -0.27884     0.64795      -0.64351     -0.28579     -0.64351     -0.28579     -0.29284     0.64177      
1.18         -0.26647     0.65481      -0.6476      -0.27237     -0.6476      -0.27237     -0.28074     0.64884      
1.19         -0.25394     0.66137      -0.65144     -0.25893     -0.65144     -0.25893     -0.26848     0.65563      
1.2          -0.24125     0.66765      -0.65504     -0.24548     -0.65504     -0.24548     -0.25606     0.66214      
1.21         -0.22843     0.67365      -0.65838     -0.23201     -0.65838     -0.23201     -0.2435      0.66837      
1.22         -0.21546     0.67935      -0.66147     -0.21854     -0.66147     -0.21854     -0.23079     0.67432      
1.23         -0.20237     0.68476      -0.66432     -0.20506     -0.66432     -0.20506     -0.21795     0.67998      
1.24         -0.18915     0.68987      -0.66692     -0.19158     -0.66692     -0.19158     -0.20498     0.68536      
1.25         -0.17582     0.69468      -0.66928     -0.17811     -0.66928     -0.17811     -0.19189     0.69044      
1.26         -0.16237     0.6992       -0.6714      -0.16464     -0.6714      -0.16464     -0.17868     0.69524      
1.27         -0.14883     0.70341      -0.67328     -0.15117     -0.67328     -0.15117     -0.16537     0.69973      
1.28         -0.13519     0.70732      -0.67493     -0.13772     -0.67493     -0.13772     -0.15196     0.70394      
1.29         -0.12146     0.71093      -0.67633     -0.12429     -0.67633     -0.12429     -0.13846     0.70784      
1.3          -0.10766     0.71423      -0.67751     -0.11087     -0.67751     -0.11087     -0.12487     0.71145      
1.31         -0.093776    0.71722      -0.67845     -0.097471    -0.67845     -0.097471    -0.1112      0.71476      
1.32         -0.07983     0.71991      -0.67915     -0.084095    -0.67915     -0.084095    -0.097454    0.71776      
1.33         -0.065824    0.72229      -0.67963     -0.070745    -0.67963     -0.070745    -0.083646    0.72047      
1.34         -0.051766    0.72436      -0.67988     -0.057423    -0.67988     -0.057423    -0.069779    0.72287      
1.35         -0.037664    0.72612      -0.67991     -0.044132    -0.67991     -0.044132    -0.055859    0.72497      
1.36         -0.023523    0.72756      -0.6797      -0.030875    -0.6797      -0.030875    -0.041895    0.72676      
1.37         -0.0093506   0.7287       -0.67928     -0.017653    -0.67928     -0.017653    -0.027892    0.72825      
1.38         0.0048456    0.72953      -0.67863     -0.0044705   -0.67863     -0.0044705   -0.013858    0.72944      
1.39         0.019059     0.73005      -0.67776     0.0086714    -0.67776     0.0086714    0.00020159   0.73032      
1.4          0.033283     0.73025      -0.67668     0.02177      -0.67668     0.02177      0.014279     0.7309       
1.41         0.04751      0.73015      -0.67537     0.034822     -0.67537     0.034822     0.028368     0.73117      
1.42         0.061734     0.72973      -0.67385     0.047827     -0.67385     0.047827     0.042462     0.73114      
1.43         0.075948     0.72901      -0.67211     0.06078      -0.67211     0.06078      0.056553     0.7308       
1.44         0.090144     0.72798      -0.67016     0.073681     -0.67016     0.073681     0.070636     0.73016      
1.45         0.10432      0.72664      -0.668       0.086527     -0.668       0.086527     0.084704     0.72921      
1.46         0.11846      0.72499      -0.66562     0.099315     -0.66562     0.099315     0.098751     0.72797      
1.47         0.13256      0.72304      -0.66304     0.11204      -0.66304     0.11204      0.11277      0.72642      
1.48         0.14663      0.72078      -0.66025     0.12471      -0.66025     0.12471      0.12675      0.72457      
1.49         0.16064      0.71822      -0.65725     0.13731      -0.65725     0.13731      0.14069      0.72242      
1.5          0.17459      0.71536      -0.65404     0.14985      -0.65404     0.14985      0.15459      0.71997      
1.51         0.18848      0.71219      -0.65063     0.16232      -0.65063     0.16232      0.16843      0.71723      
1.52         0.2023       0.70873      -0.64702     0.17471      -0.64702     0.17471      0.18221      0.71419      
1.53         0.21605      0.70497      -0.6432      0.18704      -0.6432      0.18704      0.19592      0.71086      
1.54         0.22971      0.70092      -0.63918     0.19929      -0.63918     0.19929      0.20956      0.70723      
1.55         0.24328      0.69657      -0.63497     0.21146      -0.63497     0.21146      0.22312      0.70331      
1.56         0.25675      0.69193      -0.63055     0.22356      -0.63055     0.22356      0.2366       0.69911      
1.57         0.27013      0.687        -0.62594     0.23557      -0.62594     0.23557      0.24998      0.69462      
1.58         0.2834       0.68178      -0.62113     0.2475       -0.62113     0.2475       0.26326      0.68984      
1.59         0.29655      0.67628      -0.61612     0.25934      -0.61612     0.25934      0.27645      0.68478      
1.6          0.30958      0.6705       -0.61092     0.2711       -0.61092     0.2711       0.28952      0.67944      
1.61         0.32248      0.66444      -0.60553     0.28276      -0.60553     0.28276      0.30247      0.67382      
1.62         0.33526      0.6581       -0.59994     0.29434      -0.59994     0.29434      0.31531      0.66793      
1.63         0.34789      0.65149      -0.59417     0.30582      -0.59417     0.30582      0.32801      0.66176      
1.64         0.36038      0.64461      -0.5882      0.3172       -0.5882      0.3172       0.34058      0.65532      
1.65         0.37272      0.63747      -0.58205     0.32849      -0.58205     0.32849      0.35301      0.64862      
1.66         0.3849       0.63006      -0.5757      0.33968      -0.5757      0.33968      0.3653       0.64165      
1.67         0.39692      0.62238      -0.56917     0.35076      -0.56917     0.35076      0.37744      0.63442      
1.68         0.40878      0.61445      -0.56246     0.36174      -0.56246     0.36174      0.38942      0.62694      
1.69         0.42046      0.60627      -0.55556     0.37262      -0.55556     0.37262      0.40123      0.6192       
1.7          0.43196      0.59784      -0.54847     0.38338      -0.54847     0.38338      0.41288      0.61121      
1.71         0.44328      0.58916      -0.5412      0.39403      -0.5412      0.39403      0.42436      0.60297      
1.72         0.4544       0.58024      -0.53375     0.40458      -0.53375     0.40458      0.43565      0.59448      
1.73         0.46534      0.57108      -0.52612     0.415        -0.52612     0.415        0.44676      0.58576      
1.74         0.47607      0.56168      -0.51831     0.42531      -0.51831     0.42531      0.45769      0.5768       
1.75         0.48659      0.55206      -0.51032     0.4355       -0.51032     0.4355       0.46841      0.56761      
1.76         0.49691      0.54221      -0.50215     0.44556      -0.50215     0.44556      0.47894      0.55819      
1.77         0.50701      0.53214      -0.4938      0.45551      -0.4938      0.45551      0.48926      0.54854      
1.78         0.51689      0.52185      -0.48527     0.46532      -0.48527     0.46532      0.49938      0.53868      
1.79         0.52654      0.51135      -0.47657     0.47501      -0.47657     0.47501      0.50927      0.52859      
1.8          0.53596      0.50065      -0.4677      0.48456      -0.4677      0.48456      0.51895      0.5183       
1.81         0.54515      0.48974      -0.45865     0.49398      -0.45865     0.49398      0.5284       0.5078       
1.82         0.55409      0.47863      -0.44943     0.50327      -0.44943     0.50327      0.53763      0.4971       
1.83         0.56279      0.46733      -0.44003     0.51242      -0.44003     0.51242      0.54661      0.4862       
1.84         0.57124      0.45585      -0.43047     0.52142      -0.43047     0.52142      0.55536      0.47511      
1.85         0.57944      0.44418      -0.42073     0.53028      -0.42073     0.53028      0.56387      0.46383      
1.86         0.58737      0.43233      -0.41083     0.539        -0.41083     0.539        0.57212      0.45237      
1.87         0.59505      0.42032      -0.40075     0.54756      -0.40075     0.54756      0.58013      0.44073      
1.88         0.60245      0.40814      -0.39051     0.55598      -0.39051     0.55598      0.58787      0.42892      
1.89         0.60959      0.3958       -0.38011     0.56424      -0.38011     0.56424      0.59536      0.41695      
1.9          0.61645      0.3833       -0.36953     0.57235      -0.36953     0.57235      0.60258      0.40481      
1.91         0.62302      0.37066      -0.3588      0.58029      -0.3588      0.58029      0.60953      0.39252      
1.92         0.62932      0.35787      -0.3479      0.58807      -0.3479      0.58807      0.6162       0.38008      
1.93         0.63533      0.34495      -0.33683     0.59569      -0.33683     0.59569      0.6226       0.36749      
1.94         0.64105      0.3319       -0.32561     0.60314      -0.32561     0.60314      0.62872      0.35477      
1.95         0.64647      0.31872      -0.31422     0.61041      -0.31422     0.61041      0.63455      0.34191      
1.96         0.6516       0.30543      -0.30268     0.61752      -0.30268     0.61752      0.64009      0.32893      
1.97         0.65642      0.29203      -0.29098     0.62444      -0.29098     0.62444      0.64534      0.31583      
1.98         0.66094      0.27852      -0.27912     0.63119      -0.27912     0.63119      0.6503       0.30261      
1.99         0.66515      0.26492      -0.26711     0.63775      -0.26711     0.63775      0.65495      0.28929      
2            0.66905      0.25123      -0.25494     0.64413      -0.25494     0.64413      0.65931      0.27587      
2.01         0.67264      0.23745      -0.24262     0.65031      -0.24262     0.65031      0.66336      0.26236      
2.02         0.67591      0.2236       -0.23014     0.6563       -0.23014     0.6563       0.6671       0.24876      
2.03         0.67886      0.20968      -0.21752     0.6621       -0.21752     0.6621       0.67052      0.23508      
2.04         0.68149      0.19569      -0.20474     0.66769      -0.20474     0.66769      0.67364      0.22133      
2.05         0.6838       0.18166      -0.19182     0.67308      -0.19182     0.67308      0.67643      0.20751      
2.06         0.68578      0.16757      -0.17875     0.67826      -0.17875     0.67826      0.67891      0.19363      
2.07         0.68743      0.15345      -0.16554     0.68324      -0.16554     0.68324      0.68107      0.17971      
2.08         0.68875      0.13929      -0.15219     0.68799      -0.15219     0.68799      0.6829       0.16574      
2.09         0.68974      0.12512      -0.13869     0.69253      -0.13869     0.69253      0.68441      0.15173      
2.1          0.69039      0.11092      -0.12505     0.69685      -0.12505     0.69685      0.68558      0.1377       
2.11         0.69071      0.096719     -0.11128     0.70094      -0.11128     0.70094      0.68643      0.12364      
2.12         0.69069      0.082518     -0.09737     0.70479      -0.09737     0.70479      0.68695      0.10957      
2.13         0.69033      0.068325     -0.083327    0.70842      -0.083327    0.70842      0.68713      0.095503     
2.14         0.68964      0.054149     -0.069152    0.7118       -0.069152    0.7118       0.68698      0.081435     
2.15         0.6886       0.039998     -0.054848    0.71494      -0.054848    0.71494      0.6865       0.067378     
