!freq-unit  param-type  data-format  keyword  impedance-ohms
# GHZ           S          RI           R         50
!-----------------------------------------------------------------------------
!Freq          ReS11        ImS11        ReS21        ImS21        ReS12        ImS12        ReS22        ImS22
0.5          -0.19509     -0.1003      0.44665      -0.86493     0.44665      -0.86493     -0.19509     -0.1003      
0.51         -0.20064     -0.09774     0.42747      -0.87358     0.42747      -0.87358     -0.20064     -0.09774     
0.52         -0.20614     -0.094973    0.40813      -0.88178     0.40813      -0.88178     -0.20614     -0.094973    
0.53         -0.21158     -0.092004    0.38865      -0.88955     0.38865      -0.88955     -0.21158     -0.092004    
0.54         -0.21696     -0.088836    0.36903      -0.89688     0.36903      -0.89688     -0.21696     -0.088836    
0.55         -0.22227     -0.085472    0.34928      -0.90376     0.34928      -0.90376     -0.22227     -0.085472    
0.56         -0.22751     -0.081912    0.32943      -0.91019     0.32943      -0.91019     -0.22751     -0.081912    
0.57         -0.23267     -0.07816     0.30947      -0.91618     0.30947      -0.91618     -0.23267     -0.07816     
0.58         -0.23773     -0.074218    0.28941      -0.92172     0.28941      -0.92172     -0.23773     -0.074218    
0.59         -0.24271     -0.07009     0.26928      -0.92681     0.26928      -0.92681     -0.24271     -0.07009     
0.6          -0.24758     -0.065777    0.24907      -0.93145     0.24907      -0.93145     -0.24758     -0.065777    
0.61         -0.25235     -0.061284    0.2288       -0.93564     0.2288       -0.93564     -0.25235     -0.061284    
0.62         -0.25701     -0.056614    0.20848      -0.93938     0.20848      -0.93938     -0.25701     -0.056614    
0.63         -0.26155     -0.05177     0.18812      -0.94268     0.18812      -0.94268     -0.26155     -0.05177     
0.64         -0.26597     -0.046756    0.16773      -0.94553     0.16773      -0.94553     -0.26597     -0.046756    
0.65         -0.27026     -0.041576    0.14731      -0.94793     0.14731      -0.94793     -0.27026     -0.041576    
0.66         -0.27442     -0.036234    0.12689      -0.94988     0.12689      -0.94988     -0.27442     -0.036234    
0.67         -0.27844     -0.030734    0.10646      -0.95139     0.10646      -0.95139     -0.27844     -0.030734    
0.68         -0.28232     -0.02508     0.086043     -0.95245     0.086043     -0.95245     -0.28232     -0.02508     
0.69         -0.28605     -0.019278    0.065643     -0.95308     0.065643     -0.95308     -0.28605     -0.019278    
0.7          -0.28963     -0.01333     0.04527      -0.95326     0.04527      -0.95326     -0.28963     -0.01333     
0.71         -0.29305     -0.0072433   0.024935     -0.95301     0.024935     -0.95301     -0.29305     -0.0072433   
0.72         -0.29631     -0.001021    0.0046454    -0.95232     0.0046454    -0.95232     -0.29631     -0.001021    
0.73         -0.29941     0.0053313    -0.015588    -0.9512      -0.015588    -0.9512      -0.29941     0.0053313    
0.74         -0.30233     0.011809     -0.035756    -0.94965     -0.035756    -0.94965     -0.30233     0.011809     
0.75         -0.30509     0.018406     -0.055851    -0.94767     -0.055851    -0.94767     -0.30509     0.018406     
0.76         -0.30767     0.025118     -0.075862    -0.94527     -0.075862    -0.94527     -0.30767     0.025118     
0.77         -0.31007     0.03194      -0.095782    -0.94244     -0.095782    -0.94244     -0.31007     0.03194      
0.78         -0.31228     0.038865     -0.1156      -0.9392      -0.1156      -0.9392      -0.31228     0.038865     
0.79         -0.31431     0.045889     -0.13531     -0.93555     -0.13531     -0.93555     -0.31431     0.045889     
0.8          -0.31615     0.053006     -0.1549      -0.93148     -0.1549      -0.93148     -0.31615     0.053006     
0.81         -0.3178      0.060211     -0.17437     -0.92701     -0.17437     -0.92701     -0.3178      0.060211     
0.82         -0.31926     0.067497     -0.1937      -0.92214     -0.1937      -0.92214     -0.31926     0.067497     
0.83         -0.32052     0.074858     -0.2129      -0.91686     -0.2129      -0.91686     -0.32052     0.074858     
0.84         -0.32158     0.08229      -0.23194     -0.9112      -0.23194     -0.9112      -0.32158     0.08229      
0.85         -0.32243     0.089787     -0.25082     -0.90514     -0.25082     -0.90514     -0.32243     0.089787     
0.86         -0.32309     0.097341     -0.26954     -0.8987      -0.26954     -0.8987      -0.32309     0.097341     
0.87         -0.32354     0.10495      -0.28808     -0.89189     -0.28808     -0.89189     -0.32354     0.10495      
0.88         -0.32379     0.1126       -0.30645     -0.88469     -0.30645     -0.88469     -0.32379     0.1126       
0.89         -0.32383     0.1203       -0.32463     -0.87713     -0.32463     -0.87713     -0.32383     0.1203       
0.9          -0.32366     0.12802      -0.34261     -0.8692      -0.34261     -0.8692      -0.32366     0.12802      
0.91         -0.32328     0.13578      -0.36039     -0.86091     -0.36039     -0.86091     -0.32328     0.13578      
0.92         -0.32269     0.14356      -0.37797     -0.85227     -0.37797     -0.85227     -0.32269     0.14356      
0.93         -0.32189     0.15136      -0.39533     -0.84328     -0.39533     -0.84328     -0.32189     0.15136      
0.94         -0.32088     0.15917      -0.41247     -0.83394     -0.41247     -0.83394     -0.32088     0.15917      
0.95         -0.31966     0.16698      -0.42938     -0.82427     -0.42938     -0.82427     -0.31966     0.16698      
0.96         -0.31822     0.17479      -0.44606     -0.81427     -0.44606     -0.81427     -0.31822     0.17479      
0.97         -0.31657     0.18259      -0.4625      -0.80394     -0.4625      -0.80394     -0.31657     0.18259      
0.98         -0.31472     0.19038      -0.47869     -0.79329     -0.47869     -0.79329     -0.31472     0.19038      
0.99         -0.31265     0.19815      -0.49463     -0.78232     -0.49463     -0.78232     -0.31265     0.19815      
1            -0.31037     0.2059       -0.51032     -0.77105     -0.51032     -0.77105     -0.31037     0.2059       
1.01         -0.30788     0.21361      -0.52574     -0.75948     -0.52574     -0.75948     -0.30788     0.21361      
1.02         -0.30518     0.22129      -0.5409      -0.74761     -0.5409      -0.74761     -0.30518     0.22129      
1.03         -0.30228     0.22893      -0.55578     -0.73545     -0.55578     -0.73545     -0.30228     0.22893      
1.04         -0.29917     0.23651      -0.57039     -0.72301     -0.57039     -0.72301     -0.29917     0.23651      
1.05         -0.29585     0.24405      -0.58471     -0.7103      -0.58471     -0.7103      -0.29585     0.24405      
1.06         -0.29233     0.25152      -0.59875     -0.69731     -0.59875     -0.69731     -0.29233     0.25152      
1.07         -0.2886      0.25893      -0.61249     -0.68406     -0.61249     -0.68406     -0.2886      0.25893      
1.08         -0.28468     0.26626      -0.62594     -0.67055     -0.62594     -0.67055     -0.28468     0.26626      
1.09         -0.28056     0.27353      -0.63909     -0.6568      -0.63909     -0.6568      -0.28056     0.27353      
1.1          -0.27624     0.28071      -0.65194     -0.6428      -0.65194     -0.6428      -0.27624     0.28071      
1.11         -0.27173     0.2878       -0.66448     -0.62856     -0.66448     -0.62856     -0.27173     0.2878       
1.12         -0.26702     0.2948       -0.6767      -0.6141      -0.6767      -0.6141      -0.26702     0.2948       
1.13         -0.26213     0.3017       -0.68861     -0.59941     -0.68861     -0.59941     -0.26213     0.3017       
1.14         -0.25705     0.3085       -0.70021     -0.5845      -0.70021     -0.5845      -0.25705     0.3085       
1.15         -0.25178     0.3152       -0.71148     -0.56939     -0.71148     -0.56939     -0.25178     0.3152       
1.16         -0.24634     0.32178      -0.72242     -0.55407     -0.72242     -0.55407     -0.24634     0.32178      
1.17         -0.24071     0.32824      -0.73304     -0.53856     -0.73304     -0.53856     -0.24071     0.32824      
1.18         -0.23492     0.33459      -0.74332     -0.52286     -0.74332     -0.52286     -0.23492     0.33459      
1.19         -0.22895     0.3408       -0.75327     -0.50698     -0.75327     -0.50698     -0.22895     0.3408       
1.2          -0.22281     0.34689      -0.76289     -0.49092     -0.76289     -0.49092     -0.22281     0.34689      
1.21         -0.2165      0.35284      -0.77217     -0.4747      -0.77217     -0.4747      -0.2165      0.35284      
1.22         -0.21004     0.35865      -0.7811      -0.45831     -0.7811      -0.45831     -0.21004     0.35865      
1.23         -0.20342     0.36431      -0.78969     -0.44177     -0.78969     -0.44177     -0.20342     0.36431      
1.24         -0.19664     0.36983      -0.79793     -0.42509     -0.79793     -0.42509     -0.19664     0.36983      
1.25         -0.18972     0.3752       -0.80583     -0.40826     -0.80583     -0.40826     -0.18972     0.3752       
1.26         -0.18265     0.38041      -0.81338     -0.39131     -0.81338     -0.39131     -0.18265     0.38041      
1.27         -0.17543     0.38546      -0.82058     -0.37423     -0.82058     -0.37423     -0.17543     0.38546      
1.28         -0.16808     0.39034      -0.82742     -0.35703     -0.82742     -0.35703     -0.16808     0.39034      
1.29         -0.1606      0.39506      -0.83391     -0.33971     -0.83391     -0.33971     -0.1606      0.39506      
1.3          -0.15298     0.39961      -0.84005     -0.3223      -0.84005     -0.3223      -0.15298     0.39961      
1.31         -0.14525     0.40399      -0.84582     -0.30479     -0.84582     -0.30479     -0.14525     0.40399      
1.32         -0.13739     0.40818      -0.85124     -0.28718     -0.85124     -0.28718     -0.13739     0.40818      
1.33         -0.12941     0.4122       -0.85631     -0.2695      -0.85631     -0.2695      -0.12941     0.4122       
1.34         -0.12133     0.41603      -0.86101     -0.25173     -0.86101     -0.25173     -0.12133     0.41603      
1.35         -0.11314     0.41968      -0.86535     -0.2339      -0.86535     -0.2339      -0.11314     0.41968      
1.36         -0.10485     0.42314      -0.86934     -0.21601     -0.86934     -0.21601     -0.10485     0.42314      
1.37         -0.096456    0.42641      -0.87296     -0.19806     -0.87296     -0.19806     -0.096456    0.42641      
1.38         -0.087975    0.42948      -0.87622     -0.18006     -0.87622     -0.18006     -0.087975    0.42948      
1.39         -0.079408    0.43236      -0.87912     -0.16202     -0.87912     -0.16202     -0.079408    0.43236      
1.4          -0.070758    0.43504      -0.88166     -0.14395     -0.88166     -0.14395     -0.070758    0.43504      
1.41         -0.062032    0.43752      -0.88384     -0.12585     -0.88384     -0.12585     -0.062032    0.43752      
1.42         -0.053234    0.4398       -0.88566     -0.10772     -0.88566     -0.10772     -0.053234    0.4398       
1.43         -0.044369    0.44187      -0.88712     -0.089587    -0.88712     -0.089587    -0.044369    0.44187      
1.44         -0.035443    0.44374      -0.88821     -0.071443    -0.88821     -0.071443    -0.035443    0.44374      
1.45         -0.026461    0.4454       -0.88895     -0.053298    -0.88895     -0.053298    -0.026461    0.4454       
1.46         -0.017428    0.44685      -0.88933     -0.035159    -0.88933     -0.035159    -0.017428    0.44685      
1.47         -0.0083492   0.44809      -0.88935     -0.017032    -0.88935     -0.017032    -0.0083492   0.44809      
1.48         0.00076991   0.44912      -0.88902     0.0010744    -0.88902     0.0010744    0.00076991   0.44912      
1.49         0.0099241    0.44994      -0.88832     0.019155     -0.88832     0.019155     0.0099241    0.44994      
1.5          0.019108     0.45054      -0.88728     0.037204     -0.88728     0.037204     0.019108     0.45054      
1.51         0.028316     0.45093      -0.88587     0.055213     -0.88587     0.055213     0.028316     0.45093      
1.52         0.037544     0.45111      -0.88412     0.073177     -0.88412     0.073177     0.037544     0.45111      
1.53         0.046784     0.45107      -0.88201     0.091089     -0.88201     0.091089     0.046784     0.45107      
1.54         0.056034     0.45081      -0.87956     0.10894      -0.87956     0.10894      0.056034     0.45081      
1.55         0.065286     0.45034      -0.87676     0.12673      -0.87676     0.12673      0.065286     0.45034      
1.56         0.074535     0.44966      -0.87361     0.14445      -0.87361     0.14445      0.074535     0.44966      
1.57         0.083777     0.44876      -0.87011     0.16209      -0.87011     0.16209      0.083777     0.44876      
1.58         0.093006     0.44764      -0.86627     0.17965      -0.86627     0.17965      0.093006     0.44764      
1.59         0.10222      0.44631      -0.8621      0.19711      -0.8621      0.19711      0.10222      0.44631      
1.6          0.1114       0.44476      -0.85758     0.21449      -0.85758     0.21449      0.1114       0.44476      
1.61         0.12056      0.443        -0.85273     0.23176      -0.85273     0.23176      0.12056      0.443        
1.62         0.12968      0.44103      -0.84754     0.24892      -0.84754     0.24892      0.12968      0.44103      
1.63         0.13876      0.43884      -0.84202     0.26596      -0.84202     0.26596      0.13876      0.43884      
1.64         0.1478       0.43645      -0.83617     0.28289      -0.83617     0.28289      0.1478       0.43645      
1.65         0.15679      0.43384      -0.83        0.29969      -0.83        0.29969      0.15679      0.43384      
1.66         0.16572      0.43102      -0.8235      0.31637      -0.8235      0.31637      0.16572      0.43102      
1.67         0.17459      0.428        -0.81668     0.3329       -0.81668     0.3329       0.17459      0.428        
1.68         0.18339      0.42477      -0.80954     0.34929      -0.80954     0.34929      0.18339      0.42477      
1.69         0.19212      0.42133      -0.80208     0.36553      -0.80208     0.36553      0.19212      0.42133      
1.7          0.20078      0.4177       -0.79431     0.38162      -0.79431     0.38162      0.20078      0.4177       
1.71         0.20936      0.41386      -0.78624     0.39754      -0.78624     0.39754      0.20936      0.41386      
1.72         0.21785      0.40982      -0.77785     0.41331      -0.77785     0.41331      0.21785      0.40982      
1.73         0.22624      0.40559      -0.76916     0.4289       -0.76916     0.4289       0.22624      0.40559      
1.74         0.23455      0.40116      -0.76017     0.44431      -0.76017     0.44431      0.23455      0.40116      
1.75         0.24275      0.39654      -0.75089     0.45954      -0.75089     0.45954      0.24275      0.39654      
1.76         0.25085      0.39173      -0.74131     0.47459      -0.74131     0.47459      0.25085      0.39173      
1.77         0.25883      0.38673      -0.73144     0.48944      -0.73144     0.48944      0.25883      0.38673      
1.78         0.2667       0.38155      -0.72129     0.5041       -0.72129     0.5041       0.2667       0.38155      
1.79         0.27446      0.37618      -0.71085     0.51856      -0.71085     0.51856      0.27446      0.37618      
1.8          0.28208      0.37064      -0.70014     0.5328       -0.70014     0.5328       0.28208      0.37064      
1.81         0.28958      0.36492      -0.68915     0.54684      -0.68915     0.54684      0.28958      0.36492      
1.82         0.29695      0.35903      -0.67789     0.56066      -0.67789     0.56066      0.29695      0.35903      
1.83         0.30418      0.35297      -0.66636     0.57425      -0.66636     0.57425      0.30418      0.35297      
1.84         0.31127      0.34675      -0.65457     0.58762      -0.65457     0.58762      0.31127      0.34675      
1.85         0.31822      0.34036      -0.64252     0.60076      -0.64252     0.60076      0.31822      0.34036      
1.86         0.32501      0.33381      -0.63022     0.61366      -0.63022     0.61366      0.32501      0.33381      
1.87         0.33165      0.32711      -0.61767     0.62633      -0.61767     0.62633      0.33165      0.32711      
1.88         0.33814      0.32026      -0.60487     0.63874      -0.60487     0.63874      0.33814      0.32026      
1.89         0.34446      0.31326      -0.59182     0.65091      -0.59182     0.65091      0.34446      0.31326      
1.9          0.35062      0.30611      -0.57855     0.66282      -0.57855     0.66282      0.35062      0.30611      
1.91         0.35661      0.29883      -0.56504     0.67448      -0.56504     0.67448      0.35661      0.29883      
1.92         0.36243      0.29141      -0.5513      0.68587      -0.5513      0.68587      0.36243      0.29141      
1.93         0.36808      0.28386      -0.53733     0.69699      -0.53733     0.69699      0.36808      0.28386      
1.94         0.37354      0.27619      -0.52315     0.70785      -0.52315     0.70785      0.37354      0.27619      
1.95         0.37883      0.26839      -0.50876     0.71843      -0.50876     0.71843      0.37883      0.26839      
1.96         0.38393      0.26047      -0.49416     0.72873      -0.49416     0.72873      0.38393      0.26047      
1.97         0.38884      0.25245      -0.47935     0.73875      -0.47935     0.73875      0.38884      0.25245      
1.98         0.39357      0.24431      -0.46434     0.74848      -0.46434     0.74848      0.39357      0.24431      
1.99         0.3981       0.23607      -0.44914     0.75792      -0.44914     0.75792      0.3981       0.23607      
2            0.40243      0.22773      -0.43376     0.76707      -0.43376     0.76707      0.40243      0.22773      
2.01         0.40657      0.21929      -0.41818     0.77592      -0.41818     0.77592      0.40657      0.21929      
2.02         0.41051      0.21077      -0.40243     0.78446      -0.40243     0.78446      0.41051      0.21077      
2.03         0.41424      0.20216      -0.38651     0.79271      -0.38651     0.79271      0.41424      0.20216      
2.04         0.41777      0.19348      -0.37042     0.80064      -0.37042     0.80064      0.41777      0.19348      
2.05         0.4211       0.18472      -0.35416     0.80827      -0.35416     0.80827      0.4211       0.18472      
2.06         0.42421      0.17589      -0.33775     0.81558      -0.33775     0.81558      0.42421      0.17589      
2.07         0.42712      0.167        -0.32119     0.82257      -0.32119     0.82257      0.42712      0.167        
2.08         0.42981      0.15805      -0.30448     0.82924      -0.30448     0.82924      0.42981      0.15805      
2.09         0.43229      0.14904      -0.28764     0.83559      -0.28764     0.83559      0.43229      0.14904      
2.1          0.43455      0.13999      -0.27065     0.84161      -0.27065     0.84161      0.43455      0.13999      
2.11         0.4366       0.1309       -0.25354     0.84731      -0.25354     0.84731      0.4366       0.1309       
2.12         0.43843      0.12177      -0.23631     0.85267      -0.23631     0.85267      0.43843      0.12177      
2.13         0.44004      0.11261      -0.21896     0.85769      -0.21896     0.85769      0.44004      0.11261      
2.14         0.44143      0.10342      -0.2015      0.86238      -0.2015      0.86238      0.44143      0.10342      
2.15         0.44261      0.094216     -0.18393     0.86672      -0.18393     0.86672      0.44261      0.094216     
