!freq-unit  param-type  data-format  keyword  impedance-ohms
# GHZ           S          RI           R         50
!-----------------------------------------------------------------------------
!Freq          ReS11        ImS11        ReS21        ImS21        ReS12        ImS12        ReS22        ImS22
0.5          -0.46064     -0.00799     0.22045      -0.85685     0.22045      -0.85685     -0.4084      -0.21416     
0.51         -0.46704     0.0054622    0.19878      -0.85868     0.19878      -0.85868     -0.41823     -0.20897     
0.52         -0.47293     0.019234     0.17723      -0.85995     0.17723      -0.85995     -0.42788     -0.20346     
0.53         -0.4783      0.033302     0.15581      -0.86067     0.15581      -0.86067     -0.43734     -0.19766     
0.54         -0.48313     0.047643     0.13453      -0.86086     0.13453      -0.86086     -0.44662     -0.19155     
0.55         -0.48742     0.062234     0.11342      -0.86052     0.11342      -0.86052     -0.4557      -0.18516     
0.56         -0.49116     0.07705      0.092471     -0.85967     0.092471     -0.85967     -0.46457     -0.17848     
0.57         -0.49434     0.092069     0.071704     -0.85833     0.071704     -0.85833     -0.47323     -0.17154     
0.58         -0.49696     0.10727      0.051129     -0.85649     0.051129     -0.85649     -0.48168     -0.16434     
0.59         -0.49902     0.12262      0.030753     -0.85418     0.030753     -0.85418     -0.4899      -0.15689     
0.6          -0.5005      0.13811      0.010586     -0.85141     0.010586     -0.85141     -0.49789     -0.1492      
0.61         -0.50142     0.1537       -0.0093625   -0.84818     -0.0093625   -0.84818     -0.50565     -0.14127     
0.62         -0.50176     0.16938      -0.029086    -0.84451     -0.029086    -0.84451     -0.51317     -0.13313     
0.63         -0.50153     0.18513      -0.048576    -0.84041     -0.048576    -0.84041     -0.52045     -0.12477     
0.64         -0.50072     0.20091      -0.067827    -0.8359      -0.067827    -0.8359      -0.52748     -0.1162      
0.65         -0.49935     0.21672      -0.086831    -0.83097     -0.086831    -0.83097     -0.53427     -0.10745     
0.66         -0.49741     0.23253      -0.10558     -0.82565     -0.10558     -0.82565     -0.5408      -0.098505    
0.67         -0.4949      0.24831      -0.12408     -0.81995     -0.12408     -0.81995     -0.54708     -0.089386    
0.68         -0.49182     0.26404      -0.14231     -0.81387     -0.14231     -0.81387     -0.5531      -0.0801      
0.69         -0.48819     0.27972      -0.16027     -0.80743     -0.16027     -0.80743     -0.55886     -0.070656    
0.7          -0.48401     0.2953       -0.17796     -0.80064     -0.17796     -0.80064     -0.56436     -0.061062    
0.71         -0.47927     0.31079      -0.19538     -0.79351     -0.19538     -0.79351     -0.56959     -0.051327    
0.72         -0.474       0.32615      -0.21252     -0.78605     -0.21252     -0.78605     -0.57457     -0.041459    
0.73         -0.46819     0.34136      -0.22937     -0.77827     -0.22937     -0.77827     -0.57927     -0.031467    
0.74         -0.46186     0.35642      -0.24594     -0.77018     -0.24594     -0.77018     -0.58372     -0.021358    
0.75         -0.45501     0.37129      -0.26222     -0.76178     -0.26222     -0.76178     -0.58789     -0.011142    
0.76         -0.44764     0.38597      -0.27821     -0.7531      -0.27821     -0.7531      -0.5918      -0.00082508  
0.77         -0.43978     0.40043      -0.29391     -0.74414     -0.29391     -0.74414     -0.59544     0.009584     
0.78         -0.43142     0.41467      -0.30932     -0.73491     -0.30932     -0.73491     -0.59881     0.020078     
0.79         -0.42258     0.42865      -0.32443     -0.72542     -0.32443     -0.72542     -0.60192     0.030649     
0.8          -0.41328     0.44238      -0.33924     -0.71567     -0.33924     -0.71567     -0.60476     0.041289     
0.81         -0.40351     0.45583      -0.35375     -0.70568     -0.35375     -0.70568     -0.60734     0.051993     
0.82         -0.39329     0.46899      -0.36797     -0.69546     -0.36797     -0.69546     -0.60965     0.062752     
0.83         -0.38264     0.48184      -0.38189     -0.685       -0.38189     -0.685       -0.6117      0.073559     
0.84         -0.37156     0.49438      -0.3955      -0.67433     -0.3955      -0.67433     -0.61348     0.084408     
0.85         -0.36006     0.50658      -0.40882     -0.66345     -0.40882     -0.66345     -0.615       0.095292     
0.86         -0.34817     0.51844      -0.42184     -0.65237     -0.42184     -0.65237     -0.61626     0.1062       
0.87         -0.33589     0.52995      -0.43455     -0.64109     -0.43455     -0.64109     -0.61726     0.11714      
0.88         -0.32323     0.54108      -0.44697     -0.62963     -0.44697     -0.62963     -0.61801     0.12809      
0.89         -0.31021     0.55184      -0.45908     -0.61799     -0.45908     -0.61799     -0.61849     0.13905      
0.9          -0.29685     0.56221      -0.4709      -0.60617     -0.4709      -0.60617     -0.61873     0.15002      
0.91         -0.28315     0.57219      -0.48241     -0.59419     -0.48241     -0.59419     -0.61871     0.16098      
0.92         -0.26913     0.58175      -0.49363     -0.58204     -0.49363     -0.58204     -0.61844     0.17193      
0.93         -0.2548      0.5909       -0.50455     -0.56975     -0.50455     -0.56975     -0.61792     0.18287      
0.94         -0.24018     0.59963      -0.51517     -0.55731     -0.51517     -0.55731     -0.61715     0.1938       
0.95         -0.22528     0.60792      -0.5255      -0.54473     -0.5255      -0.54473     -0.61614     0.20469      
0.96         -0.21013     0.61577      -0.53553     -0.53202     -0.53553     -0.53202     -0.61489     0.21556      
0.97         -0.19472     0.62318      -0.54527     -0.51918     -0.54527     -0.51918     -0.6134      0.2264       
0.98         -0.17907     0.63013      -0.55471     -0.50622     -0.55471     -0.50622     -0.61166     0.23719      
0.99         -0.16321     0.63662      -0.56386     -0.49314     -0.56386     -0.49314     -0.6097      0.24794      
1            -0.14715     0.64265      -0.57272     -0.47995     -0.57272     -0.47995     -0.6075      0.25864      
1.01         -0.13089     0.64821      -0.58129     -0.46666     -0.58129     -0.46666     -0.60507     0.26929      
1.02         -0.11446     0.6533       -0.58957     -0.45327     -0.58957     -0.45327     -0.60241     0.27988      
1.03         -0.097871    0.65791      -0.59756     -0.43978     -0.59756     -0.43978     -0.59952     0.29041      
1.04         -0.081137    0.66204      -0.60526     -0.4262      -0.60526     -0.4262      -0.59642     0.30086      
1.05         -0.064272    0.66568      -0.61268     -0.41254     -0.61268     -0.41254     -0.59309     0.31125      
1.06         -0.047293    0.66883      -0.61982     -0.3988      -0.61982     -0.3988      -0.58954     0.32156      
1.07         -0.030213    0.6715       -0.62667     -0.38499     -0.62667     -0.38499     -0.58578     0.33179      
1.08         -0.013049    0.67367      -0.63324     -0.3711      -0.63324     -0.3711      -0.58181     0.34194      
1.09         0.0041857    0.67536      -0.63953     -0.35715     -0.63953     -0.35715     -0.57763     0.352        
1.1          0.021476     0.67654      -0.64555     -0.34314     -0.64555     -0.34314     -0.57324     0.36197      
1.11         0.038806     0.67724      -0.65128     -0.32906     -0.65128     -0.32906     -0.56864     0.37185      
1.12         0.056163     0.67744      -0.65674     -0.31494     -0.65674     -0.31494     -0.56385     0.38162      
1.13         0.073531     0.67715      -0.66193     -0.30076     -0.66193     -0.30076     -0.55885     0.39129      
1.14         0.090895     0.67636      -0.66684     -0.28654     -0.66684     -0.28654     -0.55366     0.40086      
1.15         0.10824      0.67508      -0.67147     -0.27228     -0.67147     -0.27228     -0.54828     0.41032      
1.16         0.12556      0.67331      -0.67584     -0.25798     -0.67584     -0.25798     -0.54271     0.41966      
1.17         0.14282      0.67105      -0.67994     -0.24364     -0.67994     -0.24364     -0.53695     0.42889      
1.18         0.16003      0.66831      -0.68377     -0.22928     -0.68377     -0.22928     -0.53101     0.438        
1.19         0.17717      0.66508      -0.68733     -0.21488     -0.68733     -0.21488     -0.52488     0.44698      
1.2          0.19421      0.66137      -0.69062     -0.20046     -0.69062     -0.20046     -0.51858     0.45584      
1.21         0.21115      0.65718      -0.69365     -0.18603     -0.69365     -0.18603     -0.5121      0.46458      
1.22         0.22798      0.65252      -0.69642     -0.17157     -0.69642     -0.17157     -0.50545     0.47318      
1.23         0.24468      0.64739      -0.69892     -0.1571      -0.69892     -0.1571      -0.49864     0.48164      
1.24         0.26123      0.6418       -0.70117     -0.14262     -0.70117     -0.14262     -0.49165     0.48997      
1.25         0.27763      0.63574      -0.70315     -0.12813     -0.70315     -0.12813     -0.4845      0.49816      
1.26         0.29387      0.62923      -0.70487     -0.11364     -0.70487     -0.11364     -0.4772      0.5062       
1.27         0.30992      0.62227      -0.70634     -0.09915     -0.70634     -0.09915     -0.46973     0.5141       
1.28         0.32577      0.61487      -0.70754     -0.084658    -0.70754     -0.084658    -0.46211     0.52185      
1.29         0.34142      0.60703      -0.7085      -0.07017     -0.7085      -0.07017     -0.45434     0.52945      
1.3          0.35685      0.59875      -0.70919     -0.055691    -0.70919     -0.055691    -0.44643     0.5369       
1.31         0.37205      0.59005      -0.70963     -0.041221    -0.70963     -0.041221    -0.43837     0.54419      
1.32         0.38701      0.58094      -0.70982     -0.026765    -0.70982     -0.026765    -0.43016     0.55132      
1.33         0.40172      0.57141      -0.70976     -0.012324    -0.70976     -0.012324    -0.42182     0.55829      
1.34         0.41615      0.56148      -0.70944     0.0020973    -0.70944     0.0020973    -0.41335     0.5651       
1.35         0.43032      0.55115      -0.70887     0.016497     -0.70887     0.016497     -0.40474     0.57174      
1.36         0.44419      0.54044      -0.70805     0.030873     -0.70805     0.030873     -0.396       0.57822      
1.37         0.45777      0.52935      -0.70699     0.045222     -0.70699     0.045222     -0.38714     0.58452      
1.38         0.47104      0.51789      -0.70567     0.059541     -0.70567     0.059541     -0.37816     0.59065      
1.39         0.48399      0.50606      -0.7041      0.073827     -0.7041      0.073827     -0.36906     0.59661      
1.4          0.49661      0.49389      -0.70229     0.088078     -0.70229     0.088078     -0.35984     0.60239      
1.41         0.50889      0.48137      -0.70023     0.10229      -0.70023     0.10229      -0.35051     0.60799      
1.42         0.52082      0.46852      -0.69793     0.11646      -0.69793     0.11646      -0.34107     0.61341      
1.43         0.5324       0.45535      -0.69538     0.13059      -0.69538     0.13059      -0.33153     0.61864      
1.44         0.54361      0.44187      -0.69258     0.14468      -0.69258     0.14468      -0.32188     0.62369      
1.45         0.55444      0.42808      -0.68954     0.15871      -0.68954     0.15871      -0.31214     0.62856      
1.46         0.5649       0.41401      -0.68626     0.1727       -0.68626     0.1727       -0.3023      0.63323      
1.47         0.57496      0.39965      -0.68273     0.18663      -0.68273     0.18663      -0.29236     0.63772      
1.48         0.58462      0.38503      -0.67895     0.2005       -0.67895     0.2005       -0.28234     0.64201      
1.49         0.59387      0.37014      -0.67494     0.21431      -0.67494     0.21431      -0.27224     0.64611      
1.5          0.60271      0.35501      -0.67068     0.22807      -0.67068     0.22807      -0.26206     0.65001      
1.51         0.61113      0.33965      -0.66618     0.24175      -0.66618     0.24175      -0.25179     0.65371      
1.52         0.61913      0.32406      -0.66143     0.25537      -0.66143     0.25537      -0.24146     0.65721      
1.53         0.62669      0.30826      -0.65645     0.26892      -0.65645     0.26892      -0.23105     0.66051      
1.54         0.6338       0.29226      -0.65122     0.2824       -0.65122     0.2824       -0.22058     0.66361      
1.55         0.64048      0.27608      -0.64575     0.29579      -0.64575     0.29579      -0.21004     0.6665       
1.56         0.6467       0.25972      -0.64004     0.30911      -0.64004     0.30911      -0.19945     0.66919      
1.57         0.65247      0.2432       -0.63409     0.32235      -0.63409     0.32235      -0.1888      0.67166      
1.58         0.65777      0.22653      -0.62789     0.3355       -0.62789     0.3355       -0.1781      0.67393      
1.59         0.66261      0.20973      -0.62146     0.34857      -0.62146     0.34857      -0.16735     0.67599      
1.6          0.66698      0.19281      -0.61478     0.36154      -0.61478     0.36154      -0.15656     0.67783      
1.61         0.67088      0.17578      -0.60786     0.37442      -0.60786     0.37442      -0.14573     0.67947      
1.62         0.6743       0.15865      -0.60071     0.3872       -0.60071     0.3872       -0.13486     0.68088      
1.63         0.67724      0.14144      -0.59331     0.39988      -0.59331     0.39988      -0.12396     0.68208      
1.64         0.6797       0.12416      -0.58567     0.41246      -0.58567     0.41246      -0.11304     0.68306      
1.65         0.68167      0.10683      -0.57779     0.42492      -0.57779     0.42492      -0.10209     0.68382      
1.66         0.68316      0.089463     -0.56966     0.43728      -0.56966     0.43728      -0.091124    0.68437      
1.67         0.68416      0.072066     -0.5613      0.44952      -0.5613      0.44952      -0.080143    0.68469      
1.68         0.68467      0.054658     -0.5527      0.46165      -0.5527      0.46165      -0.069152    0.68478      
1.69         0.68469      0.037252     -0.54385     0.47365      -0.54385     0.47365      -0.058156    0.68466      
1.7          0.68422      0.019862     -0.53477     0.48553      -0.53477     0.48553      -0.047158    0.68431      
1.71         0.68326      0.0025022    -0.52544     0.49728      -0.52544     0.49728      -0.036164    0.68373      
1.72         0.68181      -0.014812    -0.51587     0.50889      -0.51587     0.50889      -0.025178    0.68293      
1.73         0.67987      -0.032067    -0.50606     0.52037      -0.50606     0.52037      -0.014204    0.6819       
1.74         0.67743      -0.049248    -0.49602     0.53171      -0.49602     0.53171      -0.0032475   0.68065      
1.75         0.67452      -0.06634     -0.48572     0.5429       -0.48572     0.5429       0.0076871    0.67916      
1.76         0.67111      -0.08333     -0.47519     0.55394      -0.47519     0.55394      0.018595     0.67745      
1.77         0.66723      -0.1002      -0.46442     0.56483      -0.46442     0.56483      0.029471     0.6755       
1.78         0.66286      -0.11694     -0.45341     0.57555      -0.45341     0.57555      0.04031      0.67333      
1.79         0.65801      -0.13354     -0.44215     0.58612      -0.44215     0.58612      0.051107     0.67092      
1.8          0.65269      -0.14997     -0.43066     0.59652      -0.43066     0.59652      0.061858     0.66829      
1.81         0.64691      -0.16623     -0.41892     0.60674      -0.41892     0.60674      0.072557     0.66542      
1.82         0.64065      -0.18229     -0.40695     0.61679      -0.40695     0.61679      0.083198     0.66232      
1.83         0.63394      -0.19815     -0.39473     0.62666      -0.39473     0.62666      0.093776     0.65899      
1.84         0.62677      -0.2138      -0.38228     0.63633      -0.38228     0.63633      0.10429      0.65543      
1.85         0.61915      -0.22921     -0.36959     0.64582      -0.36959     0.64582      0.11472      0.65164      
1.86         0.61109      -0.24437     -0.35666     0.6551       -0.35666     0.6551       0.12508      0.64762      
1.87         0.60259      -0.25927     -0.34349     0.66418      -0.34349     0.66418      0.13536      0.64336      
1.88         0.59366      -0.27389     -0.33008     0.67305      -0.33008     0.67305      0.14554      0.63888      
1.89         0.58431      -0.28823     -0.31644     0.68171      -0.31644     0.68171      0.15563      0.63416      
1.9          0.57454      -0.30226     -0.30256     0.69014      -0.30256     0.69014      0.16561      0.62922      
1.91         0.56437      -0.31597     -0.28845     0.69835      -0.28845     0.69835      0.17549      0.62405      
1.92         0.55381      -0.32935     -0.2741      0.70632      -0.2741      0.70632      0.18525      0.61865      
1.93         0.54285      -0.34239     -0.25952     0.71405      -0.25952     0.71405      0.19489      0.61302      
1.94         0.53152      -0.35507     -0.24471     0.72153      -0.24471     0.72153      0.20441      0.60717      
1.95         0.51982      -0.36738     -0.22968     0.72876      -0.22968     0.72876      0.21379      0.6011       
1.96         0.50777      -0.37931     -0.21441     0.73573      -0.21441     0.73573      0.22304      0.5948       
1.97         0.49537      -0.39083     -0.19892     0.74243      -0.19892     0.74243      0.23214      0.58828      
1.98         0.48264      -0.40196     -0.1832      0.74886      -0.1832      0.74886      0.24109      0.58155      
1.99         0.46959      -0.41266     -0.16726     0.75501      -0.16726     0.75501      0.24988      0.5746       
2            0.45623      -0.42292     -0.1511      0.76086      -0.1511      0.76086      0.2585       0.56743      
2.01         0.44258      -0.43275     -0.13472     0.76642      -0.13472     0.76642      0.26696      0.56005      
2.02         0.42865      -0.44211     -0.11813     0.77167      -0.11813     0.77167      0.27524      0.55246      
2.03         0.41446      -0.45101     -0.10133     0.77661      -0.10133     0.77661      0.28333      0.54467      
2.04         0.40001      -0.45944     -0.084322    0.78123      -0.084322    0.78123      0.29123      0.53667      
2.05         0.38533      -0.46738     -0.067107    0.78552      -0.067107    0.78552      0.29893      0.52847      
2.06         0.37042      -0.47482     -0.049691    0.78947      -0.049691    0.78947      0.30643      0.52008      
2.07         0.35532      -0.48176     -0.032078    0.79308      -0.032078    0.79308      0.31371      0.51149      
2.08         0.34003      -0.48818     -0.014272    0.79633      -0.014272    0.79633      0.32078      0.50271      
2.09         0.32457      -0.49408     0.0037218    0.79922      0.0037218    0.79922      0.32762      0.49375      
2.1          0.30896      -0.49945     0.021899     0.80174      0.021899     0.80174      0.33422      0.48461      
2.11         0.29321      -0.50428     0.040254     0.80387      0.040254     0.80387      0.34059      0.47529      
2.12         0.27735      -0.50856     0.058781     0.80562      0.058781     0.80562      0.34671      0.4658       
2.13         0.2614       -0.5123      0.077474     0.80696      0.077474     0.80696      0.35257      0.45615      
2.14         0.24537      -0.51548     0.096327     0.8079       0.096327     0.8079       0.35818      0.44633      
2.15         0.22929      -0.5181      0.11533      0.80842      0.11533      0.80842      0.36351      0.43637      
