!freq-unit  param-type  data-format  keyword  impedance-ohms
# GHZ           S          RI           R         50
!-----------------------------------------------------------------------------
!Freq          ReS11        ImS11        ReS21        ImS21        ReS12        ImS12        ReS22        ImS22
0.5          -0.46484     -0.05716     0.25825      -0.84218     0.25825      -0.84218     -0.41799     -0.212       
0.51         -0.47256     -0.045291    0.23762      -0.84465     0.23762      -0.84465     -0.42785     -0.20648     
0.52         -0.47986     -0.033085    0.21709      -0.8466      0.21709      -0.8466      -0.43754     -0.20064     
0.53         -0.48671     -0.020559    0.19669      -0.84805     0.19669      -0.84805     -0.44702     -0.19449     
0.54         -0.4931      -0.007735    0.17641      -0.849       0.17641      -0.849       -0.45631     -0.18804     
0.55         -0.49904     0.0053686    0.15628      -0.84947     0.15628      -0.84947     -0.46538     -0.18131     
0.56         -0.50451     0.018732     0.1363       -0.84947     0.1363       -0.84947     -0.47423     -0.17429     
0.57         -0.5095      0.032335     0.11647      -0.849       0.11647      -0.849       -0.48286     -0.16701     
0.58         -0.51402     0.046158     0.09682      -0.84809     0.09682      -0.84809     -0.49125     -0.15947     
0.59         -0.51804     0.060181     0.077344     -0.84674     0.077344     -0.84674     -0.49941     -0.15168     
0.6          -0.52158     0.074386     0.058053     -0.84495     0.058053     -0.84495     -0.50733     -0.14365     
0.61         -0.52462     0.088752     0.038955     -0.84275     0.038955     -0.84275     -0.51501     -0.13539     
0.62         -0.52717     0.10326      0.020057     -0.84015     0.020057     -0.84015     -0.52243     -0.12691     
0.63         -0.52922     0.11789      0.0013647    -0.83714     0.0013647    -0.83714     -0.5296      -0.11822     
0.64         -0.53077     0.13263      -0.017116    -0.83375     -0.017116    -0.83375     -0.53652     -0.10933     
0.65         -0.53182     0.14745      -0.035379    -0.82999     -0.035379    -0.82999     -0.54317     -0.10025     
0.66         -0.53236     0.16234      -0.053421    -0.82586     -0.053421    -0.82586     -0.54956     -0.09099     
0.67         -0.53241     0.17728      -0.071235    -0.82138     -0.071235    -0.82138     -0.55568     -0.081557    
0.68         -0.53196     0.19226      -0.088819    -0.81656     -0.088819    -0.81656     -0.56153     -0.071962    
0.69         -0.53102     0.20724      -0.10617     -0.8114      -0.10617     -0.8114      -0.56712     -0.062214    
0.7          -0.52958     0.22222      -0.12328     -0.80591     -0.12328     -0.80591     -0.57243     -0.052322    
0.71         -0.52765     0.23719      -0.14015     -0.80011     -0.14015     -0.80011     -0.57747     -0.042295    
0.72         -0.52523     0.25211      -0.15677     -0.79401     -0.15677     -0.79401     -0.58224     -0.03214     
0.73         -0.52233     0.26699      -0.17315     -0.78761     -0.17315     -0.78761     -0.58673     -0.021868    
0.74         -0.51895     0.2818       -0.18928     -0.78092     -0.18928     -0.78092     -0.59095     -0.011486    
0.75         -0.5151      0.29652      -0.20516     -0.77396     -0.20516     -0.77396     -0.59489     -0.0010024   
0.76         -0.51078     0.31114      -0.22078     -0.76673     -0.22078     -0.76673     -0.59856     0.0095741    
0.77         -0.50599     0.32565      -0.23616     -0.75923     -0.23616     -0.75923     -0.60195     0.020236     
0.78         -0.50075     0.34003      -0.25127     -0.75149     -0.25127     -0.75149     -0.60507     0.030975     
0.79         -0.49506     0.35427      -0.26613     -0.7435      -0.26613     -0.7435      -0.60791     0.041784     
0.8          -0.48893     0.36836      -0.28074     -0.73527     -0.28074     -0.73527     -0.61048     0.052655     
0.81         -0.48236     0.38227      -0.29509     -0.72682     -0.29509     -0.72682     -0.61278     0.063581     
0.82         -0.47537     0.396        -0.30917     -0.71814     -0.30917     -0.71814     -0.6148      0.074554     
0.83         -0.46795     0.40954      -0.323       -0.70926     -0.323       -0.70926     -0.61656     0.085568     
0.84         -0.46013     0.42287      -0.33658     -0.70016     -0.33658     -0.70016     -0.61804     0.096616     
0.85         -0.4519      0.43598      -0.34989     -0.69087     -0.34989     -0.69087     -0.61926     0.10769      
0.86         -0.44327     0.44887      -0.36294     -0.68138     -0.36294     -0.68138     -0.62021     0.11878      
0.87         -0.43426     0.46151      -0.37574     -0.67171     -0.37574     -0.67171     -0.6209      0.12989      
0.88         -0.42487     0.4739       -0.38828     -0.66186     -0.38828     -0.66186     -0.62132     0.14101      
0.89         -0.41512     0.48603      -0.40056     -0.65183     -0.40056     -0.65183     -0.62148     0.15213      
0.9          -0.405       0.49788      -0.41259     -0.64164     -0.41259     -0.64164     -0.62139     0.16324      
0.91         -0.39454     0.50946      -0.42436     -0.63129     -0.42436     -0.63129     -0.62103     0.17434      
0.92         -0.38374     0.52074      -0.43587     -0.62078     -0.43587     -0.62078     -0.62042     0.18542      
0.93         -0.37261     0.53173      -0.44713     -0.61012     -0.44713     -0.61012     -0.61956     0.19649      
0.94         -0.36116     0.54241      -0.45814     -0.59932     -0.45814     -0.59932     -0.61845     0.20752      
0.95         -0.3494      0.55277      -0.46889     -0.58838     -0.46889     -0.58838     -0.61709     0.21852      
0.96         -0.33735     0.56281      -0.47939     -0.5773      -0.47939     -0.5773      -0.61548     0.22949      
0.97         -0.32501     0.57251      -0.48964     -0.5661      -0.48964     -0.5661      -0.61363     0.24041      
0.98         -0.31239     0.58188      -0.49965     -0.55477     -0.49965     -0.55477     -0.61154     0.25128      
0.99         -0.2995      0.59091      -0.5094      -0.54332     -0.5094      -0.54332     -0.60921     0.2621       
1            -0.28636     0.59958      -0.5189      -0.53175     -0.5189      -0.53175     -0.60665     0.27286      
1.01         -0.27298     0.60789      -0.52816     -0.52008     -0.52816     -0.52008     -0.60385     0.28356      
1.02         -0.25936     0.61585      -0.53717     -0.50829     -0.53717     -0.50829     -0.60083     0.29419      
1.03         -0.24552     0.62343      -0.54594     -0.49641     -0.54594     -0.49641     -0.59757     0.30475      
1.04         -0.23147     0.63064      -0.55447     -0.48442     -0.55447     -0.48442     -0.59409     0.31523      
1.05         -0.21722     0.63747      -0.56275     -0.47235     -0.56275     -0.47235     -0.59039     0.32563      
1.06         -0.20278     0.64392      -0.57079     -0.46018     -0.57079     -0.46018     -0.58647     0.33595      
1.07         -0.18817     0.64999      -0.57859     -0.44792     -0.57859     -0.44792     -0.58233     0.34618      
1.08         -0.17338     0.65566      -0.58616     -0.43558     -0.58616     -0.43558     -0.57798     0.35631      
1.09         -0.15844     0.66094      -0.59348     -0.42315     -0.59348     -0.42315     -0.57342     0.36635      
1.1          -0.14336     0.66582      -0.60057     -0.41066     -0.60057     -0.41066     -0.56865     0.37629      
1.11         -0.12815     0.6703       -0.60742     -0.39808     -0.60742     -0.39808     -0.56368     0.38613      
1.12         -0.11281     0.67438      -0.61404     -0.38544     -0.61404     -0.38544     -0.5585      0.39585      
1.13         -0.097361    0.67805      -0.62043     -0.37273     -0.62043     -0.37273     -0.55313     0.40547      
1.14         -0.081815    0.68132      -0.62658     -0.35995     -0.62658     -0.35995     -0.54756     0.41497      
1.15         -0.066181    0.68417      -0.63251     -0.34711     -0.63251     -0.34711     -0.5418      0.42435      
1.16         -0.05047     0.68662      -0.6382      -0.33421     -0.6382      -0.33421     -0.53585     0.43361      
1.17         -0.034695    0.68865      -0.64366     -0.32126     -0.64366     -0.32126     -0.52971     0.44274      
1.18         -0.018865    0.69028      -0.6489      -0.30825     -0.6489      -0.30825     -0.52339     0.45175      
1.19         -0.0029925   0.69149      -0.6539      -0.29519     -0.6539      -0.29519     -0.51689     0.46063      
1.2          0.012912     0.69228      -0.65868     -0.28208     -0.65868     -0.28208     -0.51021     0.46937      
1.21         0.028837     0.69266      -0.66323     -0.26893     -0.66323     -0.26893     -0.50335     0.47797      
1.22         0.044771     0.69263      -0.66756     -0.25573     -0.66756     -0.25573     -0.49633     0.48643      
1.23         0.060704     0.69219      -0.67167     -0.24249     -0.67167     -0.24249     -0.48914     0.49475      
1.24         0.076625     0.69133      -0.67555     -0.22921     -0.67555     -0.22921     -0.48178     0.50292      
1.25         0.092522     0.69007      -0.6792      -0.2159      -0.6792      -0.2159      -0.47426     0.51095      
1.26         0.10839      0.68839      -0.68264     -0.20255     -0.68264     -0.20255     -0.46659     0.51882      
1.27         0.1242       0.6863       -0.68585     -0.18916     -0.68585     -0.18916     -0.45876     0.52653      
1.28         0.13997      0.68381      -0.68884     -0.17575     -0.68884     -0.17575     -0.45077     0.53409      
1.29         0.15566      0.68091      -0.69161     -0.16231     -0.69161     -0.16231     -0.44264     0.54149      
1.3          0.17128      0.67761      -0.69416     -0.14884     -0.69416     -0.14884     -0.43437     0.54873      
1.31         0.18681      0.67391      -0.69649     -0.13535     -0.69649     -0.13535     -0.42595     0.5558       
1.32         0.20225      0.66981      -0.6986      -0.12183     -0.6986      -0.12183     -0.41739     0.5627       
1.33         0.21757      0.66532      -0.70049     -0.10829     -0.70049     -0.10829     -0.4087      0.56944      
1.34         0.23278      0.66044      -0.70216     -0.094739    -0.70216     -0.094739    -0.39987     0.576        
1.35         0.24786      0.65516      -0.70361     -0.081168    -0.70361     -0.081168    -0.39092     0.58239      
1.36         0.2628       0.64951      -0.70484     -0.067582    -0.70484     -0.067582    -0.38184     0.5886       
1.37         0.27759      0.64347      -0.70586     -0.053982    -0.70586     -0.053982    -0.37264     0.59463      
1.38         0.29223      0.63705      -0.70665     -0.040372    -0.70665     -0.040372    -0.36332     0.60048      
1.39         0.30669      0.63027      -0.70723     -0.026753    -0.70723     -0.026753    -0.35389     0.60614      
1.4          0.32098      0.62311      -0.70759     -0.013126    -0.70759     -0.013126    -0.34434     0.61162      
1.41         0.33508      0.6156       -0.70772     0.00050619   -0.70772     0.00050619   -0.33469     0.61691      
1.42         0.34898      0.60772      -0.70764     0.014142     -0.70764     0.014142     -0.32493     0.62201      
1.43         0.36268      0.59949      -0.70735     0.02778      -0.70735     0.02778      -0.31507     0.62692      
1.44         0.37616      0.59092      -0.70683     0.041417     -0.70683     0.041417     -0.30511     0.63163      
1.45         0.38941      0.582        -0.70609     0.055053     -0.70609     0.055053     -0.29506     0.63615      
1.46         0.40244      0.57275      -0.70513     0.068685     -0.70513     0.068685     -0.28492     0.64047      
1.47         0.41522      0.56317      -0.70395     0.082311     -0.70395     0.082311     -0.2747      0.64459      
1.48         0.42774      0.55326      -0.70255     0.095929     -0.70255     0.095929     -0.26439     0.6485       
1.49         0.44001      0.54304      -0.70093     0.10954      -0.70093     0.10954      -0.254       0.65221      
1.5          0.45201      0.53251      -0.69909     0.12314      -0.69909     0.12314      -0.24353     0.65572      
1.51         0.46374      0.52167      -0.69703     0.13672      -0.69703     0.13672      -0.233       0.65902      
1.52         0.47518      0.51054      -0.69474     0.15029      -0.69474     0.15029      -0.22239     0.66211      
1.53         0.48633      0.49911      -0.69223     0.16384      -0.69223     0.16384      -0.21173     0.66499      
1.54         0.49717      0.48741      -0.68949     0.17737      -0.68949     0.17737      -0.201       0.66765      
1.55         0.50771      0.47543      -0.68653     0.19088      -0.68653     0.19088      -0.19022     0.6701       
1.56         0.51793      0.46319      -0.68335     0.20437      -0.68335     0.20437      -0.17939     0.67234      
1.57         0.52783      0.45069      -0.67993     0.21783      -0.67993     0.21783      -0.1685      0.67436      
1.58         0.5374       0.43794      -0.67629     0.23126      -0.67629     0.23126      -0.15758     0.67616      
1.59         0.54664      0.42495      -0.67242     0.24466      -0.67242     0.24466      -0.14661     0.67773      
1.6          0.55552      0.41173      -0.66833     0.25803      -0.66833     0.25803      -0.13561     0.67909      
1.61         0.56406      0.39828      -0.664       0.27136      -0.664       0.27136      -0.12458     0.68022      
1.62         0.57224      0.38462      -0.65943     0.28465      -0.65943     0.28465      -0.11353     0.68113      
1.63         0.58006      0.37076      -0.65464     0.29791      -0.65464     0.29791      -0.10245     0.68181      
1.64         0.58751      0.3567       -0.64961     0.31112      -0.64961     0.31112      -0.091351    0.68227      
1.65         0.59458      0.34246      -0.64435     0.32428      -0.64435     0.32428      -0.080241    0.68249      
1.66         0.60127      0.32803      -0.63885     0.3374       -0.63885     0.3374       -0.069122    0.68249      
1.67         0.60758      0.31345      -0.63311     0.35047      -0.63311     0.35047      -0.058       0.68225      
1.68         0.61349      0.29871      -0.62714     0.36348      -0.62714     0.36348      -0.046878    0.68179      
1.69         0.61901      0.28382      -0.62092     0.37643      -0.62092     0.37643      -0.035761    0.68109      
1.7          0.62413      0.2688       -0.61446     0.38933      -0.61446     0.38933      -0.024655    0.68015      
1.71         0.62884      0.25365      -0.60776     0.40216      -0.60776     0.40216      -0.013564    0.67898      
1.72         0.63314      0.2384       -0.60082     0.41492      -0.60082     0.41492      -0.0024932   0.67758      
1.73         0.63702      0.22304      -0.59363     0.42762      -0.59363     0.42762      0.0085525    0.67594      
1.74         0.64049      0.20759      -0.58619     0.44024      -0.58619     0.44024      0.019568     0.67406      
1.75         0.64354      0.19206      -0.5785      0.45278      -0.5785      0.45278      0.030548     0.67195      
1.76         0.64616      0.17646      -0.57056     0.46524      -0.57056     0.46524      0.041487     0.66959      
1.77         0.64835      0.16081      -0.56237     0.47762      -0.56237     0.47762      0.052379     0.667        
1.78         0.65011      0.14512      -0.55393     0.4899       -0.55393     0.4899       0.063221     0.66417      
1.79         0.65145      0.1294       -0.54523     0.5021       -0.54523     0.5021       0.074005     0.6611       
1.8          0.65234      0.11365      -0.53628     0.51419      -0.53628     0.51419      0.084726     0.65779      
1.81         0.6528       0.097901     -0.52707     0.52619      -0.52707     0.52619      0.095379     0.65424      
1.82         0.65282      0.082156     -0.5176      0.53808      -0.5176      0.53808      0.10596      0.65046      
1.83         0.6524       0.06643      -0.50787     0.54985      -0.50787     0.54985      0.11646      0.64643      
1.84         0.65154      0.050736     -0.49787     0.56152      -0.49787     0.56152      0.12687      0.64216      
1.85         0.65024      0.035087     -0.48761     0.57306      -0.48761     0.57306      0.13719      0.63766      
1.86         0.6485       0.019495     -0.47709     0.58447      -0.47709     0.58447      0.14741      0.63291      
1.87         0.64632      0.003974     -0.4663      0.59575      -0.4663      0.59575      0.15753      0.62793      
1.88         0.6437       -0.011462    -0.45525     0.6069       -0.45525     0.6069       0.16754      0.62271      
1.89         0.64064      -0.026801    -0.44392     0.6179       -0.44392     0.6179       0.17743      0.61726      
1.9          0.63714      -0.042028    -0.43232     0.62875      -0.43232     0.62875      0.1872       0.61157      
1.91         0.6332       -0.05713     -0.42045     0.63945      -0.42045     0.63945      0.19684      0.60564      
1.92         0.62883      -0.072094    -0.40831     0.64999      -0.40831     0.64999      0.20634      0.59949      
1.93         0.62403      -0.086904    -0.3959      0.66035      -0.3959      0.66035      0.2157       0.5931       
1.94         0.6188       -0.10155     -0.38321     0.67055      -0.38321     0.67055      0.22491      0.58649      
1.95         0.61315      -0.11601     -0.37025     0.68056      -0.37025     0.68056      0.23396      0.57964      
1.96         0.60708      -0.13028     -0.35701     0.69039      -0.35701     0.69039      0.24284      0.57258      
1.97         0.60059      -0.14434     -0.3435      0.70002      -0.3435      0.70002      0.25156      0.56528      
1.98         0.59368      -0.15818     -0.3297      0.70944      -0.3297      0.70944      0.2601       0.55777      
1.99         0.58637      -0.17178     -0.31563     0.71865      -0.31563     0.71865      0.26845      0.55004      
2            0.57866      -0.18513     -0.30129     0.72765      -0.30129     0.72765      0.27661      0.5421       
2.01         0.57056      -0.19821     -0.28667     0.73642      -0.28667     0.73642      0.28457      0.53394      
2.02         0.56207      -0.21101     -0.27177     0.74495      -0.27177     0.74495      0.29232      0.52558      
2.03         0.5532       -0.22353     -0.25659     0.75323      -0.25659     0.75323      0.29986      0.51701      
2.04         0.54395      -0.23573     -0.24114     0.76127      -0.24114     0.76127      0.30718      0.50824      
2.05         0.53434      -0.24761     -0.22541     0.76904      -0.22541     0.76904      0.31427      0.49927      
2.06         0.52438      -0.25916     -0.20941     0.77654      -0.20941     0.77654      0.32112      0.49011      
2.07         0.51407      -0.27036     -0.19314     0.78375      -0.19314     0.78375      0.32772      0.48077      
2.08         0.50343      -0.2812      -0.1766      0.79068      -0.1766      0.79068      0.33408      0.47124      
2.09         0.49246      -0.29166     -0.15979     0.7973       -0.15979     0.7973       0.34017      0.46154      
2.1          0.48118      -0.30173     -0.14272     0.80361      -0.14272     0.80361      0.346        0.45166      
2.11         0.4696       -0.3114      -0.12538     0.8096       -0.12538     0.8096       0.35155      0.44162      
2.12         0.45773      -0.32066     -0.10778     0.81526      -0.10778     0.81526      0.35682      0.43142      
2.13         0.44559      -0.32949     -0.089926    0.82057      -0.089926    0.82057      0.3618       0.42107      
2.14         0.43318      -0.33788     -0.071818    0.82553      -0.071818    0.82553      0.36649      0.41058      
2.15         0.42053      -0.34582     -0.053462    0.83012      -0.053462    0.83012      0.37087      0.39995      
