!freq-unit  param-type  data-format  keyword  impedance-ohms
# GHZ           S          RI           R         50
!-----------------------------------------------------------------------------
!Freq          ReS11        ImS11        ReS21        ImS21        ReS12        ImS12        ReS22        ImS22
0.5          -0.39206     -0.11198     0.38004      -0.82767     0.38004      -0.82767     -0.34144     -0.22332     
0.51         -0.40067     -0.10391     0.3611       -0.83304     0.3611       -0.83304     -0.35072     -0.22032     
0.52         -0.40902     -0.095492    0.34216      -0.83794     0.34216      -0.83794     -0.35992     -0.21702     
0.53         -0.41711     -0.086735    0.32322      -0.84239     0.32322      -0.84239     -0.36903     -0.21344     
0.54         -0.42492     -0.077651    0.3043       -0.84639     0.3043       -0.84639     -0.37803     -0.20958     
0.55         -0.43243     -0.068252    0.28541      -0.84994     0.28541      -0.84994     -0.38691     -0.20544     
0.56         -0.43965     -0.05855     0.26656      -0.85305     0.26656      -0.85305     -0.39568     -0.20104     
0.57         -0.44656     -0.048558    0.24777      -0.85573     0.24777      -0.85573     -0.40433     -0.19638     
0.58         -0.45315     -0.038287    0.22903      -0.85798     0.22903      -0.85798     -0.41284     -0.19146     
0.59         -0.45942     -0.027751    0.21036      -0.85981     0.21036      -0.85981     -0.42121     -0.1863      
0.6          -0.46535     -0.016963    0.19178      -0.86122     0.19178      -0.86122     -0.42944     -0.18089     
0.61         -0.47094     -0.0059345   0.17328      -0.86223     0.17328      -0.86223     -0.43752     -0.17524     
0.62         -0.47618     0.0053204    0.15487      -0.86283     0.15487      -0.86283     -0.44544     -0.16936     
0.63         -0.48107     0.016789     0.13658      -0.86304     0.13658      -0.86304     -0.45319     -0.16326     
0.64         -0.48559     0.028457     0.11839      -0.86287     0.11839      -0.86287     -0.46079     -0.15693     
0.65         -0.48976     0.040313     0.10032      -0.86231     0.10032      -0.86231     -0.46821     -0.1504      
0.66         -0.49355     0.052342     0.082385     -0.86138     0.082385     -0.86138     -0.47545     -0.14366     
0.67         -0.49697     0.064532     0.06458      -0.86009     0.06458      -0.86009     -0.48251     -0.13672     
0.68         -0.50001     0.076869     0.046914     -0.85843     0.046914     -0.85843     -0.48939     -0.12959     
0.69         -0.50267     0.089341     0.029394     -0.85643     0.029394     -0.85643     -0.49608     -0.12228     
0.7          -0.50495     0.10193      0.012026     -0.85408     0.012026     -0.85408     -0.50258     -0.11479     
0.71         -0.50684     0.11463      -0.0051841   -0.85139     -0.0051841   -0.85139     -0.50889     -0.10712     
0.72         -0.50834     0.12743      -0.022232    -0.84837     -0.022232    -0.84837     -0.515       -0.099288    
0.73         -0.50946     0.1403       -0.039112    -0.84503     -0.039112    -0.84503     -0.5209      -0.091297    
0.74         -0.51019     0.15325      -0.055821    -0.84138     -0.055821    -0.84138     -0.52661     -0.083153    
0.75         -0.51053     0.16625      -0.072352    -0.83742     -0.072352    -0.83742     -0.5321      -0.074862    
0.76         -0.51048     0.1793       -0.088703    -0.83316     -0.088703    -0.83316     -0.53739     -0.066432    
0.77         -0.51004     0.19237      -0.10487     -0.8286      -0.10487     -0.8286      -0.54247     -0.057869    
0.78         -0.50921     0.20547      -0.12085     -0.82376     -0.12085     -0.82376     -0.54734     -0.049178    
0.79         -0.50799     0.21857      -0.13663     -0.81863     -0.13663     -0.81863     -0.552       -0.040366    
0.8          -0.50639     0.23166      -0.15223     -0.81324     -0.15223     -0.81324     -0.55644     -0.03144     
0.81         -0.5044      0.24474      -0.16762     -0.80757     -0.16762     -0.80757     -0.56066     -0.022405    
0.82         -0.50203     0.25779      -0.18281     -0.80165     -0.18281     -0.80165     -0.56467     -0.013268    
0.83         -0.49928     0.2708       -0.1978      -0.79548     -0.1978      -0.79548     -0.56846     -0.004035    
0.84         -0.49615     0.28376      -0.21259     -0.78906     -0.21259     -0.78906     -0.57203     0.0052886    
0.85         -0.49265     0.29666      -0.22716     -0.7824      -0.22716     -0.7824      -0.57539     0.014697     
0.86         -0.48878     0.30948      -0.24153     -0.7755      -0.24153     -0.7755      -0.57852     0.024183     
0.87         -0.48455     0.32222      -0.25569     -0.76838     -0.25569     -0.76838     -0.58144     0.033742     
0.88         -0.47995     0.33486      -0.26963     -0.76104     -0.26963     -0.76104     -0.58413     0.043369     
0.89         -0.47499     0.3474       -0.28335     -0.75349     -0.28335     -0.75349     -0.58661     0.053057     
0.9          -0.46968     0.35983      -0.29686     -0.74572     -0.29686     -0.74572     -0.58886     0.062801     
0.91         -0.46402     0.37213      -0.31016     -0.73776     -0.31016     -0.73776     -0.5909      0.072596     
0.92         -0.45801     0.38429      -0.32323     -0.7296      -0.32323     -0.7296      -0.59271     0.082436     
0.93         -0.45166     0.39631      -0.33609     -0.72124     -0.33609     -0.72124     -0.59431     0.092316     
0.94         -0.44498     0.40818      -0.34872     -0.71271     -0.34872     -0.71271     -0.59569     0.10223      
0.95         -0.43798     0.41989      -0.36114     -0.70399     -0.36114     -0.70399     -0.59685     0.11218      
0.96         -0.43065     0.43143      -0.37333     -0.6951      -0.37333     -0.6951      -0.5978      0.12214      
0.97         -0.423       0.44279      -0.3853      -0.68604     -0.3853      -0.68604     -0.59853     0.13213      
0.98         -0.41504     0.45396      -0.39704     -0.67682     -0.39704     -0.67682     -0.59904     0.14214      
0.99         -0.40678     0.46494      -0.40857     -0.66744     -0.40857     -0.66744     -0.59934     0.15215      
1            -0.39821     0.47571      -0.41987     -0.65791     -0.41987     -0.65791     -0.59943     0.16217      
1.01         -0.38936     0.48628      -0.43095     -0.64822     -0.43095     -0.64822     -0.59931     0.17219      
1.02         -0.38022     0.49663      -0.4418      -0.6384      -0.4418      -0.6384      -0.59897     0.18221      
1.03         -0.37081     0.50675      -0.45243     -0.62844     -0.45243     -0.62844     -0.59843     0.19222      
1.04         -0.36112     0.51664      -0.46284     -0.61834     -0.46284     -0.61834     -0.59768     0.20222      
1.05         -0.35117     0.5263       -0.47302     -0.60811     -0.47302     -0.60811     -0.59672     0.2122       
1.06         -0.34096     0.53571      -0.48298     -0.59777     -0.48298     -0.59777     -0.59556     0.22216      
1.07         -0.3305      0.54487      -0.49272     -0.5873      -0.49272     -0.5873      -0.59419     0.23209      
1.08         -0.3198      0.55377      -0.50223     -0.57671     -0.50223     -0.57671     -0.59262     0.242        
1.09         -0.30887     0.56242      -0.51153     -0.56601     -0.51153     -0.56601     -0.59086     0.25187      
1.1          -0.29771     0.57079      -0.5206      -0.55521     -0.5206      -0.55521     -0.58889     0.2617       
1.11         -0.28633     0.5789       -0.52945     -0.5443      -0.52945     -0.5443      -0.58673     0.2715       
1.12         -0.27474     0.58673      -0.53808     -0.53329     -0.53808     -0.53329     -0.58437     0.28125      
1.13         -0.26294     0.59427      -0.54649     -0.52219     -0.54649     -0.52219     -0.58182     0.29095      
1.14         -0.25095     0.60153      -0.55468     -0.511       -0.55468     -0.511       -0.57908     0.3006       
1.15         -0.23877     0.6085       -0.56265     -0.49971     -0.56265     -0.49971     -0.57616     0.3102       
1.16         -0.22641     0.61517      -0.5704      -0.48835     -0.5704      -0.48835     -0.57304     0.31974      
1.17         -0.21387     0.62155      -0.57794     -0.4769      -0.57794     -0.4769      -0.56974     0.32922      
1.18         -0.20118     0.62762      -0.58526     -0.46538     -0.58526     -0.46538     -0.56626     0.33863      
1.19         -0.18832     0.63339      -0.59236     -0.45378     -0.59236     -0.45378     -0.56259     0.34797      
1.2          -0.17532     0.63885      -0.59924     -0.44211     -0.59924     -0.44211     -0.55875     0.35724      
1.21         -0.16218     0.644        -0.60592     -0.43037     -0.60592     -0.43037     -0.55473     0.36644      
1.22         -0.14891     0.64883      -0.61237     -0.41858     -0.61237     -0.41858     -0.55053     0.37556      
1.23         -0.13551     0.65335      -0.61862     -0.40672     -0.61862     -0.40672     -0.54617     0.38459      
1.24         -0.122       0.65755      -0.62465     -0.3948      -0.62465     -0.3948      -0.54163     0.39355      
1.25         -0.10839     0.66143      -0.63047     -0.38283     -0.63047     -0.38283     -0.53693     0.40242      
1.26         -0.094669    0.66498      -0.63608     -0.3708      -0.63608     -0.3708      -0.53206     0.4112       
1.27         -0.080862    0.66821      -0.64148     -0.35873     -0.64148     -0.35873     -0.52702     0.41988      
1.28         -0.066972    0.67111      -0.64667     -0.34661     -0.64667     -0.34661     -0.52183     0.42847      
1.29         -0.053008    0.67368      -0.65165     -0.33445     -0.65165     -0.33445     -0.51648     0.43697      
1.3          -0.038979    0.67592      -0.65643     -0.32225     -0.65643     -0.32225     -0.51097     0.44536      
1.31         -0.024891    0.67784      -0.661       -0.31001     -0.661       -0.31001     -0.5053      0.45366      
1.32         -0.010754    0.67942      -0.66536     -0.29774     -0.66536     -0.29774     -0.49949     0.46184      
1.33         0.0034251    0.68067      -0.66952     -0.28544     -0.66952     -0.28544     -0.49353     0.46992      
1.34         0.017637     0.68159      -0.67347     -0.2731      -0.67347     -0.2731      -0.48741     0.47789      
1.35         0.031875     0.68218      -0.67722     -0.26074     -0.67722     -0.26074     -0.48116     0.48575      
1.36         0.046129     0.68243      -0.68077     -0.24835     -0.68077     -0.24835     -0.47476     0.49349      
1.37         0.060393     0.68235      -0.68411     -0.23594     -0.68411     -0.23594     -0.46823     0.50112      
1.38         0.074658     0.68195      -0.68726     -0.22351     -0.68726     -0.22351     -0.46155     0.50863      
1.39         0.088916     0.68121      -0.6902      -0.21106     -0.6902      -0.21106     -0.45474     0.51602      
1.4          0.10316      0.68013      -0.69295     -0.1986      -0.69295     -0.1986      -0.4478      0.52328      
1.41         0.11738      0.67873      -0.6955      -0.18612     -0.6955      -0.18612     -0.44073     0.53042      
1.42         0.13157      0.67701      -0.69785     -0.17364     -0.69785     -0.17364     -0.43354     0.53744      
1.43         0.14572      0.67495      -0.7         -0.16114     -0.7         -0.16114     -0.42622     0.54432      
1.44         0.15983      0.67257      -0.70196     -0.14864     -0.70196     -0.14864     -0.41877     0.55107      
1.45         0.17388      0.66986      -0.70372     -0.13613     -0.70372     -0.13613     -0.41121     0.55769      
1.46         0.18787      0.66683      -0.70529     -0.12362     -0.70529     -0.12362     -0.40353     0.56418      
1.47         0.20179      0.66348      -0.70666     -0.11111     -0.70666     -0.11111     -0.39574     0.57053      
1.48         0.21564      0.65981      -0.70784     -0.098602    -0.70784     -0.098602    -0.38783     0.57674      
1.49         0.2294       0.65582      -0.70883     -0.086097    -0.70883     -0.086097    -0.37981     0.58281      
1.5          0.24308      0.65152      -0.70963     -0.073598    -0.70963     -0.073598    -0.37169     0.58874      
1.51         0.25665      0.64691      -0.71023     -0.061106    -0.71023     -0.061106    -0.36347     0.59453      
1.52         0.27012      0.64199      -0.71065     -0.048624    -0.71065     -0.048624    -0.35514     0.60017      
1.53         0.28347      0.63676      -0.71087     -0.036153    -0.71087     -0.036153    -0.34671     0.60566      
1.54         0.29671      0.63122      -0.71091     -0.023696    -0.71091     -0.023696    -0.33819     0.61101      
1.55         0.30981      0.62539      -0.71076     -0.011253    -0.71076     -0.011253    -0.32958     0.61621      
1.56         0.32279      0.61926      -0.71042     0.0011721    -0.71042     0.0011721    -0.32087     0.62126      
1.57         0.33562      0.61284      -0.70989     0.013579     -0.70989     0.013579     -0.31208     0.62615      
1.58         0.34831      0.60612      -0.70918     0.025964     -0.70918     0.025964     -0.3032      0.6309       
1.59         0.36084      0.59912      -0.70828     0.038328     -0.70828     0.038328     -0.29424     0.63548      
1.6          0.37322      0.59184      -0.7072      0.050667     -0.7072      0.050667     -0.2852      0.63991      
1.61         0.38542      0.58427      -0.70593     0.062979     -0.70593     0.062979     -0.27608     0.64419      
1.62         0.39745      0.57643      -0.70447     0.075264     -0.70447     0.075264     -0.26689     0.6483       
1.63         0.40931      0.56832      -0.70284     0.08752      -0.70284     0.08752      -0.25762     0.65226      
1.64         0.42097      0.55995      -0.70102     0.099743     -0.70102     0.099743     -0.24829     0.65605      
1.65         0.43245      0.55131      -0.69901     0.11193      -0.69901     0.11193      -0.23889     0.65968      
1.66         0.44372      0.54241      -0.69683     0.12409      -0.69683     0.12409      -0.22943     0.66315      
1.67         0.4548       0.53326      -0.69446     0.13621      -0.69446     0.13621      -0.2199      0.66645      
1.68         0.46566      0.52387      -0.69191     0.14829      -0.69191     0.14829      -0.21032     0.66959      
1.69         0.47631      0.51423      -0.68918     0.16033      -0.68918     0.16033      -0.20068     0.67256      
1.7          0.48674      0.50435      -0.68627     0.17233      -0.68627     0.17233      -0.191       0.67537      
1.71         0.49694      0.49424      -0.68318     0.18428      -0.68318     0.18428      -0.18126     0.678        
1.72         0.50691      0.4839       -0.67991     0.19619      -0.67991     0.19619      -0.17148     0.68047      
1.73         0.51664      0.47334      -0.67646     0.20805      -0.67646     0.20805      -0.16165     0.68277      
1.74         0.52613      0.46256      -0.67283     0.21987      -0.67283     0.21987      -0.15178     0.68489      
1.75         0.53537      0.45158      -0.66902     0.23163      -0.66902     0.23163      -0.14188     0.68685      
1.76         0.54436      0.44038      -0.66504     0.24334      -0.66504     0.24334      -0.13194     0.68863      
1.77         0.5531       0.42899      -0.66087     0.25499      -0.66087     0.25499      -0.12197     0.69023      
1.78         0.56157      0.4174       -0.65653     0.26659      -0.65653     0.26659      -0.11197     0.69167      
1.79         0.56977      0.40563      -0.65201     0.27813      -0.65201     0.27813      -0.10194     0.69292      
1.8          0.57771      0.39367      -0.64731     0.28961      -0.64731     0.28961      -0.09189     0.69401      
1.81         0.58537      0.38154      -0.64244     0.30103      -0.64244     0.30103      -0.081822    0.69491      
1.82         0.59275      0.36925      -0.63739     0.31239      -0.63739     0.31239      -0.071737    0.69565      
1.83         0.59985      0.35678      -0.63216     0.32368      -0.63216     0.32368      -0.061638    0.6962       
1.84         0.60667      0.34417      -0.62676     0.3349       -0.62676     0.3349       -0.051528    0.69657      
1.85         0.61319      0.3314       -0.62118     0.34606      -0.62118     0.34606      -0.041411    0.69677      
1.86         0.61942      0.31849      -0.61543     0.35714      -0.61543     0.35714      -0.03129     0.69679      
1.87         0.62535      0.30545      -0.6095      0.36815      -0.6095      0.36815      -0.021167    0.69663      
1.88         0.63098      0.29228      -0.60339     0.37909      -0.60339     0.37909      -0.011046    0.69629      
1.89         0.63631      0.27898      -0.59711     0.38994      -0.59711     0.38994      -0.00092998  0.69577      
1.9          0.64132      0.26557      -0.59066     0.40072      -0.59066     0.40072      0.0091778    0.69508      
1.91         0.64603      0.25206      -0.58403     0.41142      -0.58403     0.41142      0.019274     0.6942       
1.92         0.65043      0.23844      -0.57723     0.42203      -0.57723     0.42203      0.029356     0.69314      
1.93         0.65451      0.22473      -0.57025     0.43256      -0.57025     0.43256      0.03942      0.6919       
1.94         0.65827      0.21093      -0.56309     0.44301      -0.56309     0.44301      0.049463     0.69048      
1.95         0.66171      0.19706      -0.55577     0.45336      -0.55577     0.45336      0.059481     0.68888      
1.96         0.66483      0.18312      -0.54827     0.46362      -0.54827     0.46362      0.069472     0.6871       
1.97         0.66763      0.16911      -0.54059     0.47378      -0.54059     0.47378      0.079431     0.68514      
1.98         0.6701       0.15505      -0.53274     0.48385      -0.53274     0.48385      0.089357     0.683        
1.99         0.67224      0.14094      -0.52472     0.49382      -0.52472     0.49382      0.099244     0.68067      
2            0.67405      0.12679      -0.51653     0.50369      -0.51653     0.50369      0.10909      0.67817      
2.01         0.67553      0.1126       -0.50816     0.51346      -0.50816     0.51346      0.11889      0.67549      
2.02         0.67668      0.098396     -0.49962     0.52312      -0.49962     0.52312      0.12865      0.67263      
2.03         0.6775       0.084173     -0.49091     0.53267      -0.49091     0.53267      0.13835      0.66958      
2.04         0.67798      0.069942     -0.48202     0.54211      -0.48202     0.54211      0.148        0.66636      
2.05         0.67813      0.05571      -0.47296     0.55144      -0.47296     0.55144      0.15758      0.66296      
2.06         0.67794      0.041486     -0.46373     0.56065      -0.46373     0.56065      0.16711      0.65939      
2.07         0.67742      0.027279     -0.45433     0.56975      -0.45433     0.56975      0.17657      0.65563      
2.08         0.67656      0.013095     -0.44476     0.57872      -0.44476     0.57872      0.18597      0.6517       
2.09         0.67536      -0.0010555   -0.43501     0.58757      -0.43501     0.58757      0.19529      0.64759      
2.1          0.67383      -0.015166    -0.4251      0.59629      -0.4251      0.59629      0.20453      0.64331      
2.11         0.67197      -0.029227    -0.41501     0.60488      -0.41501     0.60488      0.21369      0.63885      
2.12         0.66977      -0.04323     -0.40475     0.61333      -0.40475     0.61333      0.22277      0.63421      
2.13         0.66724      -0.057168    -0.39433     0.62165      -0.39433     0.62165      0.23176      0.62941      
2.14         0.66438      -0.071032    -0.38373     0.62983      -0.38373     0.62983      0.24066      0.62443      
2.15         0.66119      -0.084813    -0.37297     0.63787      -0.37297     0.63787      0.24947      0.61928      
