!freq-unit  param-type  data-format  keyword  impedance-ohms
# GHZ           S          RI           R         50
!-----------------------------------------------------------------------------
!Freq          ReS11        ImS11        ReS21        ImS21        ReS12        ImS12        ReS22        ImS22
0.5          -0.31858     -0.092569    0.30617      -0.88964     0.30617      -0.88964     -0.30856     -0.12205     
0.51         -0.32593     -0.085967    0.28419      -0.89489     0.28419      -0.89489     -0.31628     -0.11677     
0.52         -0.33309     -0.079055    0.26217      -0.89958     0.26217      -0.89958     -0.32385     -0.1112      
0.53         -0.34003     -0.071841    0.24013      -0.9037      0.24013      -0.9037      -0.33126     -0.10533     
0.54         -0.34675     -0.064333    0.21807      -0.90727     0.21807      -0.90727     -0.33851     -0.099175    
0.55         -0.35324     -0.056539    0.19601      -0.91029     0.19601      -0.91029     -0.34558     -0.092742    
0.56         -0.35949     -0.04847     0.17397      -0.91276     0.17397      -0.91276     -0.35247     -0.086038    
0.57         -0.36549     -0.040133    0.15196      -0.91468     0.15196      -0.91468     -0.35916     -0.079068    
0.58         -0.37123     -0.03154     0.13         -0.91607     0.13         -0.91607     -0.36566     -0.071842    
0.59         -0.3767      -0.0227      0.10809      -0.91692     0.10809      -0.91692     -0.37194     -0.064366    
0.6          -0.3819      -0.013623    0.086251     -0.91724     0.086251     -0.91724     -0.378       -0.056648    
0.61         -0.38681     -0.0043197   0.064495     -0.91703     0.064495     -0.91703     -0.38384     -0.048697    
0.62         -0.39143     0.0051996    0.042835     -0.91631     0.042835     -0.91631     -0.38945     -0.04052     
0.63         -0.39576     0.014924     0.021282     -0.91507     0.021282     -0.91507     -0.39482     -0.032127    
0.64         -0.39977     0.024842     -0.00015224  -0.91334     -0.00015224  -0.91334     -0.39994     -0.023526    
0.65         -0.40348     0.034944     -0.021456    -0.9111      -0.021456    -0.9111      -0.40481     -0.014725    
0.66         -0.40687     0.045217     -0.042619    -0.90837     -0.042619    -0.90837     -0.40943     -0.0057335   
0.67         -0.40994     0.055651     -0.06363     -0.90515     -0.06363     -0.90515     -0.41378     0.0034395    
0.68         -0.41268     0.066234     -0.084478    -0.90145     -0.084478    -0.90145     -0.41786     0.012785     
0.69         -0.41509     0.076954     -0.10515     -0.89729     -0.10515     -0.89729     -0.42167     0.022294     
0.7          -0.41716     0.087801     -0.12565     -0.89266     -0.12565     -0.89266     -0.4252      0.031956     
0.71         -0.41889     0.098761     -0.14595     -0.88758     -0.14595     -0.88758     -0.42845     0.041764     
0.72         -0.42029     0.10982      -0.16605     -0.88205     -0.16605     -0.88205     -0.43142     0.051706     
0.73         -0.42134     0.12098      -0.18594     -0.87607     -0.18594     -0.87607     -0.4341      0.061775     
0.74         -0.42204     0.13221      -0.20561     -0.86967     -0.20561     -0.86967     -0.43648     0.07196      
0.75         -0.42239     0.14351      -0.22505     -0.86284     -0.22505     -0.86284     -0.43857     0.082252     
0.76         -0.4224      0.15487      -0.24426     -0.8556      -0.24426     -0.8556      -0.44037     0.092641     
0.77         -0.42205     0.16627      -0.26322     -0.84795     -0.26322     -0.84795     -0.44186     0.10312      
0.78         -0.42135     0.17771      -0.28194     -0.8399      -0.28194     -0.8399      -0.44306     0.11368      
0.79         -0.42029     0.18916      -0.3004      -0.83146     -0.3004      -0.83146     -0.44395     0.1243       
0.8          -0.41889     0.20063      -0.31859     -0.82264     -0.31859     -0.82264     -0.44454     0.13499      
0.81         -0.41713     0.21209      -0.33651     -0.81345     -0.33651     -0.81345     -0.44482     0.14572      
0.82         -0.41502     0.22354      -0.35416     -0.80389     -0.35416     -0.80389     -0.4448      0.1565       
0.83         -0.41257     0.23497      -0.37152     -0.79398     -0.37152     -0.79398     -0.44447     0.16731      
0.84         -0.40976     0.24637      -0.38859     -0.78371     -0.38859     -0.78371     -0.44383     0.17814      
0.85         -0.40661     0.25771      -0.40537     -0.77311     -0.40537     -0.77311     -0.4429      0.18898      
0.86         -0.40311     0.269        -0.42185     -0.76218     -0.42185     -0.76218     -0.44165     0.19983      
0.87         -0.39927     0.28023      -0.43803     -0.75093     -0.43803     -0.75093     -0.4401      0.21067      
0.88         -0.39509     0.29137      -0.45389     -0.73936     -0.45389     -0.73936     -0.43825     0.2215       
0.89         -0.39057     0.30243      -0.46944     -0.72749     -0.46944     -0.72749     -0.43609     0.23231      
0.9          -0.38572     0.31339      -0.48467     -0.71532     -0.48467     -0.71532     -0.43363     0.24309      
0.91         -0.38054     0.32423      -0.49958     -0.70287     -0.49958     -0.70287     -0.43088     0.25382      
0.92         -0.37504     0.33497      -0.51416     -0.69014     -0.51416     -0.69014     -0.42782     0.26451      
0.93         -0.36921     0.34557      -0.52842     -0.67714     -0.52842     -0.67714     -0.42447     0.27514      
0.94         -0.36307     0.35604      -0.54234     -0.66388     -0.54234     -0.66388     -0.42083     0.28571      
0.95         -0.35661     0.36636      -0.55592     -0.65036     -0.55592     -0.65036     -0.4169      0.2962       
0.96         -0.34985     0.37652      -0.56916     -0.63661     -0.56916     -0.63661     -0.41268     0.30662      
0.97         -0.34279     0.38652      -0.58206     -0.62261     -0.58206     -0.62261     -0.40817     0.31694      
0.98         -0.33543     0.39634      -0.59461     -0.60839     -0.59461     -0.60839     -0.40339     0.32717      
0.99         -0.32778     0.40598      -0.60682     -0.59395     -0.60682     -0.59395     -0.39832     0.33729      
1            -0.31984     0.41544      -0.61868     -0.5793      -0.61868     -0.5793      -0.39298     0.3473       
1.01         -0.31163     0.42469      -0.63018     -0.56444     -0.63018     -0.56444     -0.38737     0.35719      
1.02         -0.30314     0.43374      -0.64133     -0.54939     -0.64133     -0.54939     -0.38149     0.36696      
1.03         -0.29438     0.44257      -0.65212     -0.53416     -0.65212     -0.53416     -0.37535     0.37659      
1.04         -0.28537     0.45119      -0.66256     -0.51875     -0.66256     -0.51875     -0.36894     0.38608      
1.05         -0.2761      0.45957      -0.67264     -0.50316     -0.67264     -0.50316     -0.36229     0.39543      
1.06         -0.26659     0.46772      -0.68236     -0.48742     -0.68236     -0.48742     -0.35538     0.40462      
1.07         -0.25684     0.47563      -0.69171     -0.47152     -0.69171     -0.47152     -0.34823     0.41365      
1.08         -0.24686     0.48328      -0.70071     -0.45547     -0.70071     -0.45547     -0.34084     0.42252      
1.09         -0.23666     0.49069      -0.70934     -0.43929     -0.70934     -0.43929     -0.33321     0.43121      
1.1          -0.22624     0.49783      -0.7176      -0.42298     -0.7176      -0.42298     -0.32535     0.43972      
1.11         -0.21561     0.50471      -0.72551     -0.40654     -0.72551     -0.40654     -0.31727     0.44805      
1.12         -0.20478     0.51131      -0.73304     -0.38998     -0.73304     -0.38998     -0.30896     0.4562       
1.13         -0.19375     0.51764      -0.74021     -0.37332     -0.74021     -0.37332     -0.30044     0.46414      
1.14         -0.18255     0.52368      -0.74702     -0.35656     -0.74702     -0.35656     -0.29171     0.47188      
1.15         -0.17116     0.52944      -0.75346     -0.3397      -0.75346     -0.3397      -0.28278     0.47942      
1.16         -0.15961     0.53491      -0.75954     -0.32276     -0.75954     -0.32276     -0.27365     0.48675      
1.17         -0.1479      0.54008      -0.76525     -0.30574     -0.76525     -0.30574     -0.26433     0.49386      
1.18         -0.13604     0.54495      -0.77059     -0.28865     -0.77059     -0.28865     -0.25482     0.50076      
1.19         -0.12403     0.54952      -0.77557     -0.27149     -0.77557     -0.27149     -0.24513     0.50742      
1.2          -0.11189     0.55377      -0.78019     -0.25428     -0.78019     -0.25428     -0.23526     0.51386      
1.21         -0.099628    0.55772      -0.78444     -0.23701     -0.78444     -0.23701     -0.22523     0.52007      
1.22         -0.087245    0.56136      -0.78833     -0.2197      -0.78833     -0.2197      -0.21504     0.52604      
1.23         -0.074755    0.56468      -0.79186     -0.20235     -0.79186     -0.20235     -0.20469     0.53177      
1.24         -0.062165    0.56768      -0.79503     -0.18498     -0.79503     -0.18498     -0.19419     0.53725      
1.25         -0.049484    0.57035      -0.79783     -0.16758     -0.79783     -0.16758     -0.18355     0.54248      
1.26         -0.036722    0.57271      -0.80028     -0.15016     -0.80028     -0.15016     -0.17277     0.54747      
1.27         -0.023887    0.57474      -0.80237     -0.13273     -0.80237     -0.13273     -0.16187     0.5522       
1.28         -0.010988    0.57644      -0.8041      -0.1153      -0.8041      -0.1153      -0.15084     0.55667      
1.29         0.0019661    0.57781      -0.80547     -0.097869    -0.80547     -0.097869    -0.13969     0.56089      
1.3          0.014966     0.57885      -0.80649     -0.080448    -0.80649     -0.080448    -0.12843     0.56484      
1.31         0.028004     0.57957      -0.80716     -0.063043    -0.80716     -0.063043    -0.11707     0.56852      
1.32         0.04107      0.57995      -0.80748     -0.045658    -0.80748     -0.045658    -0.10562     0.57194      
1.33         0.054155     0.58         -0.80744     -0.028301    -0.80744     -0.028301    -0.094076    0.57509      
1.34         0.067251     0.57972      -0.80706     -0.010977    -0.80706     -0.010977    -0.082449    0.57797      
1.35         0.080349     0.57911      -0.80633     0.0063074    -0.80633     0.0063074    -0.070746    0.58057      
1.36         0.093439     0.57816      -0.80526     0.023546     -0.80526     0.023546     -0.058974    0.5829       
1.37         0.10651      0.57688      -0.80384     0.040734     -0.80384     0.040734     -0.04714     0.58495      
1.38         0.11956      0.57528      -0.80209     0.057864     -0.80209     0.057864     -0.035252    0.58673      
1.39         0.13258      0.57334      -0.79999     0.074932     -0.79999     0.074932     -0.023315    0.58823      
1.4          0.14555      0.57108      -0.79755     0.091931     -0.79755     0.091931     -0.011337    0.58945      
1.41         0.15848      0.56849      -0.79479     0.10886      -0.79479     0.10886      0.00067586   0.59038      
1.42         0.17134      0.56557      -0.79168     0.1257       -0.79168     0.1257       0.012716     0.59104      
1.43         0.18414      0.56233      -0.78825     0.14246      -0.78825     0.14246      0.024776     0.59142      
1.44         0.19686      0.55877      -0.78449     0.15913      -0.78449     0.15913      0.03685      0.59151      
1.45         0.20949      0.55489      -0.7804      0.1757       -0.7804      0.1757       0.048931     0.59132      
1.46         0.22203      0.55069      -0.77599     0.19217      -0.77599     0.19217      0.061011     0.59085      
1.47         0.23447      0.54618      -0.77126     0.20853      -0.77126     0.20853      0.073084     0.5901       
1.48         0.2468       0.54136      -0.76621     0.22478      -0.76621     0.22478      0.085143     0.58907      
1.49         0.25901      0.53623      -0.76084     0.24092      -0.76084     0.24092      0.097181     0.58776      
1.5          0.2711       0.53079      -0.75516     0.25693      -0.75516     0.25693      0.10919      0.58616      
1.51         0.28306      0.52505      -0.74917     0.27281      -0.74917     0.27281      0.12117      0.58429      
1.52         0.29487      0.51902      -0.74287     0.28856      -0.74287     0.28856      0.1331       0.58214      
1.53         0.30653      0.51269      -0.73626     0.30417      -0.73626     0.30417      0.14499      0.57971      
1.54         0.31804      0.50607      -0.72935     0.31964      -0.72935     0.31964      0.15682      0.57701      
1.55         0.32938      0.49916      -0.72214     0.33496      -0.72214     0.33496      0.16859      0.57403      
1.56         0.34055      0.49197      -0.71463     0.35013      -0.71463     0.35013      0.18029      0.57078      
1.57         0.35154      0.48451      -0.70683     0.36514      -0.70683     0.36514      0.19192      0.56726      
1.58         0.36235      0.47677      -0.69874     0.37999      -0.69874     0.37999      0.20346      0.56347      
1.59         0.37296      0.46877      -0.69036     0.39467      -0.69036     0.39467      0.21492      0.55941      
1.6          0.38337      0.4605       -0.68169     0.40918      -0.68169     0.40918      0.22628      0.55509      
1.61         0.39358      0.45198      -0.67274     0.42351      -0.67274     0.42351      0.23755      0.5505       
1.62         0.40357      0.4432       -0.66351     0.43766      -0.66351     0.43766      0.2487       0.54565      
1.63         0.41334      0.43418      -0.654       0.45163      -0.654       0.45163      0.25974      0.54055      
1.64         0.42289      0.42492      -0.64423     0.4654       -0.64423     0.4654       0.27066      0.53519      
1.65         0.4322       0.41542      -0.63418     0.47898      -0.63418     0.47898      0.28146      0.52958      
1.66         0.44128      0.4057       -0.62386     0.49236      -0.62386     0.49236      0.29212      0.52372      
1.67         0.45011      0.39576      -0.61328     0.50554      -0.61328     0.50554      0.30265      0.51762      
1.68         0.45869      0.38559      -0.60245     0.5185       -0.60245     0.5185       0.31303      0.51127      
1.69         0.46702      0.37522      -0.59135     0.53126      -0.59135     0.53126      0.32326      0.50468      
1.7          0.47508      0.36465      -0.58        0.5438       -0.58        0.5438       0.33334      0.49786      
1.71         0.48288      0.35388      -0.56841     0.55611      -0.56841     0.55611      0.34325      0.49081      
1.72         0.49041      0.34293      -0.55657     0.5682       -0.55657     0.5682       0.353        0.48353      
1.73         0.49766      0.33179      -0.54448     0.58006      -0.54448     0.58006      0.36257      0.47602      
1.74         0.50463      0.32048      -0.53216     0.59169      -0.53216     0.59169      0.37197      0.4683       
1.75         0.51131      0.309        -0.5196      0.60308      -0.5196      0.60308      0.38118      0.46036      
1.76         0.51771      0.29736      -0.50681     0.61422      -0.50681     0.61422      0.3902       0.45221      
1.77         0.52381      0.28557      -0.4938      0.62512      -0.4938      0.62512      0.39903      0.44385      
1.78         0.52961      0.27363      -0.48056     0.63577      -0.48056     0.63577      0.40766      0.43529      
1.79         0.53511      0.26156      -0.4671      0.64616      -0.4671      0.64616      0.41608      0.42654      
1.8          0.5403       0.24936      -0.45343     0.65629      -0.45343     0.65629      0.42429      0.41759      
1.81         0.54518      0.23703      -0.43954     0.66616      -0.43954     0.66616      0.43229      0.40846      
1.82         0.54975      0.2246       -0.42545     0.67577      -0.42545     0.67577      0.44007      0.39915      
1.83         0.55401      0.21206      -0.41116     0.6851       -0.41116     0.6851       0.44763      0.38965      
1.84         0.55794      0.19942      -0.39666     0.69415      -0.39666     0.69415      0.45496      0.37999      
1.85         0.56156      0.1867       -0.38197     0.70293      -0.38197     0.70293      0.46205      0.37017      
1.86         0.56485      0.1739       -0.36709     0.71143      -0.36709     0.71143      0.46891      0.36018      
1.87         0.56782      0.16102      -0.35203     0.71963      -0.35203     0.71963      0.47553      0.35004      
1.88         0.57045      0.14809      -0.33678     0.72755      -0.33678     0.72755      0.4819       0.33975      
1.89         0.57276      0.1351       -0.32136     0.73518      -0.32136     0.73518      0.48803      0.32932      
1.9          0.57474      0.12206      -0.30576     0.7425       -0.30576     0.7425       0.4939       0.31875      
1.91         0.57638      0.10899      -0.29        0.74952      -0.29        0.74952      0.49951      0.30805      
1.92         0.57769      0.095896     -0.27407     0.75624      -0.27407     0.75624      0.50487      0.29723      
1.93         0.57867      0.08278      -0.25798     0.76265      -0.25798     0.76265      0.50996      0.28629      
1.94         0.57931      0.069654     -0.24174     0.76875      -0.24174     0.76875      0.51478      0.27524      
1.95         0.57961      0.056529     -0.22536     0.77452      -0.22536     0.77452      0.51933      0.26409      
1.96         0.57958      0.043412     -0.20883     0.77998      -0.20883     0.77998      0.52362      0.25284      
1.97         0.57921      0.030312     -0.19216     0.78512      -0.19216     0.78512      0.52762      0.2415       
1.98         0.5785       0.01724      -0.17535     0.78992      -0.17535     0.78992      0.53135      0.23008      
1.99         0.57746      0.0042032    -0.15842     0.7944       -0.15842     0.7944       0.5348       0.21858      
2            0.57608      -0.0087882   -0.14137     0.79854      -0.14137     0.79854      0.53797      0.20701      
2.01         0.57437      -0.021725    -0.1242      0.80234      -0.1242      0.80234      0.54085      0.19538      
2.02         0.57233      -0.034599    -0.10691     0.80581      -0.10691     0.80581      0.54344      0.18369      
2.03         0.56996      -0.0474      -0.089524    0.80892      -0.089524    0.80892      0.54575      0.17195      
2.04         0.56725      -0.060119    -0.072034    0.81169      -0.072034    0.81169      0.54776      0.16018      
2.05         0.56422      -0.072747    -0.05445     0.81411      -0.05445     0.81411      0.54948      0.14837      
2.06         0.56087      -0.085275    -0.036777    0.81618      -0.036777    0.81618      0.55091      0.13654      
2.07         0.55719      -0.097694    -0.019021    0.81788      -0.019021    0.81788      0.55205      0.12469      
2.08         0.55318      -0.10999     -0.0011879   0.81923      -0.0011879   0.81923      0.55289      0.11283      
2.09         0.54887      -0.12217     0.016715     0.82021      0.016715     0.82021      0.55344      0.10096      
2.1          0.54423      -0.1342      0.034683     0.82082      0.034683     0.82082      0.55368      0.089104     
2.11         0.53929      -0.1461      0.052709     0.82107      0.052709     0.82107      0.55364      0.07726      
2.12         0.53404      -0.15783     0.070785     0.82094      0.070785     0.82094      0.55329      0.065437     
2.13         0.52849      -0.16941     0.088907     0.82044      0.088907     0.82044      0.55265      0.053644     
2.14         0.52264      -0.18081     0.10707      0.81955      0.10707      0.81955      0.55171      0.041888     
2.15         0.51649      -0.19203     0.12526      0.81829      0.12526      0.81829      0.55048      0.030177     
