!freq-unit  param-type  data-format  keyword  impedance-ohms
# GHZ           S          RI           R         50
!-----------------------------------------------------------------------------
!Freq          ReS11        ImS11        ReS21        ImS21        ReS12        ImS12        ReS22        ImS22
0.5          -0.16083     -0.11586     0.57327      -0.79269     0.57327      -0.79269     -0.16083     -0.11586     
0.51         -0.16596     -0.1149      0.55788      -0.80267     0.55788      -0.80267     -0.16596     -0.1149      
0.52         -0.1711      -0.11378     0.54231      -0.81233     0.54231      -0.81233     -0.1711      -0.11378     
0.53         -0.17623     -0.11249     0.52657      -0.82168     0.52657      -0.82168     -0.17623     -0.11249     
0.54         -0.18137     -0.11105     0.51068      -0.83072     0.51068      -0.83072     -0.18137     -0.11105     
0.55         -0.18649     -0.10945     0.49464      -0.83943     0.49464      -0.83943     -0.18649     -0.10945     
0.56         -0.1916      -0.10768     0.47845      -0.84783     0.47845      -0.84783     -0.1916      -0.10768     
0.57         -0.19669     -0.10576     0.46212      -0.8559      0.46212      -0.8559      -0.19669     -0.10576     
0.58         -0.20176     -0.10368     0.44567      -0.86364     0.44567      -0.86364     -0.20176     -0.10368     
0.59         -0.20681     -0.10144     0.42908      -0.87105     0.42908      -0.87105     -0.20681     -0.10144     
0.6          -0.21182     -0.099037    0.41239      -0.87814     0.41239      -0.87814     -0.21182     -0.099037    
0.61         -0.2168      -0.09648     0.39558      -0.88489     0.39558      -0.88489     -0.2168      -0.09648     
0.62         -0.22174     -0.093767    0.37867      -0.89131     0.37867      -0.89131     -0.22174     -0.093767    
0.63         -0.22663     -0.090898    0.36166      -0.8974      0.36166      -0.8974      -0.22663     -0.090898    
0.64         -0.23147     -0.087874    0.34456      -0.90315     0.34456      -0.90315     -0.23147     -0.087874    
0.65         -0.23626     -0.084697    0.32738      -0.90857     0.32738      -0.90857     -0.23626     -0.084697    
0.66         -0.241       -0.081369    0.31013      -0.91365     0.31013      -0.91365     -0.241       -0.081369    
0.67         -0.24567     -0.07789     0.2928       -0.91839     0.2928       -0.91839     -0.24567     -0.07789     
0.68         -0.25028     -0.074263    0.27541      -0.92279     0.27541      -0.92279     -0.25028     -0.074263    
0.69         -0.25482     -0.070489    0.25797      -0.92686     0.25797      -0.92686     -0.25482     -0.070489    
0.7          -0.25928     -0.066569    0.24048      -0.93059     0.24048      -0.93059     -0.25928     -0.066569    
0.71         -0.26367     -0.062506    0.22295      -0.93397     0.22295      -0.93397     -0.26367     -0.062506    
0.72         -0.26798     -0.058301    0.20538      -0.93702     0.20538      -0.93702     -0.26798     -0.058301    
0.73         -0.2722      -0.053958    0.18779      -0.93973     0.18779      -0.93973     -0.2722      -0.053958    
0.74         -0.27634     -0.049476    0.17017      -0.94211     0.17017      -0.94211     -0.27634     -0.049476    
0.75         -0.28038     -0.044861    0.15254      -0.94414     0.15254      -0.94414     -0.28038     -0.044861    
0.76         -0.28432     -0.040112    0.1349       -0.94584     0.1349       -0.94584     -0.28432     -0.040112    
0.77         -0.28817     -0.035233    0.11726      -0.9472      0.11726      -0.9472      -0.28817     -0.035233    
0.78         -0.29191     -0.030227    0.09962      -0.94823     0.09962      -0.94823     -0.29191     -0.030227    
0.79         -0.29555     -0.025096    0.081995     -0.94892     0.081995     -0.94892     -0.29555     -0.025096    
0.8          -0.29908     -0.019843    0.064388     -0.94928     0.064388     -0.94928     -0.29908     -0.019843    
0.81         -0.30249     -0.01447     0.046806     -0.94931     0.046806     -0.94931     -0.30249     -0.01447     
0.82         -0.30579     -0.0089804   0.029254     -0.949       0.029254     -0.949       -0.30579     -0.0089804   
0.83         -0.30896     -0.0033772   0.01174      -0.94837     0.01174      -0.94837     -0.30896     -0.0033772   
0.84         -0.31202     0.0023367    -0.0057317   -0.94741     -0.0057317   -0.94741     -0.31202     0.0023367    
0.85         -0.31495     0.0081583    -0.023154    -0.94612     -0.023154    -0.94612     -0.31495     0.0081583    
0.86         -0.31775     0.014084     -0.04052     -0.94451     -0.04052     -0.94451     -0.31775     0.014084     
0.87         -0.32043     0.020112     -0.057824    -0.94258     -0.057824    -0.94258     -0.32043     0.020112     
0.88         -0.32296     0.026237     -0.075061    -0.94033     -0.075061    -0.94033     -0.32296     0.026237     
0.89         -0.32537     0.032457     -0.092225    -0.93776     -0.092225    -0.93776     -0.32537     0.032457     
0.9          -0.32763     0.038769     -0.10931     -0.93487     -0.10931     -0.93487     -0.32763     0.038769     
0.91         -0.32975     0.045168     -0.12631     -0.93167     -0.12631     -0.93167     -0.32975     0.045168     
0.92         -0.33173     0.051652     -0.14321     -0.92816     -0.14321     -0.92816     -0.33173     0.051652     
0.93         -0.33357     0.058217     -0.16003     -0.92434     -0.16003     -0.92434     -0.33357     0.058217     
0.94         -0.33525     0.064859     -0.17673     -0.92022     -0.17673     -0.92022     -0.33525     0.064859     
0.95         -0.33679     0.071575     -0.19333     -0.91579     -0.19333     -0.91579     -0.33679     0.071575     
0.96         -0.33818     0.078361     -0.20982     -0.91107     -0.20982     -0.91107     -0.33818     0.078361     
0.97         -0.33941     0.085213     -0.22619     -0.90605     -0.22619     -0.90605     -0.33941     0.085213     
0.98         -0.34048     0.092127     -0.24244     -0.90073     -0.24244     -0.90073     -0.34048     0.092127     
0.99         -0.3414      0.099101     -0.25855     -0.89513     -0.25855     -0.89513     -0.3414      0.099101     
1            -0.34216     0.10613      -0.27454     -0.88923     -0.27454     -0.88923     -0.34216     0.10613      
1.01         -0.34277     0.11321      -0.29038     -0.88306     -0.29038     -0.88306     -0.34277     0.11321      
1.02         -0.34321     0.12034      -0.30608     -0.8766      -0.30608     -0.8766      -0.34321     0.12034      
1.03         -0.34348     0.12751      -0.32163     -0.86987     -0.32163     -0.86987     -0.34348     0.12751      
1.04         -0.3436      0.13472      -0.33703     -0.86286     -0.33703     -0.86286     -0.3436      0.13472      
1.05         -0.34355     0.14196      -0.35227     -0.85558     -0.35227     -0.85558     -0.34355     0.14196      
1.06         -0.34333     0.14924      -0.36734     -0.84804     -0.36734     -0.84804     -0.34333     0.14924      
1.07         -0.34295     0.15654      -0.38225     -0.84023     -0.38225     -0.84023     -0.34295     0.15654      
1.08         -0.3424      0.16387      -0.39699     -0.83217     -0.39699     -0.83217     -0.3424      0.16387      
1.09         -0.34168     0.17122      -0.41155     -0.82385     -0.41155     -0.82385     -0.34168     0.17122      
1.1          -0.3408      0.17858      -0.42593     -0.81528     -0.42593     -0.81528     -0.3408      0.17858      
1.11         -0.33974     0.18596      -0.44013     -0.80647     -0.44013     -0.80647     -0.33974     0.18596      
1.12         -0.33851     0.19334      -0.45413     -0.79741     -0.45413     -0.79741     -0.33851     0.19334      
1.13         -0.33712     0.20072      -0.46795     -0.78812     -0.46795     -0.78812     -0.33712     0.20072      
1.14         -0.33555     0.20811      -0.48157     -0.77859     -0.48157     -0.77859     -0.33555     0.20811      
1.15         -0.33382     0.21549      -0.49499     -0.76883     -0.49499     -0.76883     -0.33382     0.21549      
1.16         -0.33191     0.22286      -0.50821     -0.75885     -0.50821     -0.75885     -0.33191     0.22286      
1.17         -0.32984     0.23022      -0.52122     -0.74864     -0.52122     -0.74864     -0.32984     0.23022      
1.18         -0.32759     0.23757      -0.53402     -0.73822     -0.53402     -0.73822     -0.32759     0.23757      
1.19         -0.32518     0.24489      -0.5466      -0.72759     -0.5466      -0.72759     -0.32518     0.24489      
1.2          -0.3226      0.25219      -0.55897     -0.71675     -0.55897     -0.71675     -0.3226      0.25219      
1.21         -0.31984     0.25946      -0.57112     -0.7057      -0.57112     -0.7057      -0.31984     0.25946      
1.22         -0.31692     0.2667       -0.58304     -0.69446     -0.58304     -0.69446     -0.31692     0.2667       
1.23         -0.31383     0.27391      -0.59474     -0.68303     -0.59474     -0.68303     -0.31383     0.27391      
1.24         -0.31058     0.28107      -0.60621     -0.6714      -0.60621     -0.6714      -0.31058     0.28107      
1.25         -0.30716     0.28819      -0.61744     -0.65959     -0.61744     -0.65959     -0.30716     0.28819      
1.26         -0.30357     0.29526      -0.62844     -0.6476      -0.62844     -0.6476      -0.30357     0.29526      
1.27         -0.29982     0.30228      -0.63921     -0.63544     -0.63921     -0.63544     -0.29982     0.30228      
1.28         -0.2959      0.30924      -0.64973     -0.62311     -0.64973     -0.62311     -0.2959      0.30924      
1.29         -0.29183     0.31615      -0.66002     -0.61061     -0.66002     -0.61061     -0.29183     0.31615      
1.3          -0.28759     0.32299      -0.67006     -0.59795     -0.67006     -0.59795     -0.28759     0.32299      
1.31         -0.28319     0.32977      -0.67985     -0.58514     -0.67985     -0.58514     -0.28319     0.32977      
1.32         -0.27864     0.33648      -0.68939     -0.57217     -0.68939     -0.57217     -0.27864     0.33648      
1.33         -0.27393     0.34311      -0.69868     -0.55906     -0.69868     -0.55906     -0.27393     0.34311      
1.34         -0.26906     0.34967      -0.70772     -0.54581     -0.70772     -0.54581     -0.26906     0.34967      
1.35         -0.26404     0.35614      -0.71651     -0.53242     -0.71651     -0.53242     -0.26404     0.35614      
1.36         -0.25887     0.36253      -0.72504     -0.5189      -0.72504     -0.5189      -0.25887     0.36253      
1.37         -0.25355     0.36884      -0.73331     -0.50526     -0.73331     -0.50526     -0.25355     0.36884      
1.38         -0.24808     0.37505      -0.74132     -0.49149     -0.74132     -0.49149     -0.24808     0.37505      
1.39         -0.24246     0.38117      -0.74908     -0.47761     -0.74908     -0.47761     -0.24246     0.38117      
1.4          -0.2367      0.38719      -0.75657     -0.46362     -0.75657     -0.46362     -0.2367      0.38719      
1.41         -0.2308      0.39311      -0.76379     -0.44952     -0.76379     -0.44952     -0.2308      0.39311      
1.42         -0.22476     0.39892      -0.77076     -0.43532     -0.77076     -0.43532     -0.22476     0.39892      
1.43         -0.21858     0.40463      -0.77745     -0.42102     -0.77745     -0.42102     -0.21858     0.40463      
1.44         -0.21227     0.41023      -0.78388     -0.40663     -0.78388     -0.40663     -0.21227     0.41023      
1.45         -0.20582     0.41572      -0.79005     -0.39216     -0.79005     -0.39216     -0.20582     0.41572      
1.46         -0.19924     0.42108      -0.79594     -0.3776      -0.79594     -0.3776      -0.19924     0.42108      
1.47         -0.19253     0.42633      -0.80157     -0.36297     -0.80157     -0.36297     -0.19253     0.42633      
1.48         -0.1857      0.43146      -0.80693     -0.34826     -0.80693     -0.34826     -0.1857      0.43146      
1.49         -0.17874     0.43646      -0.81202     -0.33349     -0.81202     -0.33349     -0.17874     0.43646      
1.5          -0.17167     0.44134      -0.81683     -0.31866     -0.81683     -0.31866     -0.17167     0.44134      
1.51         -0.16447     0.44608      -0.82138     -0.30377     -0.82138     -0.30377     -0.16447     0.44608      
1.52         -0.15716     0.45069      -0.82566     -0.28883     -0.82566     -0.28883     -0.15716     0.45069      
1.53         -0.14974     0.45517      -0.82966     -0.27384     -0.82966     -0.27384     -0.14974     0.45517      
1.54         -0.14221     0.4595       -0.8334      -0.25881     -0.8334      -0.25881     -0.14221     0.4595       
1.55         -0.13457     0.4637       -0.83686     -0.24375     -0.83686     -0.24375     -0.13457     0.4637       
1.56         -0.12683     0.46776      -0.84005     -0.22865     -0.84005     -0.22865     -0.12683     0.46776      
1.57         -0.11899     0.47167      -0.84298     -0.21352     -0.84298     -0.21352     -0.11899     0.47167      
1.58         -0.11105     0.47543      -0.84563     -0.19837     -0.84563     -0.19837     -0.11105     0.47543      
1.59         -0.10302     0.47904      -0.84801     -0.1832      -0.84801     -0.1832      -0.10302     0.47904      
1.6          -0.094892    0.4825       -0.85012     -0.16802     -0.85012     -0.16802     -0.094892    0.4825       
1.61         -0.086679    0.48581      -0.85196     -0.15283     -0.85196     -0.15283     -0.086679    0.48581      
1.62         -0.078381    0.48896      -0.85354     -0.13764     -0.85354     -0.13764     -0.078381    0.48896      
1.63         -0.070002    0.49196      -0.85484     -0.12244     -0.85484     -0.12244     -0.070002    0.49196      
1.64         -0.061544    0.49479      -0.85588     -0.10726     -0.85588     -0.10726     -0.061544    0.49479      
1.65         -0.053011    0.49746      -0.85666     -0.092078    -0.85666     -0.092078    -0.053011    0.49746      
1.66         -0.044407    0.49998      -0.85717     -0.076914    -0.85717     -0.076914    -0.044407    0.49998      
1.67         -0.035734    0.50232      -0.85741     -0.061769    -0.85741     -0.061769    -0.035734    0.50232      
1.68         -0.026996    0.50451      -0.85739     -0.046648    -0.85739     -0.046648    -0.026996    0.50451      
1.69         -0.018197    0.50652      -0.85711     -0.031554    -0.85711     -0.031554    -0.018197    0.50652      
1.7          -0.0093393   0.50837      -0.85656     -0.016493    -0.85656     -0.016493    -0.0093393   0.50837      
1.71         -0.00042747  0.51005      -0.85576     -0.0014685   -0.85576     -0.0014685   -0.00042747  0.51005      
1.72         0.0085353    0.51155      -0.8547      0.013515     -0.8547      0.013515     0.0085353    0.51155      
1.73         0.017546     0.51289      -0.85338     0.028453     -0.85338     0.028453     0.017546     0.51289      
1.74         0.0266       0.51405      -0.8518      0.043342     -0.8518      0.043342     0.0266       0.51405      
1.75         0.035694     0.51503      -0.84997     0.058177     -0.84997     0.058177     0.035694     0.51503      
1.76         0.044826     0.51584      -0.84789     0.072954     -0.84789     0.072954     0.044826     0.51584      
1.77         0.05399      0.51648      -0.84556     0.087669     -0.84556     0.087669     0.05399      0.51648      
1.78         0.063184     0.51694      -0.84298     0.10232      -0.84298     0.10232      0.063184     0.51694      
1.79         0.072404     0.51722      -0.84015     0.1169       -0.84015     0.1169       0.072404     0.51722      
1.8          0.081646     0.51732      -0.83707     0.1314       -0.83707     0.1314       0.081646     0.51732      
1.81         0.090907     0.51725      -0.83376     0.14583      -0.83376     0.14583      0.090907     0.51725      
1.82         0.10018      0.517        -0.8302      0.16017      -0.8302      0.16017      0.10018      0.517        
1.83         0.10947      0.51656      -0.8264      0.17443      -0.8264      0.17443      0.10947      0.51656      
1.84         0.11876      0.51595      -0.82236     0.1886       -0.82236     0.1886       0.11876      0.51595      
1.85         0.12806      0.51516      -0.81808     0.20267      -0.81808     0.20267      0.12806      0.51516      
1.86         0.13736      0.51419      -0.81358     0.21665      -0.81358     0.21665      0.13736      0.51419      
1.87         0.14666      0.51303      -0.80884     0.23053      -0.80884     0.23053      0.14666      0.51303      
1.88         0.15595      0.5117       -0.80387     0.2443       -0.80387     0.2443       0.15595      0.5117       
1.89         0.16522      0.51019      -0.79868     0.25797      -0.79868     0.25797      0.16522      0.51019      
1.9          0.17449      0.5085       -0.79326     0.27152      -0.79326     0.27152      0.17449      0.5085       
1.91         0.18373      0.50663      -0.78762     0.28496      -0.78762     0.28496      0.18373      0.50663      
1.92         0.19296      0.50458      -0.78176     0.29828      -0.78176     0.29828      0.19296      0.50458      
1.93         0.20216      0.50235      -0.77569     0.31148      -0.77569     0.31148      0.20216      0.50235      
1.94         0.21133      0.49994      -0.7694      0.32456      -0.7694      0.32456      0.21133      0.49994      
1.95         0.22047      0.49736      -0.7629      0.3375       -0.7629      0.3375       0.22047      0.49736      
1.96         0.22957      0.49459      -0.75619     0.35032      -0.75619     0.35032      0.22957      0.49459      
1.97         0.23863      0.49165      -0.74927     0.363        -0.74927     0.363        0.23863      0.49165      
1.98         0.24765      0.48854      -0.74215     0.37554      -0.74215     0.37554      0.24765      0.48854      
1.99         0.25662      0.48525      -0.73483     0.38794      -0.73483     0.38794      0.25662      0.48525      
2            0.26554      0.48178      -0.72731     0.4002       -0.72731     0.4002       0.26554      0.48178      
2.01         0.27441      0.47815      -0.7196      0.41231      -0.7196      0.41231      0.27441      0.47815      
2.02         0.28322      0.47434      -0.71169     0.42427      -0.71169     0.42427      0.28322      0.47434      
2.03         0.29197      0.47036      -0.70359     0.43609      -0.70359     0.43609      0.29197      0.47036      
2.04         0.30066      0.46621      -0.69531     0.44774      -0.69531     0.44774      0.30066      0.46621      
2.05         0.30928      0.46189      -0.68685     0.45924      -0.68685     0.45924      0.30928      0.46189      
2.06         0.31783      0.4574       -0.6782      0.47058      -0.6782      0.47058      0.31783      0.4574       
2.07         0.3263       0.45275      -0.66937     0.48176      -0.66937     0.48176      0.3263       0.45275      
2.08         0.3347       0.44793      -0.66038     0.49277      -0.66038     0.49277      0.3347       0.44793      
2.09         0.34302      0.44295      -0.65121     0.50361      -0.65121     0.50361      0.34302      0.44295      
2.1          0.35125      0.43781      -0.64187     0.51429      -0.64187     0.51429      0.35125      0.43781      
2.11         0.35939      0.43251      -0.63236     0.52479      -0.63236     0.52479      0.35939      0.43251      
2.12         0.36745      0.42705      -0.6227      0.53511      -0.6227      0.53511      0.36745      0.42705      
2.13         0.37541      0.42143      -0.61287     0.54527      -0.61287     0.54527      0.37541      0.42143      
2.14         0.38328      0.41566      -0.60289     0.55524      -0.60289     0.55524      0.38328      0.41566      
2.15         0.39104      0.40974      -0.59276     0.56503      -0.59276     0.56503      0.39104      0.40974      
