!freq-unit  param-type  data-format  keyword  impedance-ohms
# GHZ           S          RI           R         50
!-----------------------------------------------------------------------------
!Freq          ReS11        ImS11        ReS21        ImS21        ReS12        ImS12        ReS22        ImS22
0.5          -0.60115     0.1124       -0.14384     -0.77433     -0.14384     -0.77433     -0.60115     0.1124       
0.51         -0.60208     0.131        -0.16581     -0.76622     -0.16581     -0.76622     -0.60208     0.131        
0.52         -0.60225     0.14962      -0.18734     -0.75764     -0.18734     -0.75764     -0.60225     0.14962      
0.53         -0.60165     0.16821      -0.20845     -0.74863     -0.20845     -0.74863     -0.60165     0.16821      
0.54         -0.60031     0.18674      -0.22913     -0.73918     -0.22913     -0.73918     -0.60031     0.18674      
0.55         -0.59822     0.2052       -0.24938     -0.72933     -0.24938     -0.72933     -0.59822     0.2052       
0.56         -0.5954      0.22354      -0.26922     -0.71909     -0.26922     -0.71909     -0.5954      0.22354      
0.57         -0.59187     0.24175      -0.28864     -0.70848     -0.28864     -0.70848     -0.59187     0.24175      
0.58         -0.58763     0.25979      -0.30766     -0.6975      -0.30766     -0.6975      -0.58763     0.25979      
0.59         -0.58271     0.27765      -0.32627     -0.68618     -0.32627     -0.68618     -0.58271     0.27765      
0.6          -0.5771      0.29529      -0.34448     -0.67452     -0.34448     -0.67452     -0.5771      0.29529      
0.61         -0.57083     0.3127       -0.3623      -0.66253     -0.3623      -0.66253     -0.57083     0.3127       
0.62         -0.56391     0.32984      -0.37973     -0.65023     -0.37973     -0.65023     -0.56391     0.32984      
0.63         -0.55636     0.34671      -0.39678     -0.63763     -0.39678     -0.63763     -0.55636     0.34671      
0.64         -0.54819     0.36328      -0.41346     -0.62472     -0.41346     -0.62472     -0.54819     0.36328      
0.65         -0.53941     0.37952      -0.42976     -0.61153     -0.42976     -0.61153     -0.53941     0.37952      
0.66         -0.53004     0.39542      -0.44569     -0.59806     -0.44569     -0.59806     -0.53004     0.39542      
0.67         -0.5201      0.41097      -0.46126     -0.58431     -0.46126     -0.58431     -0.5201      0.41097      
0.68         -0.50959     0.42613      -0.47647     -0.57028     -0.47647     -0.57028     -0.50959     0.42613      
0.69         -0.49855     0.4409       -0.49132     -0.55599     -0.49132     -0.55599     -0.49855     0.4409       
0.7          -0.48698     0.45525      -0.50582     -0.54144     -0.50582     -0.54144     -0.48698     0.45525      
0.71         -0.47491     0.46918      -0.51997     -0.52662     -0.51997     -0.52662     -0.47491     0.46918      
0.72         -0.46234     0.48266      -0.53378     -0.51155     -0.53378     -0.51155     -0.46234     0.48266      
0.73         -0.44929     0.49568      -0.54724     -0.49622     -0.54724     -0.49622     -0.44929     0.49568      
0.74         -0.43578     0.50821      -0.56036     -0.48064     -0.56036     -0.48064     -0.43578     0.50821      
0.75         -0.42184     0.52026      -0.57314     -0.4648      -0.57314     -0.4648      -0.42184     0.52026      
0.76         -0.40747     0.5318       -0.58558     -0.44872     -0.58558     -0.44872     -0.40747     0.5318       
0.77         -0.3927      0.54282      -0.59768     -0.43238     -0.59768     -0.43238     -0.3927      0.54282      
0.78         -0.37754     0.55331      -0.60944     -0.41579     -0.60944     -0.41579     -0.37754     0.55331      
0.79         -0.36201     0.56324      -0.62086     -0.39895     -0.62086     -0.39895     -0.36201     0.56324      
0.8          -0.34613     0.57262      -0.63194     -0.38185     -0.63194     -0.38185     -0.34613     0.57262      
0.81         -0.32992     0.58142      -0.64268     -0.3645      -0.64268     -0.3645      -0.32992     0.58142      
0.82         -0.3134      0.58964      -0.65308     -0.34689     -0.65308     -0.34689     -0.3134      0.58964      
0.83         -0.29659     0.59726      -0.66312     -0.32902     -0.66312     -0.32902     -0.29659     0.59726      
0.84         -0.27951     0.60427      -0.67282     -0.3109      -0.67282     -0.3109      -0.27951     0.60427      
0.85         -0.26218     0.61066      -0.68215     -0.29251     -0.68215     -0.29251     -0.26218     0.61066      
0.86         -0.24462     0.61642      -0.69113     -0.27386     -0.69113     -0.27386     -0.24462     0.61642      
0.87         -0.22685     0.62153      -0.69974     -0.25494     -0.69974     -0.25494     -0.22685     0.62153      
0.88         -0.2089      0.626        -0.70798     -0.23576     -0.70798     -0.23576     -0.2089      0.626        
0.89         -0.19078     0.6298       -0.71584     -0.2163      -0.71584     -0.2163      -0.19078     0.6298       
0.9          -0.17253     0.63293      -0.7233      -0.19657     -0.7233      -0.19657     -0.17253     0.63293      
0.91         -0.15416     0.63538      -0.73037     -0.17656     -0.73037     -0.17656     -0.15416     0.63538      
0.92         -0.13569     0.63715      -0.73704     -0.15628     -0.73704     -0.15628     -0.13569     0.63715      
0.93         -0.11717     0.63822      -0.74328     -0.13571     -0.74328     -0.13571     -0.11717     0.63822      
0.94         -0.098599    0.63858      -0.7491      -0.11487     -0.7491      -0.11487     -0.098599    0.63858      
0.95         -0.080017    0.63824      -0.75448     -0.093739    -0.75448     -0.093739    -0.080017    0.63824      
0.96         -0.061448    0.63718      -0.7594      -0.072326    -0.7594      -0.072326    -0.061448    0.63718      
0.97         -0.04292     0.6354       -0.76385     -0.050627    -0.76385     -0.050627    -0.04292     0.6354       
0.98         -0.024462    0.63289      -0.76781     -0.028643    -0.76781     -0.028643    -0.024462    0.63289      
0.99         -0.006102    0.62965      -0.77128     -0.0063739   -0.77128     -0.0063739   -0.006102    0.62965      
1            0.012129     0.62568      -0.77423     0.016179     -0.77423     0.016179     0.012129     0.62568      
1.01         0.0302       0.62098      -0.77664     0.039015     -0.77664     0.039015     0.0302       0.62098      
1.02         0.048079     0.61554      -0.7785      0.062131     -0.7785      0.062131     0.048079     0.61554      
1.03         0.065734     0.60936      -0.77978     0.085524     -0.77978     0.085524     0.065734     0.60936      
1.04         0.083131     0.60246      -0.78047     0.10919      -0.78047     0.10919      0.083131     0.60246      
1.05         0.10024      0.59482      -0.78054     0.13312      -0.78054     0.13312      0.10024      0.59482      
1.06         0.11701      0.58645      -0.77996     0.15731      -0.77996     0.15731      0.11701      0.58645      
1.07         0.13343      0.57736      -0.77872     0.18176      -0.77872     0.18176      0.13343      0.57736      
1.08         0.14944      0.56756      -0.77679     0.20645      -0.77679     0.20645      0.14944      0.56756      
1.09         0.16502      0.55705      -0.77415     0.23136      -0.77415     0.23136      0.16502      0.55705      
1.1          0.18012      0.54584      -0.77076     0.2565       -0.77076     0.2565       0.18012      0.54584      
1.11         0.19471      0.53396      -0.76659     0.28184      -0.76659     0.28184      0.19471      0.53396      
1.12         0.20874      0.52141      -0.76163     0.30737      -0.76163     0.30737      0.20874      0.52141      
1.13         0.22218      0.50821      -0.75584     0.33307      -0.75584     0.33307      0.22218      0.50821      
1.14         0.23499      0.49439      -0.7492      0.35891      -0.7492      0.35891      0.23499      0.49439      
1.15         0.24712      0.47995      -0.74167     0.38488      -0.74167     0.38488      0.24712      0.47995      
1.16         0.25854      0.46494      -0.73322     0.41094      -0.73322     0.41094      0.25854      0.46494      
1.17         0.2692       0.44937      -0.72382     0.43708      -0.72382     0.43708      0.2692       0.44937      
1.18         0.27907      0.43328      -0.71345     0.46324      -0.71345     0.46324      0.27907      0.43328      
1.19         0.28811      0.41671      -0.70207     0.48941      -0.70207     0.48941      0.28811      0.41671      
1.2          0.29627      0.39969      -0.68966     0.51554      -0.68966     0.51554      0.29627      0.39969      
1.21         0.30352      0.38226      -0.67619     0.54159      -0.67619     0.54159      0.30352      0.38226      
1.22         0.30982      0.36446      -0.66163     0.56751      -0.66163     0.56751      0.30982      0.36446      
1.23         0.31514      0.34636      -0.64596     0.59327      -0.64596     0.59327      0.31514      0.34636      
1.24         0.31944      0.32799      -0.62915     0.61879      -0.62915     0.61879      0.31944      0.32799      
1.25         0.3227       0.30941      -0.61118     0.64404      -0.61118     0.64404      0.3227       0.30941      
1.26         0.32489      0.29068      -0.59204     0.66894      -0.59204     0.66894      0.32489      0.29068      
1.27         0.32597      0.27187      -0.57171     0.69344      -0.57171     0.69344      0.32597      0.27187      
1.28         0.32594      0.25305      -0.55018     0.71748      -0.55018     0.71748      0.32594      0.25305      
1.29         0.32476      0.23427      -0.52743     0.74097      -0.52743     0.74097      0.32476      0.23427      
1.3          0.32244      0.21562      -0.50348     0.76386      -0.50348     0.76386      0.32244      0.21562      
1.31         0.31895      0.19717      -0.47831     0.78606      -0.47831     0.78606      0.31895      0.19717      
1.32         0.3143       0.17899      -0.45193     0.80749      -0.45193     0.80749      0.3143       0.17899      
1.33         0.3085       0.16118      -0.42436     0.82808      -0.42436     0.82808      0.3085       0.16118      
1.34         0.30154      0.14381      -0.39561     0.84775      -0.39561     0.84775      0.30154      0.14381      
1.35         0.29345      0.12697      -0.36571     0.86641      -0.36571     0.86641      0.29345      0.12697      
1.36         0.28424      0.11073      -0.3347      0.88397      -0.3347      0.88397      0.28424      0.11073      
1.37         0.27396      0.095196     -0.3026      0.90036      -0.3026      0.90036      0.27396      0.095196     
1.38         0.26262      0.080439     -0.26947     0.91549      -0.26947     0.91549      0.26262      0.080439     
1.39         0.25029      0.066544     -0.23535     0.92928      -0.23535     0.92928      0.25029      0.066544     
1.4          0.23701      0.053594     -0.20032     0.94165      -0.20032     0.94165      0.23701      0.053594     
1.41         0.22284      0.041667     -0.16443     0.95253      -0.16443     0.95253      0.22284      0.041667     
1.42         0.20785      0.030835     -0.12777     0.96183      -0.12777     0.96183      0.20785      0.030835     
1.43         0.19211      0.02117      -0.090425    0.9695       -0.090425    0.9695       0.19211      0.02117      
1.44         0.17571      0.012736     -0.052476    0.97547      -0.052476    0.97547      0.17571      0.012736     
1.45         0.15874      0.0055898    -0.014025    0.97968      -0.014025    0.97968      0.15874      0.0055898    
1.46         0.14128      -0.00021688  0.024825     0.98209      0.024825     0.98209      0.14128      -0.00021688  
1.47         0.12345      -0.0046411   0.063965     0.98266      0.063965     0.98266      0.12345      -0.0046411   
1.48         0.10534      -0.0076485   0.10328      0.98134      0.10328      0.98134      0.10534      -0.0076485   
1.49         0.08707      -0.0092135   0.14266      0.97813      0.14266      0.97813      0.08707      -0.0092135   
1.5          0.068744     -0.0093203   0.18197      0.973        0.18197      0.973        0.068744     -0.0093203   
1.51         0.050478     -0.0079631   0.2211       0.96595      0.2211       0.96595      0.050478     -0.0079631   
1.52         0.032386     -0.0051462   0.25993      0.957        0.25993      0.957        0.032386     -0.0051462   
1.53         0.014582     -0.00088419  0.29832      0.94615      0.29832      0.94615      0.014582     -0.00088419  
1.54         -0.0028206   0.0047979    0.33617      0.93343      0.33617      0.93343      -0.0028206   0.0047979    
1.55         -0.019713    0.011865     0.37335      0.91888      0.37335      0.91888      -0.019713    0.011865     
1.56         -0.035987    0.020273     0.40975      0.90256      0.40975      0.90256      -0.035987    0.020273     
1.57         -0.051542    0.029967     0.44525      0.88451      0.44525      0.88451      -0.051542    0.029967     
1.58         -0.066281    0.040884     0.47976      0.86481      0.47976      0.86481      -0.066281    0.040884     
1.59         -0.080115    0.052954     0.51318      0.84352      0.51318      0.84352      -0.080115    0.052954     
1.6          -0.092961    0.066099     0.5454       0.82072      0.5454       0.82072      -0.092961    0.066099     
1.61         -0.10474     0.080234     0.57636      0.79652      0.57636      0.79652      -0.10474     0.080234     
1.62         -0.1154      0.095269     0.60598      0.77099      0.60598      0.77099      -0.1154      0.095269     
1.63         -0.12487     0.11111      0.63419      0.74424      0.63419      0.74424      -0.12487     0.11111      
1.64         -0.1331      0.12766      0.66093      0.71637      0.66093      0.71637      -0.1331      0.12766      
1.65         -0.14005     0.14481      0.68616      0.68748      0.68616      0.68748      -0.14005     0.14481      
1.66         -0.14571     0.16248      0.70984      0.65768      0.70984      0.65768      -0.14571     0.16248      
1.67         -0.15003     0.18054      0.73194      0.62708      0.73194      0.62708      -0.15003     0.18054      
1.68         -0.15302     0.19891      0.75244      0.59577      0.75244      0.59577      -0.15302     0.19891      
1.69         -0.15467     0.21748      0.77133      0.56387      0.77133      0.56387      -0.15467     0.21748      
1.7          -0.15498     0.23615      0.78861      0.53147      0.78861      0.53147      -0.15498     0.23615      
1.71         -0.15397     0.25483      0.80428      0.49868      0.80428      0.49868      -0.15397     0.25483      
1.72         -0.15166     0.27342      0.81835      0.4656       0.81835      0.4656       -0.15166     0.27342      
1.73         -0.14807     0.29184      0.83084      0.43231      0.83084      0.43231      -0.14807     0.29184      
1.74         -0.14323     0.31001      0.84177      0.39891      0.84177      0.39891      -0.14323     0.31001      
1.75         -0.13718     0.32784      0.85118      0.36548      0.85118      0.36548      -0.13718     0.32784      
1.76         -0.12997     0.34525      0.8591       0.3321       0.8591       0.3321       -0.12997     0.34525      
1.77         -0.12164     0.36219      0.86557      0.29883      0.86557      0.29883      -0.12164     0.36219      
1.78         -0.11224     0.37858      0.87063      0.26576      0.87063      0.26576      -0.11224     0.37858      
1.79         -0.10183     0.39438      0.87432      0.23294      0.87432      0.23294      -0.10183     0.39438      
1.8          -0.090458    0.40952      0.8767       0.20044      0.8767       0.20044      -0.090458    0.40952      
1.81         -0.078182    0.42396      0.87781      0.1683       0.87781      0.1683       -0.078182    0.42396      
1.82         -0.065063    0.43765      0.8777       0.13656      0.8777       0.13656      -0.065063    0.43765      
1.83         -0.051159    0.45057      0.87643      0.10529      0.87643      0.10529      -0.051159    0.45057      
1.84         -0.036529    0.46267      0.87405      0.074506     0.87405      0.074506     -0.036529    0.46267      
1.85         -0.021234    0.47394      0.8706       0.044247     0.8706       0.044247     -0.021234    0.47394      
1.86         -0.0053339   0.48434      0.86614      0.014543     0.86614      0.014543     -0.0053339   0.48434      
1.87         0.011114     0.49387      0.86072      -0.014583    0.86072      -0.014583    0.011114     0.49387      
1.88         0.02805      0.5025       0.8544       -0.04311     0.8544       -0.04311     0.02805      0.5025       
1.89         0.045418     0.51022      0.84721      -0.07102     0.84721      -0.07102     0.045418     0.51022      
1.9          0.063163     0.51704      0.83921      -0.0983      0.83921      -0.0983      0.063163     0.51704      
1.91         0.08123      0.52293      0.83045      -0.12494     0.83045      -0.12494     0.08123      0.52293      
1.92         0.099567     0.52792      0.82096      -0.15093     0.82096      -0.15093     0.099567     0.52792      
1.93         0.11812      0.53198      0.8108       -0.17627     0.8108       -0.17627     0.11812      0.53198      
1.94         0.13685      0.53514      0.8          -0.20095     0.8          -0.20095     0.13685      0.53514      
1.95         0.15569      0.53739      0.7886       -0.22497     0.7886       -0.22497     0.15569      0.53739      
1.96         0.17462      0.53874      0.77664      -0.24833     0.77664      -0.24833     0.17462      0.53874      
1.97         0.19357      0.53921      0.76415      -0.27104     0.76415      -0.27104     0.19357      0.53921      
1.98         0.21252      0.53881      0.75117      -0.29311     0.75117      -0.29311     0.21252      0.53881      
1.99         0.23142      0.53755      0.73773      -0.31452     0.73773      -0.31452     0.23142      0.53755      
2            0.25022      0.53545      0.72387      -0.3353      0.72387      -0.3353      0.25022      0.53545      
2.01         0.26891      0.53252      0.7096       -0.35545     0.7096       -0.35545     0.26891      0.53252      
2.02         0.28744      0.52877      0.69496      -0.37498     0.69496      -0.37498     0.28744      0.52877      
2.03         0.30577      0.52424      0.67997      -0.39389     0.67997      -0.39389     0.30577      0.52424      
2.04         0.32388      0.51893      0.66465      -0.4122      0.66465      -0.4122      0.32388      0.51893      
2.05         0.34174      0.51287      0.64903      -0.42991     0.64903      -0.42991     0.34174      0.51287      
2.06         0.35932      0.50607      0.63312      -0.44705     0.63312      -0.44705     0.35932      0.50607      
2.07         0.37659      0.49856      0.61694      -0.4636      0.61694      -0.4636      0.37659      0.49856      
2.08         0.39353      0.49036      0.60052      -0.4796      0.60052      -0.4796      0.39353      0.49036      
2.09         0.4101       0.48148      0.58386      -0.49504     0.58386      -0.49504     0.4101       0.48148      
2.1          0.4263       0.47196      0.56698      -0.50994     0.56698      -0.50994     0.4263       0.47196      
2.11         0.4421       0.4618       0.5499       -0.5243      0.5499       -0.5243      0.4421       0.4618       
2.12         0.45747      0.45104      0.53262      -0.53814     0.53262      -0.53814     0.45747      0.45104      
2.13         0.4724       0.4397       0.51515      -0.55147     0.51515      -0.55147     0.4724       0.4397       
2.14         0.48687      0.42779      0.49752      -0.5643      0.49752      -0.5643      0.48687      0.42779      
2.15         0.50086      0.41534      0.47971      -0.57663     0.47971      -0.57663     0.50086      0.41534      
