!freq-unit  param-type  data-format  keyword  impedance-ohms
# GHZ           S          RI           R         50
!-----------------------------------------------------------------------------
!Freq          ReS11        ImS11        ReS21        ImS21        ReS12        ImS12        ReS22        ImS22
0.5          -0.44999     -0.10941     0.2102       -0.85824     0.2102       -0.85824     -0.44999     -0.10941     
0.51         -0.45875     -0.099708    0.18836      -0.85982     0.18836      -0.85982     -0.45875     -0.099708    
0.52         -0.46719     -0.089656    0.16666      -0.86085     0.16666      -0.86085     -0.46719     -0.089656    
0.53         -0.47527     -0.079275    0.14509      -0.86132     0.14509      -0.86132     -0.47527     -0.079275    
0.54         -0.48301     -0.068579    0.12368      -0.86126     0.12368      -0.86126     -0.48301     -0.068579    
0.55         -0.49038     -0.057584    0.10243      -0.86066     0.10243      -0.86066     -0.49038     -0.057584    
0.56         -0.49737     -0.046305    0.081367     -0.85956     0.081367     -0.85956     -0.49737     -0.046305    
0.57         -0.50399     -0.034759    0.060489     -0.85794     0.060489     -0.85794     -0.50399     -0.034759    
0.58         -0.51022     -0.022961    0.03981      -0.85584     0.03981      -0.85584     -0.51022     -0.022961    
0.59         -0.51607     -0.010926    0.019339     -0.85326     0.019339     -0.85326     -0.51607     -0.010926    
0.6          -0.52151     0.001329     -0.00091429  -0.85021     -0.00091429  -0.85021     -0.52151     0.001329     
0.61         -0.52655     0.01379      -0.020942    -0.84671     -0.020942    -0.84671     -0.52655     0.01379      
0.62         -0.53119     0.02644      -0.040736    -0.84276     -0.040736    -0.84276     -0.53119     0.02644      
0.63         -0.53542     0.039266     -0.060289    -0.83838     -0.060289    -0.83838     -0.53542     0.039266     
0.64         -0.53923     0.05225      -0.079594    -0.83358     -0.079594    -0.83358     -0.53923     0.05225      
0.65         -0.54263     0.065379     -0.098645    -0.82838     -0.098645    -0.82838     -0.54263     0.065379     
0.66         -0.54562     0.078637     -0.11744     -0.82277     -0.11744     -0.82277     -0.54562     0.078637     
0.67         -0.54819     0.09201      -0.13596     -0.81679     -0.13596     -0.81679     -0.54819     0.09201      
0.68         -0.55033     0.10548      -0.15422     -0.81042     -0.15422     -0.81042     -0.55033     0.10548      
0.69         -0.55207     0.11904      -0.1722      -0.8037      -0.1722      -0.8037      -0.55207     0.11904      
0.7          -0.55338     0.13267      -0.1899      -0.79663     -0.1899      -0.79663     -0.55338     0.13267      
0.71         -0.55427     0.14636      -0.20732     -0.78921     -0.20732     -0.78921     -0.55427     0.14636      
0.72         -0.55475     0.16009      -0.22445     -0.78146     -0.22445     -0.78146     -0.55475     0.16009      
0.73         -0.55481     0.17385      -0.24129     -0.7734      -0.24129     -0.7734      -0.55481     0.17385      
0.74         -0.55446     0.18763      -0.25784     -0.76502     -0.25784     -0.76502     -0.55446     0.18763      
0.75         -0.5537      0.20142      -0.2741      -0.75635     -0.2741      -0.75635     -0.5537      0.20142      
0.76         -0.55253     0.21519      -0.29006     -0.74739     -0.29006     -0.74739     -0.55253     0.21519      
0.77         -0.55095     0.22895      -0.30572     -0.73814     -0.30572     -0.73814     -0.55095     0.22895      
0.78         -0.54897     0.24267      -0.32108     -0.72863     -0.32108     -0.72863     -0.54897     0.24267      
0.79         -0.54659     0.25635      -0.33614     -0.71886     -0.33614     -0.71886     -0.54659     0.25635      
0.8          -0.54381     0.26997      -0.3509      -0.70884     -0.3509      -0.70884     -0.54381     0.26997      
0.81         -0.54065     0.28352      -0.36535     -0.69857     -0.36535     -0.69857     -0.54065     0.28352      
0.82         -0.53709     0.297        -0.3795      -0.68807     -0.3795      -0.68807     -0.53709     0.297        
0.83         -0.53316     0.31038      -0.39334     -0.67734     -0.39334     -0.67734     -0.53316     0.31038      
0.84         -0.52884     0.32366      -0.40688     -0.6664      -0.40688     -0.6664      -0.52884     0.32366      
0.85         -0.52416     0.33684      -0.42012     -0.65525     -0.42012     -0.65525     -0.52416     0.33684      
0.86         -0.5191      0.34989      -0.43304     -0.6439      -0.43304     -0.6439      -0.5191      0.34989      
0.87         -0.51368     0.36281      -0.44566     -0.63235     -0.44566     -0.63235     -0.51368     0.36281      
0.88         -0.50791     0.37559      -0.45798     -0.62062     -0.45798     -0.62062     -0.50791     0.37559      
0.89         -0.50179     0.38822      -0.46999     -0.60871     -0.46999     -0.60871     -0.50179     0.38822      
0.9          -0.49532     0.40069      -0.4817      -0.59663     -0.4817      -0.59663     -0.49532     0.40069      
0.91         -0.48852     0.413        -0.4931      -0.58439     -0.4931      -0.58439     -0.48852     0.413        
0.92         -0.48138     0.42512      -0.5042      -0.57199     -0.5042      -0.57199     -0.48138     0.42512      
0.93         -0.47391     0.43707      -0.515       -0.55943     -0.515       -0.55943     -0.47391     0.43707      
0.94         -0.46613     0.44882      -0.52549     -0.54674     -0.52549     -0.54674     -0.46613     0.44882      
0.95         -0.45804     0.46037      -0.53569     -0.5339      -0.53569     -0.5339      -0.45804     0.46037      
0.96         -0.44964     0.47172      -0.54558     -0.52094     -0.54558     -0.52094     -0.44964     0.47172      
0.97         -0.44094     0.48285      -0.55518     -0.50785     -0.55518     -0.50785     -0.44094     0.48285      
0.98         -0.43195     0.49376      -0.56447     -0.49463     -0.56447     -0.49463     -0.43195     0.49376      
0.99         -0.42267     0.50444      -0.57347     -0.48131     -0.57347     -0.48131     -0.42267     0.50444      
1            -0.41312     0.51488      -0.58218     -0.46787     -0.58218     -0.46787     -0.41312     0.51488      
1.01         -0.4033      0.52508      -0.59059     -0.45434     -0.59059     -0.45434     -0.4033      0.52508      
1.02         -0.39321     0.53504      -0.5987      -0.4407      -0.5987      -0.4407      -0.39321     0.53504      
1.03         -0.38288     0.54474      -0.60653     -0.42697     -0.60653     -0.42697     -0.38288     0.54474      
1.04         -0.37229     0.55418      -0.61406     -0.41316     -0.61406     -0.41316     -0.37229     0.55418      
1.05         -0.36146     0.56336      -0.62131     -0.39926     -0.62131     -0.39926     -0.36146     0.56336      
1.06         -0.3504      0.57227      -0.62826     -0.38528     -0.62826     -0.38528     -0.3504      0.57227      
1.07         -0.33912     0.58091      -0.63493     -0.37123     -0.63493     -0.37123     -0.33912     0.58091      
1.08         -0.32762     0.58926      -0.64131     -0.35711     -0.64131     -0.35711     -0.32762     0.58926      
1.09         -0.31591     0.59733      -0.64741     -0.34292     -0.64741     -0.34292     -0.31591     0.59733      
1.1          -0.304       0.60511      -0.65323     -0.32868     -0.65323     -0.32868     -0.304       0.60511      
1.11         -0.2919      0.6126       -0.65876     -0.31438     -0.65876     -0.31438     -0.2919      0.6126       
1.12         -0.27961     0.61979      -0.66402     -0.30002     -0.66402     -0.30002     -0.27961     0.61979      
1.13         -0.26714     0.62668      -0.66899     -0.28562     -0.66899     -0.28562     -0.26714     0.62668      
1.14         -0.25451     0.63327      -0.67368     -0.27117     -0.67368     -0.27117     -0.25451     0.63327      
1.15         -0.24171     0.63955      -0.6781      -0.25669     -0.6781      -0.25669     -0.24171     0.63955      
1.16         -0.22876     0.64552      -0.68225     -0.24217     -0.68225     -0.24217     -0.22876     0.64552      
1.17         -0.21566     0.65117      -0.68611     -0.22761     -0.68611     -0.22761     -0.21566     0.65117      
1.18         -0.20243     0.65651      -0.68971     -0.21302     -0.68971     -0.21302     -0.20243     0.65651      
1.19         -0.18907     0.66153      -0.69303     -0.19841     -0.69303     -0.19841     -0.18907     0.66153      
1.2          -0.17559     0.66623      -0.69609     -0.18378     -0.69609     -0.18378     -0.17559     0.66623      
1.21         -0.16199     0.6706       -0.69887     -0.16913     -0.69887     -0.16913     -0.16199     0.6706       
1.22         -0.14829     0.67465      -0.70138     -0.15446     -0.70138     -0.15446     -0.14829     0.67465      
1.23         -0.1345      0.67837      -0.70363     -0.13978     -0.70363     -0.13978     -0.1345      0.67837      
1.24         -0.12061     0.68176      -0.70561     -0.12509     -0.70561     -0.12509     -0.12061     0.68176      
1.25         -0.10665     0.68482      -0.70732     -0.1104      -0.70732     -0.1104      -0.10665     0.68482      
1.26         -0.092613    0.68754      -0.70877     -0.095703    -0.70877     -0.095703    -0.092613    0.68754      
1.27         -0.078513    0.68994      -0.70996     -0.081007    -0.70996     -0.081007    -0.078513    0.68994      
1.28         -0.064357    0.69199      -0.71088     -0.066314    -0.71088     -0.066314    -0.064357    0.69199      
1.29         -0.050154    0.69371      -0.71154     -0.051628    -0.71154     -0.051628    -0.050154    0.69371      
1.3          -0.035911    0.6951       -0.71194     -0.036952    -0.71194     -0.036952    -0.035911    0.6951       
1.31         -0.021637    0.69615      -0.71208     -0.022288    -0.71208     -0.022288    -0.021637    0.69615      
1.32         -0.0073393   0.69686      -0.71196     -0.0076395   -0.71196     -0.0076395   -0.0073393   0.69686      
1.33         0.006973     0.69723      -0.71159     0.0069905    -0.71159     0.0069905    0.006973     0.69723      
1.34         0.021292     0.69726      -0.71095     0.021599     -0.71095     0.021599     0.021292     0.69726      
1.35         0.03561      0.69696      -0.71006     0.036183     -0.71006     0.036183     0.03561      0.69696      
1.36         0.049919     0.69632      -0.70891     0.050741     -0.70891     0.050741     0.049919     0.69632      
1.37         0.064211     0.69534      -0.70751     0.065268     -0.70751     0.065268     0.064211     0.69534      
1.38         0.078477     0.69402      -0.70585     0.079763     -0.70585     0.079763     0.078477     0.69402      
1.39         0.092709     0.69237      -0.70393     0.094222     -0.70393     0.094222     0.092709     0.69237      
1.4          0.1069       0.69039      -0.70176     0.10864      -0.70176     0.10864      0.1069       0.69039      
1.41         0.12104      0.68807      -0.69934     0.12302      -0.69934     0.12302      0.12104      0.68807      
1.42         0.13513      0.68542      -0.69666     0.13736      -0.69666     0.13736      0.13513      0.68542      
1.43         0.14915      0.68243      -0.69374     0.15165      -0.69374     0.15165      0.14915      0.68243      
1.44         0.16309      0.67912      -0.69056     0.16588      -0.69056     0.16588      0.16309      0.67912      
1.45         0.17696      0.67548      -0.68712     0.18007      -0.68712     0.18007      0.17696      0.67548      
1.46         0.19073      0.67152      -0.68344     0.1942       -0.68344     0.1942       0.19073      0.67152      
1.47         0.20441      0.66723      -0.67951     0.20827      -0.67951     0.20827      0.20441      0.66723      
1.48         0.21798      0.66261      -0.67532     0.22228      -0.67532     0.22228      0.21798      0.66261      
1.49         0.23145      0.65768      -0.67088     0.23623      -0.67088     0.23623      0.23145      0.65768      
1.5          0.24479      0.65243      -0.6662      0.25011      -0.6662      0.25011      0.24479      0.65243      
1.51         0.258        0.64687      -0.66126     0.26392      -0.66126     0.26392      0.258        0.64687      
1.52         0.27108      0.641        -0.65607     0.27765      -0.65607     0.27765      0.27108      0.641        
1.53         0.28401      0.63481      -0.65064     0.29131      -0.65064     0.29131      0.28401      0.63481      
1.54         0.2968       0.62833      -0.64495     0.30489      -0.64495     0.30489      0.2968       0.62833      
1.55         0.30942      0.62154      -0.63901     0.31839      -0.63901     0.31839      0.30942      0.62154      
1.56         0.32188      0.61445      -0.63283     0.3318       -0.63283     0.3318       0.32188      0.61445      
1.57         0.33417      0.60707      -0.6264      0.34513      -0.6264      0.34513      0.33417      0.60707      
1.58         0.34628      0.59939      -0.61971     0.35836      -0.61971     0.35836      0.34628      0.59939      
1.59         0.3582       0.59143      -0.61278     0.37149      -0.61278     0.37149      0.3582       0.59143      
1.6          0.36992      0.58319      -0.6056      0.38453      -0.6056      0.38453      0.36992      0.58319      
1.61         0.38144      0.57467      -0.59816     0.39746      -0.59816     0.39746      0.38144      0.57467      
1.62         0.39275      0.56587      -0.59048     0.41029      -0.59048     0.41029      0.39275      0.56587      
1.63         0.40384      0.55681      -0.58255     0.42301      -0.58255     0.42301      0.40384      0.55681      
1.64         0.41471      0.54748      -0.57438     0.43562      -0.57438     0.43562      0.41471      0.54748      
1.65         0.42535      0.53789      -0.56595     0.4481       -0.56595     0.4481       0.42535      0.53789      
1.66         0.43575      0.52804      -0.55727     0.46047      -0.55727     0.46047      0.43575      0.52804      
1.67         0.44591      0.51795      -0.54834     0.47272      -0.54834     0.47272      0.44591      0.51795      
1.68         0.45581      0.50762      -0.53917     0.48483      -0.53917     0.48483      0.45581      0.50762      
1.69         0.46546      0.49704      -0.52974     0.49682      -0.52974     0.49682      0.46546      0.49704      
1.7          0.47484      0.48624      -0.52007     0.50866      -0.52007     0.50866      0.47484      0.48624      
1.71         0.48395      0.47521      -0.51015     0.52037      -0.51015     0.52037      0.48395      0.47521      
1.72         0.49279      0.46396      -0.49998     0.53193      -0.49998     0.53193      0.49279      0.46396      
1.73         0.50134      0.45249      -0.48956     0.54334      -0.48956     0.54334      0.50134      0.45249      
1.74         0.50959      0.44082      -0.47889     0.5546       -0.47889     0.5546       0.50959      0.44082      
1.75         0.51756      0.42895      -0.46797     0.5657       -0.46797     0.5657       0.51756      0.42895      
1.76         0.52522      0.41689      -0.4568      0.57663      -0.4568      0.57663      0.52522      0.41689      
1.77         0.53257      0.40465      -0.44538     0.5874       -0.44538     0.5874       0.53257      0.40465      
1.78         0.5396       0.39222      -0.43372     0.598        -0.43372     0.598        0.5396       0.39222      
1.79         0.54632      0.37963      -0.42181     0.60841      -0.42181     0.60841      0.54632      0.37963      
1.8          0.55271      0.36687      -0.40965     0.61865      -0.40965     0.61865      0.55271      0.36687      
1.81         0.55877      0.35396      -0.39724     0.62869      -0.39724     0.62869      0.55877      0.35396      
1.82         0.5645       0.3409       -0.38459     0.63855      -0.38459     0.63855      0.5645       0.3409       
1.83         0.56988      0.32771      -0.37169     0.6482       -0.37169     0.6482       0.56988      0.32771      
1.84         0.57491      0.31438      -0.35854     0.65764      -0.35854     0.65764      0.57491      0.31438      
1.85         0.5796       0.30094      -0.34515     0.66688      -0.34515     0.66688      0.5796       0.30094      
1.86         0.58393      0.28738      -0.33152     0.6759       -0.33152     0.6759       0.58393      0.28738      
1.87         0.58789      0.27372      -0.31764     0.68469      -0.31764     0.68469      0.58789      0.27372      
1.88         0.5915       0.25997      -0.30352     0.69326      -0.30352     0.69326      0.5915       0.25997      
1.89         0.59473      0.24614      -0.28916     0.70159      -0.28916     0.70159      0.59473      0.24614      
1.9          0.59759      0.23223      -0.27456     0.70968      -0.27456     0.70968      0.59759      0.23223      
1.91         0.60008      0.21826      -0.25972     0.71752      -0.25972     0.71752      0.60008      0.21826      
1.92         0.60218      0.20424      -0.24464     0.7251       -0.24464     0.7251       0.60218      0.20424      
1.93         0.6039       0.19018      -0.22932     0.73242      -0.22932     0.73242      0.6039       0.19018      
1.94         0.60524      0.17608      -0.21378     0.73947      -0.21378     0.73947      0.60524      0.17608      
1.95         0.60618      0.16197      -0.198       0.74624      -0.198       0.74624      0.60618      0.16197      
1.96         0.60674      0.14784      -0.18199     0.75273      -0.18199     0.75273      0.60674      0.14784      
1.97         0.6069       0.13372      -0.16575     0.75893      -0.16575     0.75893      0.6069       0.13372      
1.98         0.60666      0.11961      -0.14929     0.76482      -0.14929     0.76482      0.60666      0.11961      
1.99         0.60603      0.10552      -0.1326      0.77041      -0.1326      0.77041      0.60603      0.10552      
2            0.60499      0.091477     -0.1157      0.77568      -0.1157      0.77568      0.60499      0.091477     
2.01         0.60356      0.077479     -0.098578    0.78063      -0.098578    0.78063      0.60356      0.077479     
2.02         0.60173      0.063543     -0.081246    0.78525      -0.081246    0.78525      0.60173      0.063543     
2.03         0.59949      0.049681     -0.063704    0.78952      -0.063704    0.78952      0.59949      0.049681     
2.04         0.59685      0.035905     -0.045957    0.79345      -0.045957    0.79345      0.59685      0.035905     
2.05         0.59382      0.02223      -0.02801     0.79701      -0.02801     0.79701      0.59382      0.02223      
2.06         0.59038      0.0086672    -0.0098669   0.80021      -0.0098669   0.80021      0.59038      0.0086672    
2.07         0.58654      -0.0047693   0.0084673    0.80303      0.0084673    0.80303      0.58654      -0.0047693   
2.08         0.58231      -0.018066    0.026987     0.80547      0.026987     0.80547      0.58231      -0.018066    
2.09         0.57768      -0.031211    0.045688     0.80751      0.045688     0.80751      0.57768      -0.031211    
2.1          0.57265      -0.044188    0.064562     0.80914      0.064562     0.80914      0.57265      -0.044188    
2.11         0.56724      -0.056985    0.083604     0.81037      0.083604     0.81037      0.56724      -0.056985    
2.12         0.56144      -0.069588    0.10281      0.81117      0.10281      0.81117      0.56144      -0.069588    
2.13         0.55526      -0.081982    0.12216      0.81153      0.12216      0.81153      0.55526      -0.081982    
2.14         0.5487       -0.094154    0.14166      0.81146      0.14166      0.81146      0.5487       -0.094154    
2.15         0.54177      -0.10609     0.1613       0.81093      0.1613       0.81093      0.54177      -0.10609     
