!freq-unit  param-type  data-format  keyword  impedance-ohms
# GHZ           S          RI           R         50
!-----------------------------------------------------------------------------
!Freq          ReS11        ImS11        ReS21        ImS21        ReS12        ImS12        ReS22        ImS22
0.5          -0.18723     -0.097825    0.45318      -0.86357     0.45318      -0.86357     -0.18723     -0.097825    
0.51         -0.19259     -0.095417    0.43413      -0.87237     0.43413      -0.87237     -0.19259     -0.095417    
0.52         -0.19791     -0.092814    0.41493      -0.88074     0.41493      -0.88074     -0.19791     -0.092814    
0.53         -0.20317     -0.090018    0.39558      -0.88867     0.39558      -0.88867     -0.20317     -0.090018    
0.54         -0.20838     -0.08703     0.37608      -0.89617     0.37608      -0.89617     -0.20838     -0.08703     
0.55         -0.21353     -0.083852    0.35646      -0.90322     0.35646      -0.90322     -0.21353     -0.083852    
0.56         -0.21861     -0.080486    0.33672      -0.90984     0.33672      -0.90984     -0.21861     -0.080486    
0.57         -0.22361     -0.076935    0.31687      -0.91602     0.31687      -0.91602     -0.22361     -0.076935    
0.58         -0.22853     -0.0732      0.29692      -0.92175     0.29692      -0.92175     -0.22853     -0.0732      
0.59         -0.23337     -0.069285    0.27688      -0.92704     0.27688      -0.92704     -0.23337     -0.069285    
0.6          -0.23811     -0.065191    0.25676      -0.93188     0.25676      -0.93188     -0.23811     -0.065191    
0.61         -0.24275     -0.060923    0.23657      -0.93628     0.23657      -0.93628     -0.24275     -0.060923    
0.62         -0.24729     -0.056483    0.21633      -0.94024     0.21633      -0.94024     -0.24729     -0.056483    
0.63         -0.25172     -0.051875    0.19603      -0.94375     0.19603      -0.94375     -0.25172     -0.051875    
0.64         -0.25603     -0.047101    0.1757       -0.94681     0.1757       -0.94681     -0.25603     -0.047101    
0.65         -0.26022     -0.042166    0.15534      -0.94943     0.15534      -0.94943     -0.26022     -0.042166    
0.66         -0.26429     -0.037073    0.13496      -0.95161     0.13496      -0.95161     -0.26429     -0.037073    
0.67         -0.26823     -0.031827    0.11458      -0.95335     0.11458      -0.95335     -0.26823     -0.031827    
0.68         -0.27204     -0.02643     0.094189     -0.95465     0.094189     -0.95465     -0.27204     -0.02643     
0.69         -0.2757      -0.020888    0.073812     -0.9555      0.073812     -0.9555      -0.2757      -0.020888    
0.7          -0.27922     -0.015204    0.053456     -0.95592     0.053456     -0.95592     -0.27922     -0.015204    
0.71         -0.2826      -0.0093835   0.033129     -0.9559      0.033129     -0.9559      -0.2826      -0.0093835   
0.72         -0.28582     -0.0034304   0.01284      -0.95545     0.01284      -0.95545     -0.28582     -0.0034304   
0.73         -0.28888     0.0026506    -0.0074      -0.95457     -0.0074      -0.95457     -0.28888     0.0026506    
0.74         -0.29179     0.0088547    -0.027583    -0.95325     -0.027583    -0.95325     -0.29179     0.0088547    
0.75         -0.29453     0.015177     -0.0477      -0.95151     -0.0477      -0.95151     -0.29453     0.015177     
0.76         -0.2971      0.021613     -0.067742    -0.94935     -0.067742    -0.94935     -0.2971      0.021613     
0.77         -0.2995      0.028157     -0.0877      -0.94677     -0.0877      -0.94677     -0.2995      0.028157     
0.78         -0.30173     0.034804     -0.10757     -0.94376     -0.10757     -0.94376     -0.30173     0.034804     
0.79         -0.30378     0.041549     -0.12733     -0.94035     -0.12733     -0.94035     -0.30378     0.041549     
0.8          -0.30565     0.048387     -0.14698     -0.93652     -0.14698     -0.93652     -0.30565     0.048387     
0.81         -0.30734     0.055313     -0.16652     -0.93228     -0.16652     -0.93228     -0.30734     0.055313     
0.82         -0.30884     0.06232      -0.18593     -0.92764     -0.18593     -0.92764     -0.30884     0.06232      
0.83         -0.31015     0.069404     -0.2052      -0.9226      -0.2052      -0.9226      -0.31015     0.069404     
0.84         -0.31127     0.076559     -0.22434     -0.91717     -0.22434     -0.91717     -0.31127     0.076559     
0.85         -0.3122      0.08378      -0.24332     -0.91134     -0.24332     -0.91134     -0.3122      0.08378      
0.86         -0.31294     0.09106      -0.26214     -0.90513     -0.26214     -0.90513     -0.31294     0.09106      
0.87         -0.31348     0.098395     -0.2808      -0.89853     -0.2808      -0.89853     -0.31348     0.098395     
0.88         -0.31382     0.10578      -0.29929     -0.89156     -0.29929     -0.89156     -0.31382     0.10578      
0.89         -0.31397     0.1132       -0.3176      -0.88421     -0.3176      -0.88421     -0.31397     0.1132       
0.9          -0.31391     0.12067      -0.33571     -0.87649     -0.33571     -0.87649     -0.31391     0.12067      
0.91         -0.31365     0.12816      -0.35364     -0.86842     -0.35364     -0.86842     -0.31365     0.12816      
0.92         -0.31319     0.13568      -0.37136     -0.85998     -0.37136     -0.85998     -0.31319     0.13568      
0.93         -0.31253     0.14322      -0.38887     -0.85119     -0.38887     -0.85119     -0.31253     0.14322      
0.94         -0.31166     0.15078      -0.40617     -0.84205     -0.40617     -0.84205     -0.31166     0.15078      
0.95         -0.31059     0.15834      -0.42325     -0.83257     -0.42325     -0.83257     -0.31059     0.15834      
0.96         -0.30932     0.16591      -0.4401      -0.82276     -0.4401      -0.82276     -0.30932     0.16591      
0.97         -0.30784     0.17347      -0.45671     -0.81262     -0.45671     -0.81262     -0.30784     0.17347      
0.98         -0.30615     0.18102      -0.47309     -0.80215     -0.47309     -0.80215     -0.30615     0.18102      
0.99         -0.30426     0.18856      -0.48922     -0.79136     -0.48922     -0.79136     -0.30426     0.18856      
1            -0.30217     0.19608      -0.5051      -0.78025     -0.5051      -0.78025     -0.30217     0.19608      
1.01         -0.29988     0.20357      -0.52072     -0.76884     -0.52072     -0.76884     -0.29988     0.20357      
1.02         -0.29738     0.21103      -0.53608     -0.75713     -0.53608     -0.75713     -0.29738     0.21103      
1.03         -0.29468     0.21846      -0.55117     -0.74513     -0.55117     -0.74513     -0.29468     0.21846      
1.04         -0.29178     0.22584      -0.56599     -0.73284     -0.56599     -0.73284     -0.29178     0.22584      
1.05         -0.28868     0.23317      -0.58053     -0.72026     -0.58053     -0.72026     -0.28868     0.23317      
1.06         -0.28539     0.24045      -0.59479     -0.70741     -0.59479     -0.70741     -0.28539     0.24045      
1.07         -0.28189     0.24767      -0.60876     -0.69429     -0.60876     -0.69429     -0.28189     0.24767      
1.08         -0.2782      0.25482      -0.62244     -0.68091     -0.62244     -0.68091     -0.2782      0.25482      
1.09         -0.27432     0.26191      -0.63582     -0.66727     -0.63582     -0.66727     -0.27432     0.26191      
1.1          -0.27025     0.26892      -0.6489      -0.65338     -0.6489      -0.65338     -0.27025     0.26892      
1.11         -0.26598     0.27585      -0.66168     -0.63924     -0.66168     -0.63924     -0.26598     0.27585      
1.12         -0.26153     0.28269      -0.67414     -0.62487     -0.67414     -0.62487     -0.26153     0.28269      
1.13         -0.2569      0.28945      -0.6863      -0.61028     -0.6863      -0.61028     -0.2569      0.28945      
1.14         -0.25208     0.29611      -0.69814     -0.59546     -0.69814     -0.59546     -0.25208     0.29611      
1.15         -0.24708     0.30266      -0.70966     -0.58042     -0.70966     -0.58042     -0.24708     0.30266      
1.16         -0.24191     0.30912      -0.72085     -0.56517     -0.72085     -0.56517     -0.24191     0.30912      
1.17         -0.23656     0.31546      -0.73172     -0.54972     -0.73172     -0.54972     -0.23656     0.31546      
1.18         -0.23104     0.32169      -0.74226     -0.53408     -0.74226     -0.53408     -0.23104     0.32169      
1.19         -0.22535     0.3278       -0.75246     -0.51825     -0.75246     -0.51825     -0.22535     0.3278       
1.2          -0.21949     0.33378      -0.76233     -0.50224     -0.76233     -0.50224     -0.21949     0.33378      
1.21         -0.21347     0.33964      -0.77187     -0.48605     -0.77187     -0.48605     -0.21347     0.33964      
1.22         -0.2073      0.34537      -0.78106     -0.4697      -0.78106     -0.4697      -0.2073      0.34537      
1.23         -0.20097     0.35095      -0.78991     -0.45318     -0.78991     -0.45318     -0.20097     0.35095      
1.24         -0.19448     0.3564       -0.79841     -0.43651     -0.79841     -0.43651     -0.19448     0.3564       
1.25         -0.18785     0.36171      -0.80656     -0.4197      -0.80656     -0.4197      -0.18785     0.36171      
1.26         -0.18107     0.36686      -0.81437     -0.40275     -0.81437     -0.40275     -0.18107     0.36686      
1.27         -0.17416     0.37187      -0.82182     -0.38566     -0.82182     -0.38566     -0.17416     0.37187      
1.28         -0.1671      0.37671      -0.82893     -0.36845     -0.82893     -0.36845     -0.1671      0.37671      
1.29         -0.15992     0.3814       -0.83567     -0.35113     -0.83567     -0.35113     -0.15992     0.3814       
1.3          -0.1526      0.38593      -0.84206     -0.33369     -0.84206     -0.33369     -0.1526      0.38593      
1.31         -0.14516     0.39028      -0.8481      -0.31615     -0.8481      -0.31615     -0.14516     0.39028      
1.32         -0.13761     0.39447      -0.85377     -0.29851     -0.85377     -0.29851     -0.13761     0.39447      
1.33         -0.12993     0.39849      -0.85909     -0.28078     -0.85909     -0.28078     -0.12993     0.39849      
1.34         -0.12215     0.40233      -0.86404     -0.26297     -0.86404     -0.26297     -0.12215     0.40233      
1.35         -0.11425     0.40599      -0.86864     -0.24509     -0.86864     -0.24509     -0.11425     0.40599      
1.36         -0.10626     0.40948      -0.87287     -0.22713     -0.87287     -0.22713     -0.10626     0.40948      
1.37         -0.098168    0.41277      -0.87674     -0.20912     -0.87674     -0.20912     -0.098168    0.41277      
1.38         -0.089984    0.41588      -0.88024     -0.19105     -0.88024     -0.19105     -0.089984    0.41588      
1.39         -0.081712    0.41881      -0.88339     -0.17293     -0.88339     -0.17293     -0.081712    0.41881      
1.4          -0.073356    0.42154      -0.88616     -0.15478     -0.88616     -0.15478     -0.073356    0.42154      
1.41         -0.064923    0.42408      -0.88858     -0.13659     -0.88858     -0.13659     -0.064923    0.42408      
1.42         -0.056415    0.42642      -0.89063     -0.11837     -0.89063     -0.11837     -0.056415    0.42642      
1.43         -0.04784     0.42857      -0.89232     -0.10013     -0.89232     -0.10013     -0.04784     0.42857      
1.44         -0.039201    0.43052      -0.89365     -0.081885    -0.89365     -0.081885    -0.039201    0.43052      
1.45         -0.030503    0.43226      -0.89461     -0.063631    -0.89461     -0.063631    -0.030503    0.43226      
1.46         -0.021752    0.43381      -0.89521     -0.045378    -0.89521     -0.045378    -0.021752    0.43381      
1.47         -0.012953    0.43515      -0.89545     -0.027132    -0.89545     -0.027132    -0.012953    0.43515      
1.48         -0.0041101   0.43629      -0.89533     -0.0089009   -0.89533     -0.0089009   -0.0041101   0.43629      
1.49         0.0047706    0.43722      -0.89485     0.0093088    -0.89485     0.0093088    0.0047706    0.43722      
1.5          0.013684     0.43795      -0.89401     0.027491     -0.89401     0.027491     0.013684     0.43795      
1.51         0.022625     0.43847      -0.89281     0.045638     -0.89281     0.045638     0.022625     0.43847      
1.52         0.031589     0.43878      -0.89126     0.063744     -0.89126     0.063744     0.031589     0.43878      
1.53         0.04057      0.43888      -0.88935     0.081802     -0.88935     0.081802     0.04057      0.43888      
1.54         0.049563     0.43878      -0.88709     0.099805     -0.88709     0.099805     0.049563     0.43878      
1.55         0.058563     0.43846      -0.88447     0.11775      -0.88447     0.11775      0.058563     0.43846      
1.56         0.067565     0.43793      -0.88151     0.13562      -0.88151     0.13562      0.067565     0.43793      
1.57         0.076563     0.4372       -0.87819     0.15343      -0.87819     0.15343      0.076563     0.4372       
1.58         0.085552     0.43625      -0.87453     0.17115      -0.87453     0.17115      0.085552     0.43625      
1.59         0.094527     0.4351       -0.87053     0.18878      -0.87053     0.18878      0.094527     0.4351       
1.6          0.10348      0.43373      -0.86618     0.20633      -0.86618     0.20633      0.10348      0.43373      
1.61         0.11241      0.43216      -0.86149     0.22377      -0.86149     0.22377      0.11241      0.43216      
1.62         0.12132      0.43038      -0.85646     0.24111      -0.85646     0.24111      0.12132      0.43038      
1.63         0.13018      0.4284       -0.8511      0.25834      -0.8511      0.25834      0.13018      0.4284       
1.64         0.13901      0.4262       -0.8454      0.27545      -0.8454      0.27545      0.13901      0.4262       
1.65         0.14779      0.4238       -0.83937     0.29243      -0.83937     0.29243      0.14779      0.4238       
1.66         0.15652      0.4212       -0.83301     0.30929      -0.83301     0.30929      0.15652      0.4212       
1.67         0.1652       0.41839      -0.82633     0.32601      -0.82633     0.32601      0.1652       0.41839      
1.68         0.17381      0.41538      -0.81932     0.34259      -0.81932     0.34259      0.17381      0.41538      
1.69         0.18237      0.41218      -0.81199     0.35903      -0.81199     0.35903      0.18237      0.41218      
1.7          0.19085      0.40877      -0.80435     0.37531      -0.80435     0.37531      0.19085      0.40877      
1.71         0.19925      0.40517      -0.79639     0.39144      -0.79639     0.39144      0.19925      0.40517      
1.72         0.20757      0.40137      -0.78812     0.4074       -0.78812     0.4074       0.20757      0.40137      
1.73         0.21581      0.39737      -0.77954     0.42319      -0.77954     0.42319      0.21581      0.39737      
1.74         0.22396      0.39319      -0.77066     0.4388       -0.77066     0.4388       0.22396      0.39319      
1.75         0.23202      0.38882      -0.76147     0.45424      -0.76147     0.45424      0.23202      0.38882      
1.76         0.23998      0.38426      -0.75199     0.46949      -0.75199     0.46949      0.23998      0.38426      
1.77         0.24783      0.37952      -0.74221     0.48455      -0.74221     0.48455      0.24783      0.37952      
1.78         0.25557      0.37459      -0.73215     0.49941      -0.73215     0.49941      0.25557      0.37459      
1.79         0.26321      0.36949      -0.72179     0.51407      -0.72179     0.51407      0.26321      0.36949      
1.8          0.27072      0.36421      -0.71116     0.52852      -0.71116     0.52852      0.27072      0.36421      
1.81         0.27811      0.35876      -0.70024     0.54277      -0.70024     0.54277      0.27811      0.35876      
1.82         0.28538      0.35314      -0.68905     0.55679      -0.68905     0.55679      0.28538      0.35314      
1.83         0.29252      0.34735      -0.67759     0.5706       -0.67759     0.5706       0.29252      0.34735      
1.84         0.29952      0.34139      -0.66586     0.58417      -0.66586     0.58417      0.29952      0.34139      
1.85         0.30638      0.33528      -0.65387     0.59752      -0.65387     0.59752      0.30638      0.33528      
1.86         0.3131       0.32901      -0.64162     0.61063      -0.64162     0.61063      0.3131       0.32901      
1.87         0.31968      0.32258      -0.62911     0.6235       -0.62911     0.6235       0.31968      0.32258      
1.88         0.3261       0.31601      -0.61636     0.63612      -0.61636     0.63612      0.3261       0.31601      
1.89         0.33238      0.30929      -0.60336     0.6485       -0.60336     0.6485       0.33238      0.30929      
1.9          0.33849      0.30242      -0.59012     0.66062      -0.59012     0.66062      0.33849      0.30242      
1.91         0.34444      0.29542      -0.57664     0.67248      -0.57664     0.67248      0.34444      0.29542      
1.92         0.35023      0.28828      -0.56293     0.68408      -0.56293     0.68408      0.35023      0.28828      
1.93         0.35585      0.28101      -0.549       0.69541      -0.549       0.69541      0.35585      0.28101      
1.94         0.3613       0.27362      -0.53484     0.70647      -0.53484     0.70647      0.3613       0.27362      
1.95         0.36658      0.2661       -0.52046     0.71725      -0.52046     0.71725      0.36658      0.2661       
1.96         0.37168      0.25847      -0.50588     0.72775      -0.50588     0.72775      0.37168      0.25847      
1.97         0.3766       0.25072      -0.49108     0.73798      -0.49108     0.73798      0.3766       0.25072      
1.98         0.38133      0.24286      -0.47609     0.74791      -0.47609     0.74791      0.38133      0.24286      
1.99         0.38588      0.2349       -0.46089     0.75755      -0.46089     0.75755      0.38588      0.2349       
2            0.39024      0.22684      -0.44551     0.7669       -0.44551     0.7669       0.39024      0.22684      
2.01         0.39441      0.21868      -0.42993     0.77595      -0.42993     0.77595      0.39441      0.21868      
2.02         0.39839      0.21044      -0.41418     0.78469      -0.41418     0.78469      0.39839      0.21044      
2.03         0.40217      0.20211      -0.39825     0.79313      -0.39825     0.79313      0.40217      0.20211      
2.04         0.40575      0.19369      -0.38215     0.80126      -0.38215     0.80126      0.40575      0.19369      
2.05         0.40914      0.1852       -0.36589     0.80908      -0.36589     0.80908      0.40914      0.1852       
2.06         0.41232      0.17664      -0.34946     0.81659      -0.34946     0.81659      0.41232      0.17664      
2.07         0.4153       0.16802      -0.33288     0.82377      -0.33288     0.82377      0.4153       0.16802      
2.08         0.41807      0.15933      -0.31616     0.83063      -0.31616     0.83063      0.41807      0.15933      
2.09         0.42064      0.15059      -0.29929     0.83717      -0.29929     0.83717      0.42064      0.15059      
2.1          0.42299      0.1418       -0.28228     0.84338      -0.28228     0.84338      0.42299      0.1418       
2.11         0.42514      0.13296      -0.26515     0.84926      -0.26515     0.84926      0.42514      0.13296      
2.12         0.42708      0.12409      -0.24789     0.85481      -0.24789     0.85481      0.42708      0.12409      
2.13         0.42881      0.11518      -0.23051     0.86002      -0.23051     0.86002      0.42881      0.11518      
2.14         0.43032      0.10624      -0.21301     0.86489      -0.21301     0.86489      0.43032      0.10624      
2.15         0.43162      0.097276     -0.19541     0.86942      -0.19541     0.86942      0.43162      0.097276     
