!freq-unit  param-type  data-format  keyword  impedance-ohms
# GHZ           S          RI           R         50
!-----------------------------------------------------------------------------
!Freq          ReS11        ImS11        ReS21        ImS21        ReS12        ImS12        ReS22        ImS22
0.5          -0.2538      -0.088118    0.31665      -0.90708     0.31665      -0.90708     -0.2538      -0.088118    
0.51         -0.25996     -0.083289    0.29429      -0.91327     0.29429      -0.91327     -0.25996     -0.083289    
0.52         -0.26599     -0.078207    0.27183      -0.9189      0.27183      -0.9189      -0.26599     -0.078207    
0.53         -0.27186     -0.072875    0.2493       -0.92397     0.2493       -0.92397     -0.27186     -0.072875    
0.54         -0.27758     -0.067302    0.2267       -0.92847     0.2267       -0.92847     -0.27758     -0.067302    
0.55         -0.28313     -0.061491    0.20406      -0.93242     0.20406      -0.93242     -0.28313     -0.061491    
0.56         -0.2885      -0.055451    0.18139      -0.9358      0.18139      -0.9358      -0.2885      -0.055451    
0.57         -0.29369     -0.049187    0.15869      -0.93863     0.15869      -0.93863     -0.29369     -0.049187    
0.58         -0.29869     -0.042706    0.136        -0.9409      0.136        -0.9409      -0.29869     -0.042706    
0.59         -0.3035      -0.036017    0.11331      -0.94262     0.11331      -0.94262     -0.3035      -0.036017    
0.6          -0.3081      -0.029125    0.090637     -0.9438      0.090637     -0.9438      -0.3081      -0.029125    
0.61         -0.31248     -0.022039    0.068004     -0.94442     0.068004     -0.94442     -0.31248     -0.022039    
0.62         -0.31665     -0.014766    0.045418     -0.94451     0.045418     -0.94451     -0.31665     -0.014766    
0.63         -0.32059     -0.0073155   0.022894     -0.94406     0.022894     -0.94406     -0.32059     -0.0073155   
0.64         -0.3243      0.00030589   0.00044207   -0.94307     0.00044207   -0.94307     -0.3243      0.00030589   
0.65         -0.32778     0.0080893    -0.021924    -0.94155     -0.021924    -0.94155     -0.32778     0.0080893    
0.66         -0.33101     0.016026     -0.044193    -0.93951     -0.044193    -0.93951     -0.33101     0.016026     
0.67         -0.334       0.024108     -0.066352    -0.93695     -0.066352    -0.93695     -0.334       0.024108     
0.68         -0.33674     0.032326     -0.08839     -0.93387     -0.08839     -0.93387     -0.33674     0.032326     
0.69         -0.33922     0.040671     -0.1103      -0.93029     -0.1103      -0.93029     -0.33922     0.040671     
0.7          -0.34144     0.049135     -0.13206     -0.9262      -0.13206     -0.9262      -0.34144     0.049135     
0.71         -0.34339     0.057708     -0.15366     -0.92162     -0.15366     -0.92162     -0.34339     0.057708     
0.72         -0.34508     0.066381     -0.17511     -0.91654     -0.17511     -0.91654     -0.34508     0.066381     
0.73         -0.3465      0.075146     -0.19637     -0.91098     -0.19637     -0.91098     -0.3465      0.075146     
0.74         -0.34765     0.083992     -0.21746     -0.90493     -0.21746     -0.90493     -0.34765     0.083992     
0.75         -0.34852     0.092911     -0.23834     -0.89842     -0.23834     -0.89842     -0.34852     0.092911     
0.76         -0.34912     0.10189      -0.25902     -0.89144     -0.25902     -0.89144     -0.34912     0.10189      
0.77         -0.34944     0.11093      -0.27948     -0.884       -0.27948     -0.884       -0.34944     0.11093      
0.78         -0.34948     0.12001      -0.29973     -0.87611     -0.29973     -0.87611     -0.34948     0.12001      
0.79         -0.34923     0.12913      -0.31973     -0.86777     -0.31973     -0.86777     -0.34923     0.12913      
0.8          -0.34871     0.13827      -0.3395      -0.859       -0.3395      -0.859       -0.34871     0.13827      
0.81         -0.3479      0.14743      -0.35901     -0.8498      -0.35901     -0.8498      -0.3479      0.14743      
0.82         -0.34681     0.1566       -0.37827     -0.84017     -0.37827     -0.84017     -0.34681     0.1566       
0.83         -0.34544     0.16576      -0.39726     -0.83013     -0.39726     -0.83013     -0.34544     0.16576      
0.84         -0.34378     0.17492      -0.41597     -0.81968     -0.41597     -0.81968     -0.34378     0.17492      
0.85         -0.34185     0.18405      -0.4344      -0.80883     -0.4344      -0.80883     -0.34185     0.18405      
0.86         -0.33963     0.19316      -0.45254     -0.79759     -0.45254     -0.79759     -0.33963     0.19316      
0.87         -0.33713     0.20223      -0.47039     -0.78597     -0.47039     -0.78597     -0.33713     0.20223      
0.88         -0.33436     0.21125      -0.48793     -0.77397     -0.48793     -0.77397     -0.33436     0.21125      
0.89         -0.33131     0.22022      -0.50516     -0.7616      -0.50516     -0.7616      -0.33131     0.22022      
0.9          -0.32799     0.22912      -0.52207     -0.74887     -0.52207     -0.74887     -0.32799     0.22912      
0.91         -0.3244      0.23795      -0.53866     -0.7358      -0.53866     -0.7358      -0.3244      0.23795      
0.92         -0.32053     0.24669      -0.55492     -0.72238     -0.55492     -0.72238     -0.32053     0.24669      
0.93         -0.31641     0.25535      -0.57084     -0.70862     -0.57084     -0.70862     -0.31641     0.25535      
0.94         -0.31202     0.26391      -0.58643     -0.69454     -0.58643     -0.69454     -0.31202     0.26391      
0.95         -0.30736     0.27237      -0.60166     -0.68014     -0.60166     -0.68014     -0.30736     0.27237      
0.96         -0.30246     0.28071      -0.61654     -0.66543     -0.61654     -0.66543     -0.30246     0.28071      
0.97         -0.2973      0.28893      -0.63107     -0.65042     -0.63107     -0.65042     -0.2973      0.28893      
0.98         -0.29189     0.29702      -0.64523     -0.63512     -0.64523     -0.63512     -0.29189     0.29702      
0.99         -0.28624     0.30497      -0.65903     -0.61953     -0.65903     -0.61953     -0.28624     0.30497      
1            -0.28036     0.31278      -0.67246     -0.60367     -0.67246     -0.60367     -0.28036     0.31278      
1.01         -0.27423     0.32044      -0.6855      -0.58754     -0.6855      -0.58754     -0.27423     0.32044      
1.02         -0.26788     0.32794      -0.69817     -0.57116     -0.69817     -0.57116     -0.26788     0.32794      
1.03         -0.2613      0.33527      -0.71046     -0.55452     -0.71046     -0.55452     -0.2613      0.33527      
1.04         -0.2545      0.34244      -0.72236     -0.53764     -0.72236     -0.53764     -0.2545      0.34244      
1.05         -0.24749     0.34942      -0.73386     -0.52053     -0.73386     -0.52053     -0.24749     0.34942      
1.06         -0.24027     0.35622      -0.74497     -0.5032      -0.74497     -0.5032      -0.24027     0.35622      
1.07         -0.23285     0.36283      -0.75568     -0.48565     -0.75568     -0.48565     -0.23285     0.36283      
1.08         -0.22523     0.36924      -0.76599     -0.4679      -0.76599     -0.4679      -0.22523     0.36924      
1.09         -0.21742     0.37545      -0.7759      -0.44994     -0.7759      -0.44994     -0.21742     0.37545      
1.1          -0.20942     0.38145      -0.7854      -0.4318      -0.7854      -0.4318      -0.20942     0.38145      
1.11         -0.20125     0.38723      -0.79448     -0.41348     -0.79448     -0.41348     -0.20125     0.38723      
1.12         -0.19291     0.3928       -0.80316     -0.39498     -0.80316     -0.39498     -0.19291     0.3928       
1.13         -0.1844      0.39815      -0.81142     -0.37633     -0.81142     -0.37633     -0.1844      0.39815      
1.14         -0.17573     0.40326      -0.81926     -0.35751     -0.81926     -0.35751     -0.17573     0.40326      
1.15         -0.16691     0.40814      -0.82668     -0.33855     -0.82668     -0.33855     -0.16691     0.40814      
1.16         -0.15795     0.41279      -0.83369     -0.31946     -0.83369     -0.31946     -0.15795     0.41279      
1.17         -0.14885     0.41719      -0.84026     -0.30023     -0.84026     -0.30023     -0.14885     0.41719      
1.18         -0.13962     0.42135      -0.84642     -0.28088     -0.84642     -0.28088     -0.13962     0.42135      
1.19         -0.13027     0.42526      -0.85214     -0.26143     -0.85214     -0.26143     -0.13027     0.42526      
1.2          -0.12081     0.42892      -0.85744     -0.24186     -0.85744     -0.24186     -0.12081     0.42892      
1.21         -0.11123     0.43232      -0.86231     -0.22221     -0.86231     -0.22221     -0.11123     0.43232      
1.22         -0.10156     0.43546      -0.86675     -0.20247     -0.86675     -0.20247     -0.10156     0.43546      
1.23         -0.091793    0.43835      -0.87076     -0.18265     -0.87076     -0.18265     -0.091793    0.43835      
1.24         -0.081943    0.44096      -0.87434     -0.16276     -0.87434     -0.16276     -0.081943    0.44096      
1.25         -0.072016    0.44331      -0.87748     -0.14281     -0.87748     -0.14281     -0.072016    0.44331      
1.26         -0.062021    0.4454       -0.88019     -0.12281     -0.88019     -0.12281     -0.062021    0.4454       
1.27         -0.051964    0.44721      -0.88246     -0.10276     -0.88246     -0.10276     -0.051964    0.44721      
1.28         -0.041855    0.44875      -0.88431     -0.082684    -0.88431     -0.082684    -0.041855    0.44875      
1.29         -0.0317      0.45002      -0.88571     -0.062577    -0.88571     -0.062577    -0.0317      0.45002      
1.3          -0.021509    0.45101      -0.88668     -0.042452    -0.88668     -0.042452    -0.021509    0.45101      
1.31         -0.011288    0.45172      -0.88722     -0.022318    -0.88722     -0.022318    -0.011288    0.45172      
1.32         -0.001047    0.45216      -0.88733     -0.002182    -0.88733     -0.002182    -0.001047    0.45216      
1.33         0.0092071    0.45233      -0.88699     0.017947     -0.88699     0.017947     0.0092071    0.45233      
1.34         0.019466     0.45221      -0.88623     0.03806      -0.88623     0.03806      0.019466     0.45221      
1.35         0.029721     0.45182      -0.88503     0.05815      -0.88503     0.05815      0.029721     0.45182      
1.36         0.039965     0.45115      -0.8834      0.078207     -0.8834      0.078207     0.039965     0.45115      
1.37         0.05019      0.45021      -0.88134     0.098224     -0.88134     0.098224     0.05019      0.45021      
1.38         0.060386     0.44898      -0.87884     0.11819      -0.87884     0.11819      0.060386     0.44898      
1.39         0.070547     0.44749      -0.87592     0.1381       -0.87592     0.1381       0.070547     0.44749      
1.4          0.080665     0.44572      -0.87256     0.15795      -0.87256     0.15795      0.080665     0.44572      
1.41         0.090731     0.44367      -0.86878     0.17772      -0.86878     0.17772      0.090731     0.44367      
1.42         0.10074      0.44136      -0.86457     0.19741      -0.86457     0.19741      0.10074      0.44136      
1.43         0.11068      0.43877      -0.85994     0.21701      -0.85994     0.21701      0.11068      0.43877      
1.44         0.12054      0.43592      -0.85488     0.23651      -0.85488     0.23651      0.12054      0.43592      
1.45         0.13032      0.43281      -0.8494      0.2559       -0.8494      0.2559       0.13032      0.43281      
1.46         0.14001      0.42943      -0.84351     0.27518      -0.84351     0.27518      0.14001      0.42943      
1.47         0.1496       0.42579      -0.83719     0.29434      -0.83719     0.29434      0.1496       0.42579      
1.48         0.15908      0.42189      -0.83046     0.31336      -0.83046     0.31336      0.15908      0.42189      
1.49         0.16845      0.41774      -0.82331     0.33225      -0.82331     0.33225      0.16845      0.41774      
1.5          0.1777       0.41334      -0.81575     0.35098      -0.81575     0.35098      0.1777       0.41334      
1.51         0.18682      0.40869      -0.80779     0.36956      -0.80779     0.36956      0.18682      0.40869      
1.52         0.19581      0.4038       -0.79941     0.38798      -0.79941     0.38798      0.19581      0.4038       
1.53         0.20465      0.39867      -0.79064     0.40623      -0.79064     0.40623      0.20465      0.39867      
1.54         0.21334      0.3933       -0.78146     0.42429      -0.78146     0.42429      0.21334      0.3933       
1.55         0.22188      0.38771      -0.77189     0.44216      -0.77189     0.44216      0.22188      0.38771      
1.56         0.23025      0.38189      -0.76192     0.45984      -0.76192     0.45984      0.23025      0.38189      
1.57         0.23845      0.37584      -0.75155     0.47732      -0.75155     0.47732      0.23845      0.37584      
1.58         0.24647      0.36958      -0.7408      0.49458      -0.7408      0.49458      0.24647      0.36958      
1.59         0.25431      0.36311      -0.72967     0.51162      -0.72967     0.51162      0.25431      0.36311      
1.6          0.26196      0.35643      -0.71815     0.52843      -0.71815     0.52843      0.26196      0.35643      
1.61         0.26941      0.34956      -0.70626     0.54501      -0.70626     0.54501      0.26941      0.34956      
1.62         0.27666      0.34248      -0.69399     0.56134      -0.69399     0.56134      0.27666      0.34248      
1.63         0.28371      0.33522      -0.68135     0.57742      -0.68135     0.57742      0.28371      0.33522      
1.64         0.29054      0.32778      -0.66835     0.59323      -0.66835     0.59323      0.29054      0.32778      
1.65         0.29715      0.32017      -0.65499     0.60878      -0.65499     0.60878      0.29715      0.32017      
1.66         0.30353      0.31238      -0.64127     0.62405      -0.64127     0.62405      0.30353      0.31238      
1.67         0.30969      0.30443      -0.6272      0.63904      -0.6272      0.63904      0.30969      0.30443      
1.68         0.31561      0.29633      -0.61278     0.65374      -0.61278     0.65374      0.31561      0.29633      
1.69         0.3213       0.28807      -0.59802     0.66813      -0.59802     0.66813      0.3213       0.28807      
1.7          0.32673      0.27968      -0.58292     0.68222      -0.58292     0.68222      0.32673      0.27968      
1.71         0.33192      0.27115      -0.5675      0.696        -0.5675      0.696        0.33192      0.27115      
1.72         0.33686      0.2625       -0.55174     0.70945      -0.55174     0.70945      0.33686      0.2625       
1.73         0.34154      0.25373      -0.53567     0.72257      -0.53567     0.72257      0.34154      0.25373      
1.74         0.34596      0.24484      -0.51928     0.73535      -0.51928     0.73535      0.34596      0.24484      
1.75         0.35012      0.23586      -0.50258     0.74778      -0.50258     0.74778      0.35012      0.23586      
1.76         0.35401      0.22678      -0.48558     0.75987      -0.48558     0.75987      0.35401      0.22678      
1.77         0.35763      0.21761      -0.46828     0.77159      -0.46828     0.77159      0.35763      0.21761      
1.78         0.36098      0.20836      -0.45069     0.78294      -0.45069     0.78294      0.36098      0.20836      
1.79         0.36405      0.19905      -0.43282     0.79392      -0.43282     0.79392      0.36405      0.19905      
1.8          0.36684      0.18967      -0.41467     0.80451      -0.41467     0.80451      0.36684      0.18967      
1.81         0.36936      0.18024      -0.39625     0.81472      -0.39625     0.81472      0.36936      0.18024      
1.82         0.37159      0.17077      -0.37757     0.82453      -0.37757     0.82453      0.37159      0.17077      
1.83         0.37354      0.16126      -0.35864     0.83393      -0.35864     0.83393      0.37354      0.16126      
1.84         0.37521      0.15172      -0.33945     0.84293      -0.33945     0.84293      0.37521      0.15172      
1.85         0.37659      0.14217      -0.32003     0.8515       -0.32003     0.8515       0.37659      0.14217      
1.86         0.37768      0.13261      -0.30038     0.85965      -0.30038     0.85965      0.37768      0.13261      
1.87         0.37849      0.12306      -0.2805      0.86737      -0.2805      0.86737      0.37849      0.12306      
1.88         0.37901      0.11351      -0.26041     0.87465      -0.26041     0.87465      0.37901      0.11351      
1.89         0.37924      0.10398      -0.24011     0.88149      -0.24011     0.88149      0.37924      0.10398      
1.9          0.37919      0.094483     -0.21962     0.88787      -0.21962     0.88787      0.37919      0.094483     
1.91         0.37885      0.085022     -0.19893     0.8938       -0.19893     0.8938       0.37885      0.085022     
1.92         0.37823      0.075609     -0.17807     0.89927      -0.17807     0.89927      0.37823      0.075609     
1.93         0.37733      0.066253     -0.15704     0.90426      -0.15704     0.90426      0.37733      0.066253     
1.94         0.37614      0.056964     -0.13584     0.90878      -0.13584     0.90878      0.37614      0.056964     
1.95         0.37468      0.047749     -0.1145      0.91282      -0.1145      0.91282      0.37468      0.047749     
1.96         0.37294      0.038619     -0.093016    0.91637      -0.093016    0.91637      0.37294      0.038619     
1.97         0.37092      0.029584     -0.071402    0.91943      -0.071402    0.91943      0.37092      0.029584     
1.98         0.36864      0.020651     -0.049669    0.92199      -0.049669    0.92199      0.36864      0.020651     
1.99         0.36608      0.011831     -0.027826    0.92405      -0.027826    0.92405      0.36608      0.011831     
2            0.36326      0.0031324    -0.0058861   0.92561      -0.0058861   0.92561      0.36326      0.0031324    
2.01         0.36019      -0.0054359   0.016141     0.92665      0.016141     0.92665      0.36019      -0.0054359   
2.02         0.35685      -0.013865    0.038243     0.92718      0.038243     0.92718      0.35685      -0.013865    
2.03         0.35327      -0.022146    0.060409     0.92718      0.060409     0.92718      0.35327      -0.022146    
2.04         0.34943      -0.03027     0.082627     0.92666      0.082627     0.92666      0.34943      -0.03027     
2.05         0.34536      -0.038229    0.10489      0.92561      0.10489      0.92561      0.34536      -0.038229    
2.06         0.34105      -0.046013    0.12717      0.92403      0.12717      0.92403      0.34105      -0.046013    
2.07         0.33651      -0.053616    0.14947      0.92192      0.14947      0.92192      0.33651      -0.053616    
2.08         0.33175      -0.061029    0.17178      0.91927      0.17178      0.91927      0.33175      -0.061029    
2.09         0.32677      -0.068243    0.19407      0.91607      0.19407      0.91607      0.32677      -0.068243    
2.1          0.32158      -0.075251    0.21634      0.91233      0.21634      0.91233      0.32158      -0.075251    
2.11         0.31619      -0.082046    0.23857      0.90805      0.23857      0.90805      0.31619      -0.082046    
2.12         0.3106       -0.08862     0.26076      0.90322      0.26076      0.90322      0.3106       -0.08862     
2.13         0.30483      -0.094967    0.28288      0.89784      0.28288      0.89784      0.30483      -0.094967    
2.14         0.29887      -0.10108     0.30493      0.89191      0.30493      0.89191      0.29887      -0.10108     
2.15         0.29274      -0.10695     0.32688      0.88543      0.32688      0.88543      0.29274      -0.10695     
