!freq-unit  param-type  data-format  keyword  impedance-ohms
# GHZ           S          RI           R         50
!-----------------------------------------------------------------------------
!Freq          ReS11        ImS11        ReS21        ImS21        ReS12        ImS12        ReS22        ImS22
0.5          0.39024      0.11596      0.26165      -0.87161     0.26165      -0.87161     0.39024      0.11596      
0.51         0.3989       0.10814      0.23978      -0.87495     0.23978      -0.87495     0.3989       0.10814      
0.52         0.4073       0.099971     0.21797      -0.87773     0.21797      -0.87773     0.4073       0.099971     
0.53         0.41544      0.091471     0.19622      -0.87994     0.19622      -0.87994     0.41544      0.091471     
0.54         0.42331      0.082649     0.17456      -0.8816      0.17456      -0.8816      0.42331      0.082649     
0.55         0.4309       0.073517     0.15298      -0.88271     0.15298      -0.88271     0.4309       0.073517     
0.56         0.4382       0.064087     0.13152      -0.88329     0.13152      -0.88329     0.4382       0.064087     
0.57         0.44519      0.054371     0.11017      -0.88334     0.11017      -0.88334     0.44519      0.054371     
0.58         0.45187      0.044382     0.088964     -0.88287     0.088964     -0.88287     0.45187      0.044382     
0.59         0.45823      0.034131     0.067898     -0.8819      0.067898     -0.8819      0.45823      0.034131     
0.6          0.46427      0.023633     0.046989     -0.88042     0.046989     -0.88042     0.46427      0.023633     
0.61         0.46997      0.012899     0.026248     -0.87845     0.026248     -0.87845     0.46997      0.012899     
0.62         0.47534      0.0019433    0.0056842    -0.87601     0.0056842    -0.87601     0.47534      0.0019433    
0.63         0.48036      -0.0092221   -0.014692    -0.87309     -0.014692    -0.87309     0.48036      -0.0092221   
0.64         0.48503      -0.020584    -0.03487     -0.86972     -0.03487     -0.86972     0.48503      -0.020584    
0.65         0.48934      -0.032129    -0.054842    -0.86589     -0.054842    -0.86589     0.48934      -0.032129    
0.66         0.49329      -0.043844    -0.074599    -0.86163     -0.074599    -0.86163     0.49329      -0.043844    
0.67         0.49688      -0.055716    -0.094134    -0.85693     -0.094134    -0.85693     0.49688      -0.055716    
0.68         0.5001       -0.067732    -0.11344     -0.85182     -0.11344     -0.85182     0.5001       -0.067732    
0.69         0.50295      -0.079879    -0.1325      -0.8463      -0.1325      -0.8463      0.50295      -0.079879    
0.7          0.50543      -0.092144    -0.15133     -0.84038     -0.15133     -0.84038     0.50543      -0.092144    
0.71         0.50753      -0.10451     -0.1699      -0.83407     -0.1699      -0.83407     0.50753      -0.10451     
0.72         0.50926      -0.11698     -0.18821     -0.82738     -0.18821     -0.82738     0.50926      -0.11698     
0.73         0.5106       -0.12952     -0.20626     -0.82033     -0.20626     -0.82033     0.5106       -0.12952     
0.74         0.51158      -0.14213     -0.22405     -0.81292     -0.22405     -0.81292     0.51158      -0.14213     
0.75         0.51217      -0.15479     -0.24156     -0.80516     -0.24156     -0.80516     0.51217      -0.15479     
0.76         0.51239      -0.1675      -0.25879     -0.79706     -0.25879     -0.79706     0.51239      -0.1675      
0.77         0.51223      -0.18024     -0.27575     -0.78863     -0.27575     -0.78863     0.51223      -0.18024     
0.78         0.51169      -0.19299     -0.29241     -0.77989     -0.29241     -0.77989     0.51169      -0.19299     
0.79         0.51078      -0.20576     -0.30879     -0.77084     -0.30879     -0.77084     0.51078      -0.20576     
0.8          0.50949      -0.21851     -0.32488     -0.76149     -0.32488     -0.76149     0.50949      -0.21851     
0.81         0.50784      -0.23126     -0.34068     -0.75185     -0.34068     -0.75185     0.50784      -0.23126     
0.82         0.50581      -0.24397     -0.35617     -0.74193     -0.35617     -0.74193     0.50581      -0.24397     
0.83         0.50342      -0.25665     -0.37137     -0.73174     -0.37137     -0.73174     0.50342      -0.25665     
0.84         0.50066      -0.26927     -0.38627     -0.72129     -0.38627     -0.72129     0.50066      -0.26927     
0.85         0.49754      -0.28184     -0.40086     -0.71058     -0.40086     -0.71058     0.49754      -0.28184     
0.86         0.49407      -0.29433     -0.41514     -0.69963     -0.41514     -0.69963     0.49407      -0.29433     
0.87         0.49024      -0.30675     -0.42912     -0.68844     -0.42912     -0.68844     0.49024      -0.30675     
0.88         0.48607      -0.31907     -0.44279     -0.67703     -0.44279     -0.67703     0.48607      -0.31907     
0.89         0.48155      -0.3313      -0.45615     -0.6654      -0.45615     -0.6654      0.48155      -0.3313      
0.9          0.47668      -0.34341     -0.4692      -0.65355     -0.4692      -0.65355     0.47668      -0.34341     
0.91         0.47149      -0.35541     -0.48195     -0.64151     -0.48195     -0.64151     0.47149      -0.35541     
0.92         0.46596      -0.36727     -0.49438     -0.62926     -0.49438     -0.62926     0.46596      -0.36727     
0.93         0.4601       -0.379       -0.50649     -0.61684     -0.50649     -0.61684     0.4601       -0.379       
0.94         0.45393      -0.39058     -0.5183      -0.60423     -0.5183      -0.60423     0.45393      -0.39058     
0.95         0.44743      -0.40201     -0.52979     -0.59144     -0.52979     -0.59144     0.44743      -0.40201     
0.96         0.44063      -0.41328     -0.54097     -0.5785      -0.54097     -0.5785      0.44063      -0.41328     
0.97         0.43353      -0.42437     -0.55185     -0.56539     -0.55185     -0.56539     0.43353      -0.42437     
0.98         0.42612      -0.43529     -0.5624      -0.55213     -0.5624      -0.55213     0.42612      -0.43529     
0.99         0.41842      -0.44602     -0.57265     -0.53873     -0.57265     -0.53873     0.41842      -0.44602     
1            0.41044      -0.45656     -0.58259     -0.52519     -0.58259     -0.52519     0.41044      -0.45656     
1.01         0.40218      -0.4669      -0.59222     -0.51152     -0.59222     -0.51152     0.40218      -0.4669      
1.02         0.39364      -0.47703     -0.60153     -0.49773     -0.60153     -0.49773     0.39364      -0.47703     
1.03         0.38484      -0.48695     -0.61054     -0.48381     -0.61054     -0.48381     0.38484      -0.48695     
1.04         0.37578      -0.49665     -0.61925     -0.46978     -0.61925     -0.46978     0.37578      -0.49665     
1.05         0.36646      -0.50612     -0.62764     -0.45565     -0.62764     -0.45565     0.36646      -0.50612     
1.06         0.3569       -0.51536     -0.63573     -0.44141     -0.63573     -0.44141     0.3569       -0.51536     
1.07         0.3471       -0.52437     -0.64351     -0.42708     -0.64351     -0.42708     0.3471       -0.52437     
1.08         0.33707      -0.53313     -0.65099     -0.41266     -0.65099     -0.41266     0.33707      -0.53313     
1.09         0.32681      -0.54164     -0.65817     -0.39815     -0.65817     -0.39815     0.32681      -0.54164     
1.1          0.31633      -0.54989     -0.66505     -0.38356     -0.66505     -0.38356     0.31633      -0.54989     
1.11         0.30564      -0.55789     -0.67162     -0.3689      -0.67162     -0.3689      0.30564      -0.55789     
1.12         0.29475      -0.56563     -0.6779      -0.35417     -0.6779      -0.35417     0.29475      -0.56563     
1.13         0.28366      -0.5731      -0.68387     -0.33938     -0.68387     -0.33938     0.28366      -0.5731      
1.14         0.27239      -0.58029     -0.68955     -0.32453     -0.68955     -0.32453     0.27239      -0.58029     
1.15         0.26093      -0.58721     -0.69494     -0.30962     -0.69494     -0.30962     0.26093      -0.58721     
1.16         0.2493       -0.59385     -0.70003     -0.29466     -0.70003     -0.29466     0.2493       -0.59385     
1.17         0.2375       -0.60021     -0.70483     -0.27966     -0.70483     -0.27966     0.2375       -0.60021     
1.18         0.22554      -0.60628     -0.70933     -0.26461     -0.70933     -0.26461     0.22554      -0.60628     
1.19         0.21343      -0.61206     -0.71355     -0.24953     -0.71355     -0.24953     0.21343      -0.61206     
1.2          0.20118      -0.61754     -0.71747     -0.23441     -0.71747     -0.23441     0.20118      -0.61754     
1.21         0.18879      -0.62273     -0.72111     -0.21927     -0.72111     -0.21927     0.18879      -0.62273     
1.22         0.17628      -0.62762     -0.72446     -0.2041      -0.72446     -0.2041      0.17628      -0.62762     
1.23         0.16364      -0.63221     -0.72753     -0.18892     -0.72753     -0.18892     0.16364      -0.63221     
1.24         0.1509       -0.63649     -0.73031     -0.17371     -0.73031     -0.17371     0.1509       -0.63649     
1.25         0.13804      -0.64047     -0.73281     -0.15849     -0.73281     -0.15849     0.13804      -0.64047     
1.26         0.12509      -0.64414     -0.73503     -0.14327     -0.73503     -0.14327     0.12509      -0.64414     
1.27         0.11206      -0.6475      -0.73696     -0.12804     -0.73696     -0.12804     0.11206      -0.6475      
1.28         0.098935     -0.65055     -0.73862     -0.11281     -0.73862     -0.11281     0.098935     -0.65055     
1.29         0.085741     -0.65328     -0.74        -0.097576    -0.74        -0.097576    0.085741     -0.65328     
1.3          0.072481     -0.6557      -0.74111     -0.082351    -0.74111     -0.082351    0.072481     -0.6557      
1.31         0.059163     -0.65781     -0.74193     -0.067136    -0.74193     -0.067136    0.059163     -0.65781     
1.32         0.045794     -0.6596      -0.74249     -0.051934    -0.74249     -0.051934    0.045794     -0.6596      
1.33         0.032383     -0.66107     -0.74277     -0.036747    -0.74277     -0.036747    0.032383     -0.66107     
1.34         0.018937     -0.66222     -0.74278     -0.02158     -0.74278     -0.02158     0.018937     -0.66222     
1.35         0.0054634    -0.66306     -0.74251     -0.0064359   -0.74251     -0.0064359   0.0054634    -0.66306     
1.36         -0.0080292   -0.66358     -0.74198     0.0086823    -0.74198     0.0086823    -0.0080292   -0.66358     
1.37         -0.021534    -0.66378     -0.74118     0.023771     -0.74118     0.023771     -0.021534    -0.66378     
1.38         -0.035042    -0.66366     -0.74011     0.038827     -0.74011     0.038827     -0.035042    -0.66366     
1.39         -0.048546    -0.66322     -0.73877     0.053848     -0.73877     0.053848     -0.048546    -0.66322     
1.4          -0.06204     -0.66246     -0.73717     0.068829     -0.73717     0.068829     -0.06204     -0.66246     
1.41         -0.075514    -0.66139     -0.7353      0.083769     -0.7353      0.083769     -0.075514    -0.66139     
1.42         -0.088961    -0.66        -0.73317     0.098663     -0.73317     0.098663     -0.088961    -0.66        
1.43         -0.10237     -0.6583      -0.73078     0.11351      -0.73078     0.11351      -0.10237     -0.6583      
1.44         -0.11575     -0.65628     -0.72812     0.1283       -0.72812     0.1283       -0.11575     -0.65628     
1.45         -0.12907     -0.65394     -0.7252      0.14304      -0.7252      0.14304      -0.12907     -0.65394     
1.46         -0.14233     -0.6513      -0.72202     0.15772      -0.72202     0.15772      -0.14233     -0.6513      
1.47         -0.15554     -0.64834     -0.71858     0.17234      -0.71858     0.17234      -0.15554     -0.64834     
1.48         -0.16866     -0.64507     -0.71489     0.1869       -0.71489     0.1869       -0.16866     -0.64507     
1.49         -0.18171     -0.6415      -0.71093     0.20139      -0.71093     0.20139      -0.18171     -0.6415      
1.5          -0.19468     -0.63762     -0.70672     0.21581      -0.70672     0.21581      -0.19468     -0.63762     
1.51         -0.20755     -0.63344     -0.70225     0.23015      -0.70225     0.23015      -0.20755     -0.63344     
1.52         -0.22032     -0.62895     -0.69752     0.24442      -0.69752     0.24442      -0.22032     -0.62895     
1.53         -0.23298     -0.62417     -0.69254     0.25861      -0.69254     0.25861      -0.23298     -0.62417     
1.54         -0.24552     -0.61909     -0.6873      0.27271      -0.6873      0.27271      -0.24552     -0.61909     
1.55         -0.25795     -0.61372     -0.68181     0.28673      -0.68181     0.28673      -0.25795     -0.61372     
1.56         -0.27024     -0.60806     -0.67607     0.30066      -0.67607     0.30066      -0.27024     -0.60806     
1.57         -0.28239     -0.60211     -0.67007     0.31449      -0.67007     0.31449      -0.28239     -0.60211     
1.58         -0.29441     -0.59587     -0.66382     0.32823      -0.66382     0.32823      -0.29441     -0.59587     
1.59         -0.30627     -0.58936     -0.65732     0.34187      -0.65732     0.34187      -0.30627     -0.58936     
1.6          -0.31797     -0.58257     -0.65057     0.35541      -0.65057     0.35541      -0.31797     -0.58257     
1.61         -0.32951     -0.5755      -0.64357     0.36884      -0.64357     0.36884      -0.32951     -0.5755      
1.62         -0.34088     -0.56816     -0.63632     0.38216      -0.63632     0.38216      -0.34088     -0.56816     
1.63         -0.35207     -0.56056     -0.62882     0.39537      -0.62882     0.39537      -0.35207     -0.56056     
1.64         -0.36307     -0.5527      -0.62107     0.40846      -0.62107     0.40846      -0.36307     -0.5527      
1.65         -0.37389     -0.54458     -0.61308     0.42143      -0.61308     0.42143      -0.37389     -0.54458     
1.66         -0.3845      -0.5362      -0.60483     0.43427      -0.60483     0.43427      -0.3845      -0.5362      
1.67         -0.39492     -0.52758     -0.59634     0.44699      -0.59634     0.44699      -0.39492     -0.52758     
1.68         -0.40512     -0.51871     -0.58761     0.45958      -0.58761     0.45958      -0.40512     -0.51871     
1.69         -0.4151      -0.5096      -0.57863     0.47203      -0.57863     0.47203      -0.4151      -0.5096      
1.7          -0.42487     -0.50026     -0.5694      0.48434      -0.5694      0.48434      -0.42487     -0.50026     
1.71         -0.4344      -0.49069     -0.55993     0.49651      -0.55993     0.49651      -0.4344      -0.49069     
1.72         -0.4437      -0.48089     -0.55022     0.50853      -0.55022     0.50853      -0.4437      -0.48089     
1.73         -0.45276     -0.47088     -0.54027     0.5204       -0.54027     0.5204       -0.45276     -0.47088     
1.74         -0.46157     -0.46066     -0.53007     0.53211      -0.53007     0.53211      -0.46157     -0.46066     
1.75         -0.47013     -0.45023     -0.51964     0.54366      -0.51964     0.54366      -0.47013     -0.45023     
1.76         -0.47843     -0.43959     -0.50896     0.55505      -0.50896     0.55505      -0.47843     -0.43959     
1.77         -0.48647     -0.42877     -0.49804     0.56627      -0.49804     0.56627      -0.48647     -0.42877     
1.78         -0.49424     -0.41775     -0.48689     0.57732      -0.48689     0.57732      -0.49424     -0.41775     
1.79         -0.50174     -0.40656     -0.4755      0.58819      -0.4755      0.58819      -0.50174     -0.40656     
1.8          -0.50896     -0.39519     -0.46387     0.59888      -0.46387     0.59888      -0.50896     -0.39519     
1.81         -0.51589     -0.38365     -0.45201     0.60939      -0.45201     0.60939      -0.51589     -0.38365     
1.82         -0.52253     -0.37194     -0.43992     0.6197       -0.43992     0.6197       -0.52253     -0.37194     
1.83         -0.52888     -0.36009     -0.42759     0.62981      -0.42759     0.62981      -0.52888     -0.36009     
1.84         -0.53494     -0.34809     -0.41503     0.63973      -0.41503     0.63973      -0.53494     -0.34809     
1.85         -0.54068     -0.33594     -0.40224     0.64944      -0.40224     0.64944      -0.54068     -0.33594     
1.86         -0.54613     -0.32367     -0.38922     0.65893      -0.38922     0.65893      -0.54613     -0.32367     
1.87         -0.55126     -0.31127     -0.37598     0.66822      -0.37598     0.66822      -0.55126     -0.31127     
1.88         -0.55607     -0.29875     -0.36251     0.67728      -0.36251     0.67728      -0.55607     -0.29875     
1.89         -0.56057     -0.28613     -0.34882     0.68611      -0.34882     0.68611      -0.56057     -0.28613     
1.9          -0.56474     -0.2734      -0.3349      0.69471      -0.3349      0.69471      -0.56474     -0.2734      
1.91         -0.56858     -0.26058     -0.32077     0.70308      -0.32077     0.70308      -0.56858     -0.26058     
1.92         -0.5721      -0.24768     -0.30641     0.7112       -0.30641     0.7112       -0.5721      -0.24768     
1.93         -0.57528     -0.23471     -0.29184     0.71907      -0.29184     0.71907      -0.57528     -0.23471     
1.94         -0.57813     -0.22166     -0.27706     0.72669      -0.27706     0.72669      -0.57813     -0.22166     
1.95         -0.58064     -0.20856     -0.26207     0.73405      -0.26207     0.73405      -0.58064     -0.20856     
1.96         -0.58281     -0.19541     -0.24687     0.74114      -0.24687     0.74114      -0.58281     -0.19541     
1.97         -0.58463     -0.18222     -0.23146     0.74796      -0.23146     0.74796      -0.58463     -0.18222     
1.98         -0.58611     -0.16901     -0.21585     0.7545       -0.21585     0.7545       -0.58611     -0.16901     
1.99         -0.58724     -0.15577     -0.20004     0.76076      -0.20004     0.76076      -0.58724     -0.15577     
2            -0.58802     -0.14252     -0.18404     0.76672      -0.18404     0.76672      -0.58802     -0.14252     
2.01         -0.58845     -0.12927     -0.16784     0.77239      -0.16784     0.77239      -0.58845     -0.12927     
2.02         -0.58853     -0.11602     -0.15145     0.77776      -0.15145     0.77776      -0.58853     -0.11602     
2.03         -0.58825     -0.1028      -0.13487     0.78282      -0.13487     0.78282      -0.58825     -0.1028      
2.04         -0.58763     -0.089606    -0.11811     0.78756      -0.11811     0.78756      -0.58763     -0.089606    
2.05         -0.58664     -0.07645     -0.10118     0.79198      -0.10118     0.79198      -0.58664     -0.07645     
2.06         -0.58531     -0.063343    -0.08407     0.79607      -0.08407     0.79607      -0.58531     -0.063343    
2.07         -0.58362     -0.050296    -0.066791    0.79982      -0.066791    0.79982      -0.58362     -0.050296    
2.08         -0.58158     -0.037319    -0.049349    0.80323      -0.049349    0.80323      -0.58158     -0.037319    
2.09         -0.57918     -0.024422    -0.031747    0.80629      -0.031747    0.80629      -0.57918     -0.024422    
2.1          -0.57644     -0.011617    -0.01399     0.809        -0.01399     0.809        -0.57644     -0.011617    
2.11         -0.57334     0.0010862    0.0039144    0.81134      0.0039144    0.81134      -0.57334     0.0010862    
2.12         -0.5699      0.013677     0.021962     0.81332      0.021962     0.81332      -0.5699      0.013677     
2.13         -0.56611     0.026143     0.040147     0.81491      0.040147     0.81491      -0.56611     0.026143     
2.14         -0.56197     0.038475     0.058462     0.81613      0.058462     0.81613      -0.56197     0.038475     
2.15         -0.5575      0.050662     0.076901     0.81695      0.076901     0.81695      -0.5575      0.050662     
