!freq-unit  param-type  data-format  keyword  impedance-ohms
# GHZ           S          RI           R         50
!-----------------------------------------------------------------------------
!Freq          ReS11        ImS11        ReS21        ImS21        ReS12        ImS12        ReS22        ImS22
0.5          -1.6053e-06  -0.00031943  -0.95367     -0.23176     -0.95367     -0.23176     -1.6053e-06  -0.00031943  
0.51         -1.9488e-05  -0.0010823   -0.97977     -0.053147    -0.97977     -0.053147    -1.9488e-05  -0.0010823   
0.52         -0.00031063  -0.0017948   -0.9727      0.1272       -0.9727      0.1272       -0.00031063  -0.0017948   
0.53         -0.00083639  -0.0023512   -0.93273     0.30317      -0.93273     0.30317      -0.00083639  -0.0023512   
0.54         -0.0015188   -0.0026681   -0.8612      0.46883      -0.8612      0.46883      -0.0015188   -0.0026681   
0.55         -0.0022521   -0.0026985   -0.76055     0.61855      -0.76055     0.61855      -0.0022521   -0.0026985   
0.56         -0.0029183   -0.0024401   -0.63418     0.74728      -0.63418     0.74728      -0.0029183   -0.0024401   
0.57         -0.0034052   -0.0019371   -0.48638     0.85066      -0.48638     0.85066      -0.0034052   -0.0019371   
0.58         -0.0036237   -0.0012749   -0.32215     0.9252       -0.32215     0.9252       -0.0036237   -0.0012749   
0.59         -0.0035218   -0.00056995  -0.14707     0.96837      -0.14707     0.96837      -0.0035218   -0.00056995  
0.6          -0.0030949   4.6732e-05   0.032945     0.97871      0.032945     0.97871      -0.0030949   4.6732e-05   
0.61         -0.002388    0.00044726   0.21178      0.95587      0.21178      0.95587      -0.002388    0.00044726   
0.62         -0.001493    0.00052531   0.38338      0.90064      0.38338      0.90064      -0.001493    0.00052531   
0.63         -0.00053792  0.00021208   0.54193      0.81489      0.54193      0.81489      -0.00053792  0.00021208   
0.64         0.00032777   -0.00051239  0.68205      0.70153      0.68205      0.70153      0.00032777   -0.00051239  
0.65         0.00095176   -0.0016137   0.79899      0.5644       0.79899      0.5644       0.00095176   -0.0016137   
0.66         0.0011981    -0.0030048   0.88877      0.40817      0.88877      0.40817      0.0011981    -0.0030048   
0.67         0.00096473   -0.0045536   0.94837      0.23814      0.94837      0.23814      0.00096473   -0.0045536   
0.68         0.00019749   -0.006097    0.97575      0.060077     0.97575      0.060077     0.00019749   -0.006097    
0.69         -0.0011018   -0.0074586   0.97         -0.11996     0.97         -0.11996     -0.0011018   -0.0074586   
0.7          -0.0028735   -0.0084679   0.93131      -0.29587     0.93131      -0.29587     -0.0028735   -0.0084679   
0.71         -0.0050051   -0.0089792   0.861        -0.46166     0.861        -0.46166     -0.0050051   -0.0089792   
0.72         -0.007342    -0.0088874   0.76148      -0.61172     0.76148      -0.61172     -0.007342    -0.0088874   
0.73         -0.0097031   -0.0081392   0.63611      -0.74094     0.63611      -0.74094     -0.0097031   -0.0081392   
0.74         -0.011899    -0.0067387   0.48918      -0.84494     0.48918      -0.84494     -0.011899    -0.0067387   
0.75         -0.01375     -0.0047462   0.32567      -0.92019     0.32567      -0.92019     -0.01375     -0.0047462   
0.76         -0.015102    -0.0022711   0.15114      -0.96414     0.15114      -0.96414     -0.015102    -0.0022711   
0.77         -0.015843    0.00053945   -0.028465    -0.9753      -0.028465    -0.9753      -0.015843    0.00053945   
0.78         -0.015908    0.0035156    -0.20705     -0.95329     -0.20705     -0.95329     -0.015908    0.0035156    
0.79         -0.015281    0.0064811    -0.37853     -0.89886     -0.37853     -0.89886     -0.015281    0.0064811    
0.8          -0.013997    0.0092686    -0.53709     -0.81388     -0.53709     -0.81388     -0.013997    0.0092686    
0.81         -0.012128    0.011733     -0.67732     -0.70123     -0.67732     -0.70123     -0.012128    0.011733     
0.82         -0.0097778   0.013759     -0.79447     -0.56474     -0.79447     -0.56474     -0.0097778   0.013759     
0.83         -0.007068    0.01527      -0.88453     -0.40907     -0.88453     -0.40907     -0.007068    0.01527      
0.84         -0.0041246   0.016221     -0.94446     -0.23952     -0.94446     -0.23952     -0.0041246   0.016221     
0.85         -0.0010685   0.016602     -0.97221     -0.061857    -0.97221     -0.061857    -0.0010685   0.016602     
0.86         0.0019919    0.016428     -0.96683     0.11786      -0.96683     0.11786      0.0019919    0.016428     
0.87         0.0049656    0.015728     -0.92851     0.29352      -0.92851     0.29352      0.0049656    0.015728     
0.88         0.0077786    0.014543     -0.85856     0.45913      -0.85856     0.45913      0.0077786    0.014543     
0.89         0.010371     0.012914     -0.75936     0.60904      -0.75936     0.60904      0.010371     0.012914     
0.9          0.012694     0.010878     -0.6343      0.73814      -0.6343      0.73814      0.012694     0.010878     
0.91         0.0147       0.0084712    -0.48765     0.84203      -0.48765     0.84203      0.0147       0.0084712    
0.92         0.016342     0.0057257    -0.32441     0.91718      -0.32441     0.91718      0.016342     0.0057257    
0.93         0.017565     0.002677     -0.15014     0.96101      -0.15014     0.96101      0.017565     0.002677     
0.94         0.018307     -0.00063112  0.029196     0.97204      0.029196     0.97204      0.018307     -0.00063112  
0.95         0.018505     -0.0041397   0.20748      0.94989      0.20748      0.94989      0.018505     -0.0041397   
0.96         0.018093     -0.0077691   0.37863      0.89531      0.37863      0.89531      0.018093     -0.0077691   
0.97         0.017013     -0.011416    0.5368       0.81019      0.5368       0.81019      0.017013     -0.011416    
0.98         0.015228     -0.014952    0.67659      0.69743      0.67659      0.69743      0.015228     -0.014952    
0.99         0.012725     -0.01823     0.79322      0.56089      0.79322      0.56089      0.012725     -0.01823     
1            0.0095279    -0.021089    0.88272      0.40523      0.88272      0.40523      0.0095279    -0.021089    
1.01         0.0057029    -0.023365    0.94203      0.23577      0.94203      0.23577      0.0057029    -0.023365    
1.02         0.0013594    -0.024905    0.96914      0.058318     0.96914      0.058318     0.0013594    -0.024905    
1.03         -0.0033509   -0.025577    0.96311      -0.12107     0.96311      -0.12107     -0.0033509   -0.025577    
1.04         -0.0082401   -0.025286    0.92417      -0.29626     0.92417      -0.29626     -0.0082401   -0.025286    
1.05         -0.013095    -0.023985    0.85364      -0.46127     0.85364      -0.46127     -0.013095    -0.023985    
1.06         -0.017689    -0.021677    0.75395      -0.61046     0.75395      -0.61046     -0.017689    -0.021677    
1.07         -0.021798    -0.018423    0.62851      -0.73872     0.62851      -0.73872     -0.021798    -0.018423    
1.08         -0.025217    -0.014337    0.4816       -0.84168     0.4816       -0.84168     -0.025217    -0.014337    
1.09         -0.027768    -0.0095822   0.31827      -0.91581     0.31827      -0.91581     -0.027768    -0.0095822   
1.1          -0.029322    -0.0043581   0.14409      -0.95858     0.14409      -0.95858     -0.029322    -0.0043581   
1.11         -0.029796    0.0011095    -0.034972    -0.96854     -0.034972    -0.96854     -0.029796    0.0011095    
1.12         -0.029164    0.006584     -0.21279     -0.94535     -0.21279     -0.94535     -0.029164    0.006584     
1.13         -0.027456    0.011832     -0.38328     -0.88979     -0.38328     -0.88979     -0.027456    0.011832     
1.14         -0.024749    0.016637     -0.54059     -0.80377     -0.54059     -0.80377     -0.024749    0.016637     
1.15         -0.021168    0.020808     -0.67936     -0.69025     -0.67936     -0.69025     -0.021168    0.020808     
1.16         -0.01687     0.024193     -0.79481     -0.5531      -0.79481     -0.5531      -0.01687     0.024193     
1.17         -0.012034    0.026677     -0.883       -0.39703     -0.883       -0.39703     -0.012034    0.026677     
1.18         -0.006855    0.028188     -0.94091     -0.22739     -0.94091     -0.22739     -0.006855    0.028188     
1.19         -0.0015301   0.028696     -0.96654     -0.049989    -0.96654     -0.049989    -0.0015301   0.028696     
1.2          0.0037481    0.02821      -0.95902     0.12908      -0.95902     0.12908      0.0037481    0.02821      
1.21         0.0087983    0.026773     -0.91861     0.30369      -0.91861     0.30369      0.0087983    0.026773     
1.22         0.013455     0.024456     -0.84669     0.46784      -0.84669     0.46784      0.013455     0.024456     
1.23         0.017573     0.021356     -0.74574     0.61589      -0.74574     0.61589      0.017573     0.021356     
1.24         0.021027     0.017593     -0.61921     0.74277      -0.61921     0.74277      0.021027     0.017593     
1.25         0.023716     0.0133       -0.47146     0.84413      -0.47146     0.84413      0.023716     0.0133       
1.26         0.025563     0.0086276    -0.30755     0.91648      -0.30755     0.91648      0.025563     0.0086276    
1.27         0.026516     0.0037337    -0.13312     0.95733      -0.13312     0.95733      0.026516     0.0037337    
1.28         0.026553     -0.0012149   0.045844     0.96529      0.045844     0.96529      0.026553     -0.0012149   
1.29         0.02568      -0.0060483   0.22319      0.94009      0.22319      0.94009      0.02568      -0.0060483   
1.3          0.023932     -0.010598    0.39282      0.88259      0.39282      0.88259      0.023932     -0.010598    
1.31         0.02138      -0.014703    0.54892      0.79476      0.54892      0.79476      0.02138      -0.014703    
1.32         0.018125     -0.018217    0.68611      0.67964      0.68611      0.67964      0.018125     -0.018217    
1.33         0.014294     -0.021012    0.79967      0.54118      0.79967      0.54118      0.014294     -0.021012    
1.34         0.010045     -0.02299     0.88572      0.38414      0.88572      0.38414      0.010045     -0.02299     
1.35         0.0055516    -0.024086    0.94127      0.21391      0.94127      0.21391      0.0055516    -0.024086    
1.36         0.00099951   -0.024275    0.96444      0.03637      0.96444      0.03637      0.00099951   -0.024275    
1.37         -0.0034232   -0.023573    0.95441      -0.14239     0.95441      -0.14239     -0.0034232   -0.023573    
1.38         -0.0075368   -0.022036    0.91153      -0.31621     0.91153      -0.31621     -0.0075368   -0.022036    
1.39         -0.01118     -0.01976     0.83729      -0.47911     0.83729      -0.47911     -0.01118     -0.01976     
1.4          -0.014217    -0.016872    0.73423      -0.62547     0.73423      -0.62547     -0.014217    -0.016872    
1.41         -0.016549    -0.013528    0.6059       -0.75027     0.6059       -0.75027     -0.016549    -0.013528    
1.42         -0.018113    -0.0098949   0.45672      -0.8492      0.45672      -0.8492      -0.018113    -0.0098949   
1.43         -0.018891    -0.0061486   0.29184      -0.91885     0.29184      -0.91885     -0.018891    -0.0061486   
1.44         -0.018902    -0.0024584   0.11693      -0.95682     0.11693      -0.95682     -0.018902    -0.0024584   
1.45         -0.018202    0.0010202    -0.06197     -0.9618      -0.06197     -0.9618      -0.018202    0.0010202    
1.46         -0.016878    0.0041541    -0.2387      -0.93362     -0.2387      -0.93362     -0.016878    0.0041541    
1.47         -0.015041    0.0068372    -0.40717     -0.87324     -0.40717     -0.87324     -0.015041    0.0068372    
1.48         -0.012815    0.0089946    -0.56156     -0.78276     -0.56156     -0.78276     -0.012815    0.0089946    
1.49         -0.010334    0.010582     -0.69654     -0.66529     -0.69654     -0.66529     -0.010334    0.010582     
1.5          -0.0077299   0.011588     -0.80747     -0.52488     -0.80747     -0.52488     -0.0077299   0.011588     
1.51         -0.0051284   0.012025     -0.89049     -0.36639     -0.89049     -0.36639     -0.0051284   0.012025     
1.52         -0.0026445   0.011933     -0.94276     -0.19527     -0.94276     -0.19527     -0.0026445   0.011933     
1.53         -0.00037805  0.01137      -0.96247     -0.017453    -0.96247     -0.017453    -0.00037805  0.01137      
1.54         0.0015878    0.010411     -0.94893     0.16093      -0.94893     0.16093      0.0015878    0.010411     
1.55         0.0031885    0.0091423    -0.90261     0.33372      -0.90261     0.33372      0.0031885    0.0091423    
1.56         0.0043788    0.0076607    -0.82512     0.49495      -0.82512     0.49495      0.0043788    0.0076607    
1.57         0.0051337    0.0060676    -0.71912     0.63903      -0.71912     0.63903      0.0051337    0.0060676    
1.58         0.0054494    0.0044677    -0.5883      0.761        -0.5883      0.761        0.0054494    0.0044677    
1.59         0.0053439    0.0029652    -0.43716     0.85663      -0.43716     0.85663      0.0053439    0.0029652    
1.6          0.004858     0.0016598    -0.27093     0.92262      -0.27093     0.92262      0.004858     0.0016598    
1.61         0.0040553    0.00064223   -0.095373    0.95669      -0.095373    0.95669      0.0040553    0.00064223   
1.62         0.0030215    -1.1572e-05  0.08345      0.95765      0.08345      0.95765      0.0030215    -1.1572e-05  
1.63         0.0018621    -0.00024613  0.25935      0.92547      0.25935      0.92547      0.0018621    -0.00024613  
1.64         0.00069791   -3.2503e-05  0.42623      0.86127      0.42623      0.86127      0.00069791   -3.2503e-05  
1.65         -0.00034078  0.00062657   0.57832      0.76727      0.57832      0.76727      -0.00034078  0.00062657   
1.66         -0.0011228   0.0016929    0.71036      0.64673      0.71036      0.64673      -0.0011228   0.0016929    
1.67         -0.0015259   0.0030915    0.81776      0.50381      0.81776      0.50381      -0.0015259   0.0030915    
1.68         -0.0014472   0.0047121    0.89681      0.34347      0.89681      0.34347      -0.0014472   0.0047121    
1.69         -0.00081398  0.0064142    0.94478      0.17128      0.94478      0.17128      -0.00081398  0.0064142    
1.7          0.00040713   0.0080349    0.95999      -0.006815    0.95999      -0.006815    0.00040713   0.0080349    
1.71         0.0022035    0.0094008    0.94192      -0.18463     0.94192      -0.18463     0.0022035    0.0094008    
1.72         0.0045128    0.010341     0.8912       -0.35599     0.8912       -0.35599     0.0045128    0.010341     
1.73         0.0072243    0.010701     0.8096       -0.51496     0.8096       -0.51496     0.0072243    0.010701     
1.74         0.010183     0.010357     0.69994      -0.65604     0.69994      -0.65604     0.010183     0.010357     
1.75         0.013201     0.0092314    0.56604      -0.77431     0.56604      -0.77431     0.013201     0.0092314    
1.76         0.016068     0.0072956    0.41254      -0.8657      0.41254      -0.8657      0.016068     0.0072956    
1.77         0.018568     0.0045803    0.24476      -0.92702     0.24476      -0.92702     0.018568     0.0045803    
1.78         0.020497     0.0011738    0.06855      -0.95615     0.06855      -0.95615     0.020497     0.0011738    
1.79         0.021675     -0.0027824   -0.10999     -0.95209     -0.10999     -0.95209     0.021675     -0.0027824   
1.8          0.021966     -0.0071031   -0.28467     -0.91499     -0.28467     -0.91499     0.021966     -0.0071031   
1.81         0.021281     -0.011572    -0.44941     -0.84613     -0.44941     -0.84613     0.021281     -0.011572    
1.82         0.019591     -0.015956    -0.59849     -0.7479      -0.59849     -0.7479      0.019591     -0.015956    
1.83         0.016921     -0.020022    -0.72675     -0.62374     -0.72675     -0.62374     0.016921     -0.020022    
1.84         0.013355     -0.023553    -0.82974     -0.47793     -0.82974     -0.47793     0.013355     -0.023553    
1.85         0.0090223    -0.026358    -0.90387     -0.31557     -0.90387     -0.31557     0.0090223    -0.026358    
1.86         0.0040896    -0.028282    -0.94656     -0.14228     -0.94656     -0.14228     0.0040896    -0.028282    
1.87         -0.0012503   -0.029215    -0.95635     0.035916     -0.95635     0.035916     -0.0012503   -0.029215    
1.88         -0.0067911   -0.029092    -0.93289     0.21281      -0.93289     0.21281      -0.0067911   -0.029092    
1.89         -0.012323    -0.02789     -0.877       0.38227      -0.877       0.38227      -0.012323    -0.02789     
1.9          -0.017643    -0.025626    -0.79061     0.53839      -0.79061     0.53839      -0.017643    -0.025626    
1.91         -0.022559    -0.022352    -0.67675     0.67574      -0.67675     0.67574      -0.022559    -0.022352    
1.92         -0.026894    -0.018149    -0.53936     0.78954      -0.53936     0.78954      -0.026894    -0.018149    
1.93         -0.030488    -0.01312     -0.38323     0.87583      -0.38323     0.87583      -0.030488    -0.01312     
1.94         -0.0332      -0.0073908   -0.21381     0.93161      -0.21381     0.93161      -0.0332      -0.0073908   
1.95         -0.034903    -0.0011056   -0.036983    0.95493      -0.036983    0.95493      -0.034903    -0.0011056   
1.96         -0.035488    0.0055712    0.14108      0.94499      0.14108      0.94499      -0.035488    0.0055712    
1.97         -0.034866    0.012454     0.31417      0.90213      0.31417      0.90213      -0.034866    0.012454     
1.98         -0.032972    0.019335     0.47627      0.82785      0.47627      0.82785      -0.032972    0.019335     
1.99         -0.029771    0.025984     0.62171      0.72475      0.62171      0.72475      -0.029771    0.025984     
2            -0.025268    0.032151     0.74544      0.59643      0.74544      0.59643      -0.025268    0.032151     
2.01         -0.019516    0.037572     0.84313      0.44736      0.84313      0.44736      -0.019516    0.037572     
2.02         -0.012626    0.041978     0.9114       0.28275      0.9114       0.28275      -0.012626    0.041978     
2.03         -0.0047721   0.045112     0.94787      0.10835      0.94787      0.10835      -0.0047721   0.045112     
2.04         0.0038074    0.046742     0.95127      -0.069758    0.95127      -0.069758    0.0038074    0.046742     
2.05         0.012811     0.046682     0.92149      -0.24536     0.92149      -0.24536     0.012811     0.046682     
2.06         0.021885     0.044812     0.8596       -0.41234     0.8596       -0.41234     0.021885     0.044812     
2.07         0.030637     0.04109      0.76776      -0.56486     0.76776      -0.56486     0.030637     0.04109      
2.08         0.038659     0.035569     0.64918      -0.69763     0.64918      -0.69763     0.038659     0.035569     
2.09         0.045551     0.028403     0.508        -0.80601     0.508        -0.80601     0.045551     0.028403     
2.1          0.050947     0.019839     0.34916      -0.88624     0.34916      -0.88624     0.050947     0.019839     
2.11         0.054545     0.010215     0.1782       -0.93553     0.1782       -0.93553     0.054545     0.010215     
2.12         0.056124     -5.8858e-05  0.0010789    -0.95217     0.0010789    -0.95217     0.056124     -5.8858e-05  
2.13         0.055568     -0.010528    -0.17603     -0.93559     -0.17603     -0.93559     0.055568     -0.010528    
2.14         0.05287      -0.020718    -0.34695     -0.88636     -0.34695     -0.88636     0.05287      -0.020718    
2.15         0.048141     -0.030165    -0.50573     -0.80621     -0.50573     -0.80621     0.048141     -0.030165    
