!freq-unit  param-type  data-format  keyword  impedance-ohms
# GHZ           S          RI           R         50
!-----------------------------------------------------------------------------
!Freq          ReS11        ImS11        ReS21        ImS21        ReS12        ImS12        ReS22        ImS22
0.5          0.024721     -0.030976    -0.76578     -0.61377     -0.76578     -0.61377     0.024721     -0.030976    
0.51         0.01915      -0.035213    -0.86095     -0.47058     -0.86095     -0.47058     0.01915      -0.035213    
0.52         0.012854     -0.038441    -0.92966     -0.31299     -0.92966     -0.31299     0.012854     -0.038441    
0.53         0.0060129    -0.040505    -0.96979     -0.14587     -0.96979     -0.14587     0.0060129    -0.040505    
0.54         -0.0011518   -0.041283    -0.98014     0.025675     -0.98014     0.025675     -0.0011518   -0.041283    
0.55         -0.0083809   -0.040698    -0.96039     0.19636      -0.96039     0.19636      -0.0083809   -0.040698    
0.56         -0.01539     -0.038731    -0.91116     0.36096      -0.91116     0.36096      -0.01539     -0.038731    
0.57         -0.021884    -0.035431    -0.83395     0.51442      -0.83395     0.51442      -0.021884    -0.035431    
0.58         -0.027578    -0.030921    -0.73115     0.65203      -0.73115     0.65203      -0.027578    -0.030921    
0.59         -0.032215    -0.025393    -0.60591     0.76956      -0.60591     0.76956      -0.032215    -0.025393    
0.6          -0.035588    -0.019102    -0.46209     0.86341      -0.46209     0.86341      -0.035588    -0.019102    
0.61         -0.037554    -0.012352    -0.30409     0.9307       -0.30409     0.9307       -0.037554    -0.012352    
0.62         -0.038051    -0.0054771   -0.13677     0.96936      -0.13677     0.96936      -0.038051    -0.0054771   
0.63         -0.0371      0.0011794    0.034722     0.9782       0.034722     0.9782       -0.0371      0.0011794    
0.64         -0.034811    0.0072906    0.20513      0.95694      0.20513      0.95694      -0.034811    0.0072906    
0.65         -0.03137     0.012567     0.3692       0.90622      0.3692       0.90622      -0.03137     0.012567     
0.66         -0.027032    0.016779     0.52188      0.8276       0.52188      0.8276       -0.027032    0.016779     
0.67         -0.022097    0.019771     0.65847      0.7235       0.65847      0.7235       -0.022097    0.019771     
0.68         -0.016895    0.021469     0.77476      0.5971       0.77476      0.5971       -0.016895    0.021469     
0.69         -0.011754    0.02189      0.86715      0.45231      0.86715      0.45231      -0.011754    0.02189      
0.7          -0.0069836   0.021132     0.93278      0.29358      0.93278      0.29358      -0.0069836   0.021132     
0.71         -0.0028489   0.019368     0.96963      0.12581      0.96963      0.12581      -0.0028489   0.019368     
0.72         0.00044339   0.016827     0.97654      -0.045821    0.97654      -0.045821    0.00044339   0.016827     
0.73         0.0027578    0.013779     0.9533       -0.21602     0.9533       -0.21602     0.0027578    0.013779     
0.74         0.0040357    0.01051      0.90062      -0.37951     0.90062      -0.37951     0.0040357    0.01051      
0.75         0.004295     0.007304     0.82012      -0.53125     0.82012      -0.53125     0.004295     0.007304     
0.76         0.0036238    0.0044225    0.7143       -0.66655     0.7143       -0.66655     0.0036238    0.0044225    
0.77         0.0021702    0.0020883    0.58641      -0.7812      0.58641      -0.7812      0.0021702    0.0020883    
0.78         0.00012792   0.00047369   0.44043      -0.87168     0.44043      -0.87168     0.00012792   0.00047369   
0.79         -0.0022791   -0.00030667  0.28086      -0.93518     0.28086      -0.93518     -0.0022791   -0.00030667  
0.8          -0.0048127   -0.00019864  0.11265      -0.96973     0.11265      -0.96973     -0.0048127   -0.00019864  
0.81         -0.0072354   0.00079296   -0.059005    -0.97426     -0.059005    -0.97426     -0.0072354   0.00079296   
0.82         -0.0093235   0.0026092    -0.22878     -0.94865     -0.22878     -0.94865     -0.0093235   0.0026092    
0.83         -0.010877    0.0051444    -0.39142     -0.89367     -0.39142     -0.89367     -0.010877    0.0051444    
0.84         -0.011728    0.008254     -0.5419      -0.81105     -0.5419      -0.81105     -0.011728    0.008254     
0.85         -0.011745    0.011764     -0.67554     -0.70332     -0.67554     -0.70332     -0.011745    0.011764     
0.86         -0.010835    0.015479     -0.78822     -0.57385     -0.78822     -0.57385     -0.010835    0.015479     
0.87         -0.0089443   0.019189     -0.87643     -0.42664     -0.87643     -0.42664     -0.0089443   0.019189     
0.88         -0.0060614   0.022677     -0.93745     -0.26625     -0.93745     -0.26625     -0.0060614   0.022677     
0.89         -0.002214    0.025724     -0.96938     -0.097656    -0.96938     -0.097656    -0.002214    0.025724     
0.9          0.0025294    0.028113     -0.97123     0.073903     -0.97123     0.073903     0.0025294    0.028113     
0.91         0.0080595    0.029638     -0.94295     0.24311      -0.94295     0.24311      0.0080595    0.029638     
0.92         0.014226     0.030104     -0.88541     0.4047       -0.88541     0.4047       0.014226     0.030104     
0.93         0.020835     0.02934      -0.80041     0.55367      -0.80041     0.55367      0.020835     0.02934      
0.94         0.027656     0.027204     -0.69059     0.68537      -0.69059     0.68537      0.027656     0.027204     
0.95         0.034416     0.023594     -0.55937     0.79573      -0.55937     0.79573      0.034416     0.023594     
0.96         0.040811     0.018457     -0.41083     0.8813       -0.41083     0.8813       0.040811     0.018457     
0.97         0.046512     0.011799     -0.24959     0.93944      -0.24959     0.93944      0.046512     0.011799     
0.98         0.051176     0.0036971    -0.080681    0.96833      -0.080681    0.96833      0.051176     0.0036971    
0.99         0.054459     -0.0056959   0.090632     0.96708      0.090632     0.96708      0.054459     -0.0056959   
1            0.056039     -0.016148    0.25902      0.93575      0.25902      0.93575      0.056039     -0.016148    
1.01         0.055627     -0.027346    0.41922      0.87533      0.41922      0.87533      0.055627     -0.027346    
1.02         0.052997     -0.038906    0.56626      0.78771      0.56626      0.78771      0.052997     -0.038906    
1.03         0.047994     -0.050377    0.69555      0.67564      0.69555      0.67564      0.047994     -0.050377    
1.04         0.040562     -0.061265    0.80309      0.54264      0.80309      0.54264      0.040562     -0.061265    
1.05         0.030748     -0.071047    0.88552      0.39286      0.88552      0.39286      0.030748     -0.071047    
1.06         0.018718     -0.079201    0.9403       0.23099      0.9403       0.23099      0.018718     -0.079201    
1.07         0.004752     -0.08523     0.96575      0.062088     0.96575      0.062088     0.004752     -0.08523     
1.08         -0.010756    -0.088687    0.96111      -0.10857     0.96111      -0.10857     -0.010756    -0.088687    
1.09         -0.02731     -0.089207    0.92654      -0.27567     0.92654      -0.27567     -0.02731     -0.089207    
1.1          -0.044331    -0.086524    0.86316      -0.43399     0.86316      -0.43399     -0.044331    -0.086524    
1.11         -0.061179    -0.080494    0.77298      -0.57863     0.77298      -0.57863     -0.061179    -0.080494    
1.12         -0.077178    -0.071105    0.65884      -0.70508     0.65884      -0.70508     -0.077178    -0.071105    
1.13         -0.091646    -0.058486    0.52431      -0.80943     0.52431      -0.80943     -0.091646    -0.058486    
1.14         -0.10393     -0.042909    0.37362      -0.88846     0.37362      -0.88846     -0.10393     -0.042909    
1.15         -0.11342     -0.024777    0.21147      -0.93972     0.21147      -0.93972     -0.11342     -0.024777    
1.16         -0.11961     -0.004614    0.042938     -0.96166     0.042938     -0.96166     -0.11961     -0.004614    
1.17         -0.12207     0.01695      -0.12673     -0.95362     -0.12673     -0.95362     -0.12207     0.01695      
1.18         -0.12051     0.039205     -0.29224     -0.9159      -0.29224     -0.9159      -0.12051     0.039205     
1.19         -0.11478     0.061387     -0.44844     -0.84969     -0.44844     -0.84969     -0.11478     0.061387     
1.2          -0.10488     0.082702     -0.59047     -0.7571      -0.59047     -0.7571      -0.10488     0.082702     
1.21         -0.09095     0.10236      -0.71394     -0.64104     -0.71394     -0.64104     -0.09095     0.10236      
1.22         -0.07329     0.11959      -0.815       -0.50516     -0.815       -0.50516     -0.07329     0.11959      
1.23         -0.052338    0.1337       -0.89053     -0.35372     -0.89053     -0.35372     -0.052338    0.1337       
1.24         -0.028667    0.14405      -0.93821     -0.19145     -0.93821     -0.19145     -0.028667    0.14405      
1.25         -0.0029617   0.15014      -0.95659     -0.023437    -0.95659     -0.023437    -0.0029617   0.15014      
1.26         0.023994     0.15157      -0.94512     0.14508      -0.94512     0.14508      0.023994     0.15157      
1.27         0.051344     0.14809      -0.90421     0.30883      -0.90421     0.30883      0.051344     0.14809      
1.28         0.078187     0.13962      -0.83518     0.46272      -0.83518     0.46272      0.078187     0.13962      
1.29         0.1036       0.12624      -0.74021     0.60196      -0.74021     0.60196      0.1036       0.12624      
1.3          0.12667      0.10818      -0.62231     0.72223      -0.62231     0.72223      0.12667      0.10818      
1.31         0.14654      0.085879     -0.4852      0.8198       -0.4852      0.8198       0.14654      0.085879     
1.32         0.16242      0.059903     -0.33318     0.89166      -0.33318     0.89166      0.16242      0.059903     
1.33         0.17361      0.030984     -0.17102     0.93563      -0.17102     0.93563      0.17361      0.030984     
1.34         0.17957      -2.0062e-05  -0.0037892   0.95036      -0.0037892   0.95036      0.17957      -2.0062e-05  
1.35         0.1799       -0.032147    0.16328      0.93546      0.16328      0.93546      0.1799       -0.032147    
1.36         0.1744       -0.064357    0.32499      0.89145      0.32499      0.89145      0.1744       -0.064357    
1.37         0.16304      -0.095573    0.47631      0.81974      0.47631      0.81974      0.16304      -0.095573    
1.38         0.14601      -0.12471     0.61255      0.72263      0.61255      0.72263      0.14601      -0.12471     
1.39         0.1237       -0.15073     0.72948      0.60317      0.72948      0.60317      0.1237       -0.15073     
1.4          0.096706     -0.17265     0.82352      0.46514      0.82352      0.46514      0.096706     -0.17265     
1.41         0.065787     -0.18962     0.89177      0.31285      0.89177      0.31285      0.065787     -0.18962     
1.42         0.031873     -0.20093     0.93215      0.15107      0.93215      0.15107      0.031873     -0.20093     
1.43         -0.0039805   -0.20606     0.94346      -0.01515     0.94346      -0.01515     -0.0039805   -0.20606     
1.44         -0.040625    -0.20467     0.9254       -0.18064     0.9254       -0.18064     -0.040625    -0.20467     
1.45         -0.076857    -0.19665     0.87857      -0.34027     0.87857      -0.34027     -0.076857    -0.19665     
1.46         -0.11146     -0.18213     0.80448      -0.48906     0.80448      -0.48906     -0.11146     -0.18213     
1.47         -0.14327     -0.16144     0.70546      -0.62243     0.70546      -0.62243     -0.14327     -0.16144     
1.48         -0.17115     -0.13513     0.58464      -0.73623     0.58464      -0.73623     -0.17115     -0.13513     
1.49         -0.19413     -0.10396     0.44579      -0.82697     0.44579      -0.82697     -0.19413     -0.10396     
1.5          -0.21135     -0.068875    0.29325      -0.89186     0.29325      -0.89186     -0.21135     -0.068875    
1.51         -0.22215     -0.030936    0.1318       -0.9289      0.1318       -0.9289      -0.22215     -0.030936    
1.52         -0.22608     0.0086631    -0.033549    -0.93698     -0.033549    -0.93698     -0.22608     0.0086631    
1.53         -0.22288     0.048664     -0.19764     -0.91589     -0.19764     -0.91589     -0.22288     0.048664     
1.54         -0.21254     0.087778     -0.35537     -0.86632     -0.35537     -0.86632     -0.21254     0.087778     
1.55         -0.1953      0.12472      -0.50184     -0.78985     -0.50184     -0.78985     -0.1953      0.12472      
1.56         -0.17161     0.15828      -0.6325      -0.68888     -0.6325      -0.68888     -0.17161     0.15828      
1.57         -0.14213     0.18731      -0.74332     -0.5666      -0.74332     -0.5666      -0.14213     0.18731      
1.58         -0.10773     0.21082      -0.83086     -0.42682     -0.83086     -0.42682     -0.10773     0.21082      
1.59         -0.06946     0.22797      -0.89244     -0.27393     -0.89244     -0.27393     -0.06946     0.22797      
1.6          -0.028494    0.23812      -0.92617     -0.11269     -0.92617     -0.11269     -0.028494    0.23812      
1.61         0.013877     0.24085      -0.93104     0.051868     -0.93104     0.051868     0.013877     0.24085      
1.62         0.056299     0.23599      -0.90694     0.21463      -0.90694     0.21463      0.056299     0.23599      
1.63         0.097397     0.2236       -0.85464     0.37053      -0.85464     0.37053      0.097397     0.2236       
1.64         0.13582      0.20399      -0.77581     0.51475      -0.77581     0.51475      0.13582      0.20399      
1.65         0.17029      0.17774      -0.67293     0.64281      -0.67293     0.64281      0.17029      0.17774      
1.66         0.19965      0.14563      -0.54922     0.75077      -0.54922     0.75077      0.19965      0.14563      
1.67         0.22288      0.10867      -0.40854     0.83528      -0.40854     0.83528      0.22288      0.10867      
1.68         0.23918      0.068025     -0.25526     0.89377      -0.25526     0.89377      0.23918      0.068025     
1.69         0.24797      0.025015     -0.094152    0.92442      -0.094152    0.92442      0.24797      0.025015     
1.7          0.24891      -0.018957    0.069792     0.92632      0.069792     0.92632      0.24891      -0.018957    
1.71         0.24195      -0.062442    0.23149      0.89942      0.23149      0.89942      0.24195      -0.062442    
1.72         0.2273       -0.104       0.38594      0.84455      0.38594      0.84455      0.2273       -0.104       
1.73         0.20542      -0.14227     0.52834      0.76344      0.52834      0.76344      0.20542      -0.14227     
1.74         0.17705      -0.17596     0.6543       0.65858      0.6543       0.65858      0.17705      -0.17596     
1.75         0.14313      -0.20399     0.75989      0.53322      0.75989      0.53322      0.14313      -0.20399     
1.76         0.10481      -0.22544     0.84184      0.39124      0.84184      0.39124      0.10481      -0.22544     
1.77         0.063354     -0.23964     0.89759      0.23703      0.89759      0.23703      0.063354     -0.23964     
1.78         0.020157     -0.24615     0.92537      0.075387     0.92537      0.075387     0.020157     -0.24615     
1.79         -0.023355    -0.24483     0.92431      -0.088686    0.92431      -0.088686    -0.023355    -0.24483     
1.8          -0.065755    -0.23578     0.89441      -0.25008     0.89441      -0.25008     -0.065755    -0.23578     
1.81         -0.10567     -0.21938     0.83655      -0.40377     0.83655      -0.40377     -0.10567     -0.21938     
1.82         -0.14184     -0.19623     0.7525       -0.54494     0.7525       -0.54494     -0.14184     -0.19623     
1.83         -0.17312     -0.16716     0.64486      -0.66918     0.64486      -0.66918     -0.17312     -0.16716     
1.84         -0.19858     -0.13318     0.51695      -0.77256     0.51695      -0.77256     -0.19858     -0.13318     
1.85         -0.21747     -0.095454    0.37275      -0.85184     0.37275      -0.85184     -0.21747     -0.095454    
1.86         -0.22928     -0.055232    0.21674      -0.90449     0.21674      -0.90449     -0.22928     -0.055232    
1.87         -0.23372     -0.013835    0.053808     -0.92882     0.053808     -0.92882     -0.23372     -0.013835    
1.88         -0.23077     0.027401     -0.11095     -0.92402     -0.11095     -0.92402     -0.23077     0.027401     
1.89         -0.22062     0.067169     -0.27237     -0.89021     -0.27237     -0.89021     -0.22062     0.067169     
1.9          -0.2037      0.10423      -0.42536     -0.82842     -0.42536     -0.82842     -0.2037      0.10423      
1.91         -0.18066     0.13743      -0.56512     -0.74054     -0.56512     -0.74054     -0.18066     0.13743      
1.92         -0.1523      0.16579      -0.68723     -0.62932     -0.68723     -0.62932     -0.1523      0.16579      
1.93         -0.11962     0.18846      -0.78784     -0.49822     -0.78784     -0.49822     -0.11962     0.18846      
1.94         -0.083732    0.2048       -0.86375     -0.35135     -0.86375     -0.35135     -0.083732    0.2048       
1.95         -0.045839    0.21439      -0.91256     -0.1933      -0.91256     -0.1933      -0.045839    0.21439      
1.96         -0.0072026   0.217        -0.9327      -0.029034    -0.9327      -0.029034    -0.0072026   0.217        
1.97         0.030901     0.21268      -0.92352     0.1363       -0.92352     0.1363       0.030901     0.21268      
1.98         0.067224     0.20168      -0.88526     0.29749      -0.88526     0.29749      0.067224     0.20168      
1.99         0.10059      0.18447      -0.81909     0.44949      -0.81909     0.44949      0.10059      0.18447      
2            0.12993      0.16177      -0.72707     0.58749      -0.72707     0.58749      0.12993      0.16177      
2.01         0.15432      0.13445      -0.61203     0.70716      -0.61203     0.70716      0.15432      0.13445      
2.02         0.17305      0.10355      -0.47757     0.80469      -0.47757     0.80469      0.17305      0.10355      
2.03         0.1856       0.070233     -0.32787     0.87699      -0.32787     0.87699      0.1856       0.070233     
2.04         0.19168      0.035728     -0.1676      0.92173      -0.1676      0.92173      0.19168      0.035728     
2.05         0.19128      0.0012949    -0.0017998   0.93746      -0.0017998   0.93746      0.19128      0.0012949    
2.06         0.18461      -0.031835    0.16434      0.92359      0.16434      0.92359      0.18461      -0.031835    
2.07         0.17212      -0.062507    0.32558      0.88051      0.32558      0.88051      0.17212      -0.062507    
2.08         0.15451      -0.089695    0.47682      0.80948      0.47682      0.80948      0.15451      -0.089695    
2.09         0.13263      -0.11254     0.61326      0.71267      0.61326      0.71267      0.13263      -0.11254     
2.1          0.10749      -0.13039     0.73052      0.59307      0.73052      0.59307      0.10749      -0.13039     
2.11         0.080193     -0.14282     0.82484      0.45438      0.82484      0.45438      0.080193     -0.14282     
2.12         0.051889     -0.14965     0.89313      0.30096      0.89313      0.30096      0.051889     -0.14965     
2.13         0.023713     -0.15094     0.93314      0.13764      0.93314      0.13764      0.023713     -0.15094     
2.14         -0.0032613   -0.14699     0.9435       -0.030422    0.9435       -0.030422    -0.0032613   -0.14699     
2.15         -0.028074    -0.1383      0.92379      -0.19786     0.92379      -0.19786     -0.028074    -0.1383      
