!freq-unit  param-type  data-format  keyword  impedance-ohms
# GHZ           S          RI           R         50
!-----------------------------------------------------------------------------
!Freq          ReS11        ImS11        ReS21        ImS21        ReS12        ImS12        ReS22        ImS22
0.5          -0.015982    -0.012495    -0.61213     0.78002      -0.61213     0.78002      -0.015982    -0.012495    
0.51         -0.017044    -0.011233    -0.54684     0.82698      -0.54684     0.82698      -0.017044    -0.011233    
0.52         -0.017952    -0.0098512   -0.47796     0.8685       -0.47796     0.8685       -0.017952    -0.0098512   
0.53         -0.018691    -0.0083706   -0.40595     0.90429      -0.40595     0.90429      -0.018691    -0.0083706   
0.54         -0.01925     -0.0068142   -0.33126     0.93414      -0.33126     0.93414      -0.01925     -0.0068142   
0.55         -0.019619    -0.0052064   -0.25441     0.95783      -0.25441     0.95783      -0.019619    -0.0052064   
0.56         -0.019795    -0.0035727   -0.17589     0.97521      -0.17589     0.97521      -0.019795    -0.0035727   
0.57         -0.019774    -0.001939    -0.096211    0.98617      -0.096211    0.98617      -0.019774    -0.001939    
0.58         -0.01956     -0.00033123  -0.015907    0.99064      -0.015907    0.99064      -0.01956     -0.00033123  
0.59         -0.019158    0.0012253    0.064496     0.98858      0.064496     0.98858      -0.019158    0.0012253    
0.6          -0.018577    0.0027062    0.14447      0.98         0.14447      0.98         -0.018577    0.0027062    
0.61         -0.017829    0.0040887    0.22349      0.96497      0.22349      0.96497      -0.017829    0.0040887    
0.62         -0.01693     0.0053519    0.30102      0.94357      0.30102      0.94357      -0.01693     0.0053519    
0.63         -0.015898    0.0064774    0.37657      0.91595      0.37657      0.91595      -0.015898    0.0064774    
0.64         -0.014753    0.0074493    0.44964      0.8823       0.44964      0.8823       -0.014753    0.0074493    
0.65         -0.013517    0.0082549    0.51973      0.84282      0.51973      0.84282      -0.013517    0.0082549    
0.66         -0.012215    0.0088845    0.58639      0.79778      0.58639      0.79778      -0.012215    0.0088845    
0.67         -0.010871    0.009332     0.64917      0.74748      0.64917      0.74748      -0.010871    0.009332     
0.68         -0.0095098   0.0095945    0.70767      0.69224      0.70767      0.69224      -0.0095098   0.0095945    
0.69         -0.0081575   0.0096728    0.76149      0.63243      0.76149      0.63243      -0.0081575   0.0096728    
0.7          -0.0068386   0.0095709    0.81027      0.56845      0.81027      0.56845      -0.0068386   0.0095709    
0.71         -0.0055771   0.0092963    0.8537       0.50071      0.8537       0.50071      -0.0055771   0.0092963    
0.72         -0.0043956   0.0088594    0.89148      0.42967      0.89148      0.42967      -0.0043956   0.0088594    
0.73         -0.003315    0.0082737    0.92337      0.35579      0.92337      0.35579      -0.003315    0.0082737    
0.74         -0.0023541   0.0075552    0.94915      0.27955      0.94915      0.27955      -0.0023541   0.0075552    
0.75         -0.0015293   0.0067219    0.96865      0.20148      0.96865      0.20148      -0.0015293   0.0067219    
0.76         -0.00085436  0.0057942    0.98175      0.12207      0.98175      0.12207      -0.00085436  0.0057942    
0.77         -0.00034023  0.0047936    0.98834      0.04186      0.98834      0.04186      -0.00034023  0.0047936    
0.78         5.1738e-06   0.0037428    0.98839      -0.038623    0.98839      -0.038623    5.1738e-06   0.0037428    
0.79         0.00017697   0.0026653    0.98189      -0.11885     0.98189      -0.11885     0.00017697   0.0026653    
0.8          0.00017337   0.0015848    0.96889      -0.19828     0.96889      -0.19828     0.00017337   0.0015848    
0.81         -4.3634e-06  0.00052497   0.94948      -0.27639     0.94948      -0.27639     -4.3634e-06  0.00052497   
0.82         -0.00035201  -0.00049116  0.92377      -0.35267     0.92377      -0.35267     -0.00035201  -0.00049116  
0.83         -0.00086249  -0.0014413   0.89195      -0.4266      0.89195      -0.4266      -0.00086249  -0.0014413   
0.84         -0.0015261   -0.0023045   0.85421      -0.4977      0.85421      -0.4977      -0.0015261   -0.0023045   
0.85         -0.0023306   -0.0030611   0.81082      -0.5655      0.81082      -0.5655      -0.0023306   -0.0030611   
0.86         -0.0032617   -0.0036934   0.76205      -0.62954     0.76205      -0.62954     -0.0032617   -0.0036934   
0.87         -0.004303    -0.0041854   0.70823      -0.6894      0.70823      -0.6894      -0.004303    -0.0041854   
0.88         -0.0054365   -0.0045236   0.64971      -0.74468     0.64971      -0.74468     -0.0054365   -0.0045236   
0.89         -0.0066429   -0.0046966   0.58689      -0.79502     0.58689      -0.79502     -0.0066429   -0.0046966   
0.9          -0.0079018   -0.0046952   0.52018      -0.84008     0.52018      -0.84008     -0.0079018   -0.0046952   
0.91         -0.0091918   -0.004513    0.45003      -0.87955     0.45003      -0.87955     -0.0091918   -0.004513    
0.92         -0.010491    -0.0041459   0.37689      -0.91318     0.37689      -0.91318     -0.010491    -0.0041459   
0.93         -0.011779    -0.0035921   0.30125      -0.94075     0.30125      -0.94075     -0.011779    -0.0035921   
0.94         -0.013032    -0.0028523   0.22362      -0.96206     0.22362      -0.96206     -0.013032    -0.0028523   
0.95         -0.014229    -0.0019297   0.14451      -0.97699     0.14451      -0.97699     -0.014229    -0.0019297   
0.96         -0.015349    -0.0008295   0.064451     -0.98541     0.064451     -0.98541     -0.015349    -0.0008295   
0.97         -0.016372    0.00044087   -0.016031    -0.98729     -0.016031    -0.98729     -0.016372    0.00044087   
0.98         -0.017278    0.001872     -0.096399    -0.98261     -0.096399    -0.98261     -0.017278    0.001872     
0.99         -0.018049    0.0034525    -0.17612     -0.97139     -0.17612     -0.97139     -0.018049    0.0034525    
1            -0.018668    0.0051694    -0.25466     -0.95371     -0.25466     -0.95371     -0.018668    0.0051694    
1.01         -0.019119    0.007008     -0.3315      -0.92969     -0.3315      -0.92969     -0.019119    0.007008     
1.02         -0.019387    0.0089522    -0.40612     -0.89949     -0.40612     -0.89949     -0.019387    0.0089522    
1.03         -0.01946     0.010984     -0.47803     -0.86331     -0.47803     -0.86331     -0.01946     0.010984     
1.04         -0.019326    0.013086     -0.54676     -0.82138     -0.54676     -0.82138     -0.019326    0.013086     
1.05         -0.018975    0.015237     -0.61184     -0.77399     -0.61184     -0.77399     -0.018975    0.015237     
1.06         -0.0184      0.017418     -0.67284     -0.72145     -0.67284     -0.72145     -0.0184      0.017418     
1.07         -0.017595    0.019605     -0.72934     -0.66412     -0.72934     -0.66412     -0.017595    0.019605     
1.08         -0.016554    0.021778     -0.78099     -0.60236     -0.78099     -0.60236     -0.016554    0.021778     
1.09         -0.015276    0.023913     -0.82742     -0.5366      -0.82742     -0.5366      -0.015276    0.023913     
1.1          -0.01376     0.025987     -0.86834     -0.46728     -0.86834     -0.46728     -0.01376     0.025987     
1.11         -0.012008    0.027976     -0.90346     -0.39484     -0.90346     -0.39484     -0.012008    0.027976     
1.12         -0.010024    0.029857     -0.93256     -0.31978     -0.93256     -0.31978     -0.010024    0.029857     
1.13         -0.0078126   0.031606     -0.95543     -0.2426      -0.95543     -0.2426      -0.0078126   0.031606     
1.14         -0.0053832   0.033198     -0.97193     -0.16381     -0.97193     -0.16381     -0.0053832   0.033198     
1.15         -0.0027456   0.034611     -0.98194     -0.08394     -0.98194     -0.08394     -0.0027456   0.034611     
1.16         8.7552e-05   0.03582      -0.9854      -0.0035192   -0.9854      -0.0035192   8.7552e-05   0.03582      
1.17         0.0031013    0.036805     -0.98228     0.076914     -0.98228     0.076914     0.0031013    0.036805     
1.18         0.0062782    0.037543     -0.97261     0.15682      -0.97261     0.15682      0.0062782    0.037543     
1.19         0.0095988    0.038014     -0.95644     0.23567      -0.95644     0.23567      0.0095988    0.038014     
1.2          0.013041     0.038199     -0.93389     0.31293      -0.93389     0.31293      0.013041     0.038199     
1.21         0.016581     0.038081     -0.9051      0.38809      -0.9051      0.38809      0.016581     0.038081     
1.22         0.020191     0.037644     -0.87028     0.46065      -0.87028     0.46065      0.020191     0.037644     
1.23         0.023844     0.036875     -0.82964     0.53011      -0.82964     0.53011      0.023844     0.036875     
1.24         0.027509     0.035763     -0.78347     0.59602      -0.78347     0.59602      0.027509     0.035763     
1.25         0.031155     0.0343       -0.73207     0.65794      -0.73207     0.65794      0.031155     0.0343       
1.26         0.034746     0.032481     -0.67579     0.71544      -0.67579     0.71544      0.034746     0.032481     
1.27         0.038249     0.030304     -0.615       0.76815      -0.615       0.76815      0.038249     0.030304     
1.28         0.041628     0.02777      -0.5501      0.81572      -0.5501      0.81572      0.041628     0.02777      
1.29         0.044847     0.024885     -0.48155     0.85782      -0.48155     0.85782      0.044847     0.024885     
1.3          0.047868     0.021656     -0.40978     0.89417      -0.40978     0.89417      0.047868     0.021656     
1.31         0.050656     0.018098     -0.33529     0.92453      -0.33529     0.92453      0.050656     0.018098     
1.32         0.053174     0.014226     -0.25858     0.9487       -0.25858     0.9487       0.053174     0.014226     
1.33         0.055389     0.01006      -0.18015     0.96652      -0.18015     0.96652      0.055389     0.01006      
1.34         0.057266     0.0056262    -0.10053     0.97787      -0.10053     0.97787      0.057266     0.0056262    
1.35         0.058776     0.00095151   -0.020256    0.98266      -0.020256    0.98266      0.058776     0.00095151   
1.36         0.059888     -0.0039319   0.060134     0.98088      0.060134     0.98088      0.059888     -0.0039319   
1.37         0.060577     -0.0089888   0.1401       0.97254      0.1401       0.97254      0.060577     -0.0089888   
1.38         0.06082      -0.014181    0.21911      0.95768      0.21911      0.95768      0.06082      -0.014181    
1.39         0.060598     -0.019467    0.29664      0.93642      0.29664      0.93642      0.060598     -0.019467    
1.4          0.059897     -0.024803    0.37215      0.90889      0.37215      0.90889      0.059897     -0.024803    
1.41         0.058705     -0.030143    0.44516      0.87528      0.44516      0.87528      0.058705     -0.030143    
1.42         0.057017     -0.035441    0.51517      0.83581      0.51517      0.83581      0.057017     -0.035441    
1.43         0.054832     -0.040647    0.58171      0.79076      0.58171      0.79076      0.054832     -0.040647    
1.44         0.052153     -0.045713    0.64434      0.74042      0.64434      0.74042      0.052153     -0.045713    
1.45         0.048989     -0.050591    0.70264      0.68514      0.70264      0.68514      0.048989     -0.050591    
1.46         0.045355     -0.055231    0.75621      0.62527      0.75621      0.62527      0.045355     -0.055231    
1.47         0.041269     -0.059587    0.80471      0.56123      0.80471      0.56123      0.041269     -0.059587    
1.48         0.036755     -0.063613    0.8478       0.49345      0.8478       0.49345      0.036755     -0.063613    
1.49         0.031842     -0.067266    0.8852       0.42237      0.8852       0.42237      0.031842     -0.067266    
1.5          0.026563     -0.070506    0.91665      0.34848      0.91665      0.34848      0.026563     -0.070506    
1.51         0.020957     -0.073295    0.94196      0.27226      0.94196      0.27226      0.020957     -0.073295    
1.52         0.015063     -0.075601    0.96094      0.19424      0.96094      0.19424      0.015063     -0.075601    
1.53         0.0089264    -0.077394    0.97348      0.11494      0.97348      0.11494      0.0089264    -0.077394    
1.54         0.0025956    -0.078649    0.97949      0.034876     0.97949      0.034876     0.0025956    -0.078649    
1.55         -0.0038797   -0.079347    0.97893      -0.045403    0.97893      -0.045403    -0.0038797   -0.079347    
1.56         -0.010447    -0.079471    0.9718       -0.12536     0.9718       -0.12536     -0.010447    -0.079471    
1.57         -0.017054    -0.079014    0.95815      -0.20447     0.95815      -0.20447     -0.017054    -0.079014    
1.58         -0.023645    -0.077969    0.93808      -0.28218     0.93808      -0.28218     -0.023645    -0.077969    
1.59         -0.030166    -0.076339    0.91171      -0.358       0.91171      -0.358       -0.030166    -0.076339    
1.6          -0.036563    -0.074129    0.87923      -0.43139     0.87923      -0.43139     -0.036563    -0.074129    
1.61         -0.042781    -0.071351    0.84085      -0.50188     0.84085      -0.50188     -0.042781    -0.071351    
1.62         -0.048769    -0.068022    0.79684      -0.56899     0.79684      -0.56899     -0.048769    -0.068022    
1.63         -0.054476    -0.064162    0.74748      -0.63227     0.74748      -0.63227     -0.054476    -0.064162    
1.64         -0.059855    -0.059799    0.6931       -0.69129     0.6931       -0.69129     -0.059855    -0.059799    
1.65         -0.06486     -0.054964    0.63408      -0.74566     0.63408      -0.74566     -0.06486     -0.054964    
1.66         -0.069448    -0.04969     0.5708       -0.79502     0.5708       -0.79502     -0.069448    -0.04969     
1.67         -0.073581    -0.044017    0.50369      -0.83903     0.50369      -0.83903     -0.073581    -0.044017    
1.68         -0.077225    -0.037986    0.4332       -0.87739     0.4332       -0.87739     -0.077225    -0.037986    
1.69         -0.080349    -0.031642    0.35981      -0.90985     0.35981      -0.90985     -0.080349    -0.031642    
1.7          -0.082925    -0.025033    0.28401      -0.93619     0.28401      -0.93619     -0.082925    -0.025033    
1.71         -0.084933    -0.018207    0.2063       -0.95623     0.2063       -0.95623     -0.084933    -0.018207    
1.72         -0.086355    -0.011217    0.12721      -0.96983     0.12721      -0.96983     -0.086355    -0.011217    
1.73         -0.087178    -0.004114    0.047274     -0.97691     0.047274     -0.97691     -0.087178    -0.004114    
1.74         -0.087394    0.0030484    -0.032977    -0.97741     -0.032977    -0.97741     -0.087394    0.0030484    
1.75         -0.087       0.010217     -0.113       -0.97134     -0.113       -0.97134     -0.087       0.010217     
1.76         -0.085999    0.017338     -0.19226     -0.95872     -0.19226     -0.95872     -0.085999    0.017338     
1.77         -0.084395    0.024359     -0.27021     -0.93965     -0.27021     -0.93965     -0.084395    0.024359     
1.78         -0.0822      0.031227     -0.34635     -0.91425     -0.34635     -0.91425     -0.0822      0.031227     
1.79         -0.079429    0.037891     -0.42014     -0.88269     -0.42014     -0.88269     -0.079429    0.037891     
1.8          -0.076103    0.044303     -0.4911      -0.84518     -0.4911      -0.84518     -0.076103    0.044303     
1.81         -0.072244    0.050414     -0.55875     -0.80198     -0.55875     -0.80198     -0.072244    0.050414     
1.82         -0.06788     0.056179     -0.62262     -0.75338     -0.62262     -0.75338     -0.06788     0.056179     
1.83         -0.063044    0.061555     -0.6823      -0.69969     -0.6823      -0.69969     -0.063044    0.061555     
1.84         -0.057771    0.066503     -0.73737     -0.64129     -0.73737     -0.64129     -0.057771    0.066503     
1.85         -0.052099    0.070985     -0.78747     -0.57857     -0.78747     -0.57857     -0.052099    0.070985     
1.86         -0.04607     0.074968     -0.83225     -0.51195     -0.83225     -0.51195     -0.04607     0.074968     
1.87         -0.03973     0.078422     -0.87141     -0.44187     -0.87141     -0.44187     -0.03973     0.078422     
1.88         -0.033125    0.081322     -0.90469     -0.36881     -0.90469     -0.36881     -0.033125    0.081322     
1.89         -0.026305    0.083644     -0.93187     -0.29327     -0.93187     -0.29327     -0.026305    0.083644     
1.9          -0.019322    0.085373     -0.95275     -0.21574     -0.95275     -0.21574     -0.019322    0.085373     
1.91         -0.012229    0.086495     -0.9672      -0.13676     -0.9672      -0.13676     -0.012229    0.086495     
1.92         -0.00508     0.087002     -0.97511     -0.056858    -0.97511     -0.056858    -0.00508     0.087002     
1.93         0.0020687    0.086891     -0.97644     0.02343      -0.97644     0.02343      0.0020687    0.086891     
1.94         0.0091616    0.086164     -0.97118     0.10356      -0.97118     0.10356      0.0091616    0.086164     
1.95         0.016143     0.084826     -0.95934     0.18299      -0.95934     0.18299      0.016143     0.084826     
1.96         0.022957     0.082892     -0.94103     0.26118      -0.94103     0.26118      0.022957     0.082892     
1.97         0.029551     0.080377     -0.91635     0.33762      -0.91635     0.33762      0.029551     0.080377     
1.98         0.035869     0.077305     -0.88548     0.41177      -0.88548     0.41177      0.035869     0.077305     
1.99         0.041863     0.073702     -0.84862     0.48314      -0.84862     0.48314      0.041863     0.073702     
2            0.047483     0.069602     -0.80601     0.55125      -0.80601     0.55125      0.047483     0.069602     
2.01         0.052684     0.065042     -0.75795     0.61563      -0.75795     0.61563      0.052684     0.065042     
2.02         0.057424     0.060065     -0.70476     0.67585      -0.70476     0.67585      0.057424     0.060065     
2.03         0.061665     0.054715     -0.64679     0.7315       -0.64679     0.7315       0.061665     0.054715     
2.04         0.065375     0.049045     -0.58444     0.78221      -0.58444     0.78221      0.065375     0.049045     
2.05         0.068524     0.043106     -0.51813     0.82763      -0.51813     0.82763      0.068524     0.043106     
2.06         0.071089     0.036957     -0.44829     0.86744      -0.44829     0.86744      0.071089     0.036957     
2.07         0.073055     0.030655     -0.37541     0.90139      -0.37541     0.90139      0.073055     0.030655     
2.08         0.07441      0.024263     -0.29998     0.92923      -0.29998     0.92923      0.07441      0.024263     
2.09         0.075149     0.017842     -0.2225      0.95078      -0.2225      0.95078      0.075149     0.017842     
2.1          0.075276     0.011455     -0.14349     0.96588      -0.14349     0.96588      0.075276     0.011455     
2.11         0.074798     0.0051635    -0.0635      0.97444      -0.0635      0.97444      0.074798     0.0051635    
2.12         0.073731     -0.00097033  0.016939     0.97639      0.016939     0.97639      0.073731     -0.00097033  
2.13         0.072098     -0.0068871   0.097282     0.97171      0.097282     0.97171      0.072098     -0.0068871   
2.14         0.069928     -0.01253     0.17698      0.96043      0.17698      0.96043      0.069928     -0.01253     
2.15         0.067255     -0.017845    0.2555       0.94263      0.2555       0.94263      0.067255     -0.017845    
