!freq-unit  param-type  data-format  keyword  impedance-ohms
# GHZ           S          RI           R         50
!-----------------------------------------------------------------------------
!Freq          ReS11        ImS11        ReS21        ImS21        ReS12        ImS12        ReS22        ImS22
0.5          0.0017618    -0.00060894  0.25411      0.95669      0.25411      0.95669      0.0017618    -0.00060894  
0.51         0.002962     -0.0012699   0.34803      0.92653      0.34803      0.92653      0.002962     -0.0012699   
0.52         0.0041039    -0.0022045   0.43849      0.88716      0.43849      0.88716      0.0041039    -0.0022045   
0.53         0.0051358    -0.0034093   0.52458      0.83898      0.52458      0.83898      0.0051358    -0.0034093   
0.54         0.0060059    -0.0048716   0.60544      0.78247      0.60544      0.78247      0.0060059    -0.0048716   
0.55         0.0066644    -0.0065695   0.68026      0.71819      0.68026      0.71819      0.0066644    -0.0065695   
0.56         0.0070645    -0.0084717   0.74831      0.64677      0.74831      0.64677      0.0070645    -0.0084717   
0.57         0.0071648    -0.010539    0.8089       0.56894      0.8089       0.56894      0.0071648    -0.010539    
0.58         0.0069301    -0.012724    0.86144      0.48545      0.86144      0.48545      0.0069301    -0.012724    
0.59         0.006333     -0.014973    0.90538      0.39716      0.90538      0.39716      0.006333     -0.014973    
0.6          0.0053551    -0.017228    0.94031      0.30492      0.94031      0.30492      0.0053551    -0.017228    
0.61         0.0039876    -0.019426    0.96587      0.20968      0.96587      0.20968      0.0039876    -0.019426    
0.62         0.0022321    -0.021505    0.98181      0.11236      0.98181      0.11236      0.0022321    -0.021505    
0.63         0.00010073   -0.023399    0.98796      0.01395      0.98796      0.01395      0.00010073   -0.023399    
0.64         -0.0023838   -0.025047    0.98428      -0.084575    0.98428      -0.084575    -0.0023838   -0.025047    
0.65         -0.0051887   -0.026389    0.97079      -0.18223     0.97079      -0.18223     -0.0051887   -0.026389    
0.66         -0.0082715   -0.027373    0.94764      -0.27805     0.94764      -0.27805     -0.0082715   -0.027373    
0.67         -0.011581    -0.027951    0.91505      -0.37108     0.91505      -0.37108     -0.011581    -0.027951    
0.68         -0.015059    -0.028085    0.87335      -0.46038     0.87335      -0.46038     -0.015059    -0.028085    
0.69         -0.018642    -0.027745    0.82297      -0.54507     0.82297      -0.54507     -0.018642    -0.027745    
0.7          -0.022259    -0.026911    0.7644       -0.6243      0.7644       -0.6243      -0.022259    -0.026911    
0.71         -0.025839    -0.025574    0.69822      -0.6973      0.69822      -0.6973      -0.025839    -0.025574    
0.72         -0.029309    -0.023737    0.62511      -0.76333     0.62511      -0.76333     -0.029309    -0.023737    
0.73         -0.032597    -0.021413    0.54578      -0.82173     0.54578      -0.82173     -0.032597    -0.021413    
0.74         -0.035632    -0.018626    0.46104      -0.87192     0.46104      -0.87192     -0.035632    -0.018626    
0.75         -0.038349    -0.015411    0.37172      -0.91342     0.37172      -0.91342     -0.038349    -0.015411    
0.76         -0.040688    -0.011812    0.27872      -0.94579     0.27872      -0.94579     -0.040688    -0.011812    
0.77         -0.042595    -0.0078803   0.18296      -0.96873     0.18296      -0.96873     -0.042595    -0.0078803   
0.78         -0.044024    -0.0036769   0.085403     -0.98201     0.085403     -0.98201     -0.044024    -0.0036769   
0.79         -0.044941    0.00073256   -0.012988    -0.98549     -0.012988    -0.98549     -0.044941    0.00073256   
0.8          -0.045318    0.0052779    -0.11123     -0.97914     -0.11123     -0.97914     -0.045318    0.0052779    
0.81         -0.045141    0.0098857    -0.20834     -0.96303     -0.20834     -0.96303     -0.045141    0.0098857    
0.82         -0.044403    0.014482     -0.30336     -0.93731     -0.30336     -0.93731     -0.044403    0.014482     
0.83         -0.04311     0.018991     -0.39533     -0.90224     -0.39533     -0.90224     -0.04311     0.018991     
0.84         -0.041277    0.023341     -0.48335     -0.85818     -0.48335     -0.85818     -0.041277    0.023341     
0.85         -0.038932    0.027463     -0.56653     -0.80556     -0.56653     -0.80556     -0.038932    0.027463     
0.86         -0.036107    0.031291     -0.64404     -0.7449      -0.64404     -0.7449      -0.036107    0.031291     
0.87         -0.032846    0.034768     -0.71511     -0.67681     -0.71511     -0.67681     -0.032846    0.034768     
0.88         -0.0292      0.037839     -0.77903     -0.60196     -0.77903     -0.60196     -0.0292      0.037839     
0.89         -0.025226    0.040461     -0.83517     -0.52111     -0.83517     -0.52111     -0.025226    0.040461     
0.9          -0.020984    0.042598     -0.88295     -0.43506     -0.88295     -0.43506     -0.020984    0.042598     
0.91         -0.016541    0.044222     -0.92191     -0.34467     -0.92191     -0.34467     -0.016541    0.044222     
0.92         -0.011965    0.045315     -0.95164     -0.25083     -0.95164     -0.25083     -0.011965    0.045315     
0.93         -0.007324    0.045868     -0.97186     -0.1545      -0.97186     -0.1545      -0.007324    0.045868     
0.94         -0.0026885   0.045882     -0.98236     -0.056614    -0.98236     -0.056614    -0.0026885   0.045882     
0.95         0.0018741    0.045365     -0.98302     0.04183      -0.98302     0.04183      0.0018741    0.045365     
0.96         0.0062981    0.044336     -0.97385     0.13985      -0.97385     0.13985      0.0062981    0.044336     
0.97         0.010521     0.042821     -0.95493     0.23648      -0.95493     0.23648      0.010521     0.042821     
0.98         0.014487     0.040853     -0.92644     0.33073      -0.92644     0.33073      0.014487     0.040853     
0.99         0.018141     0.038474     -0.88868     0.42167      -0.88868     0.42167      0.018141     0.038474     
1            0.021438     0.035729     -0.84201     0.50838      -0.84201     0.50838      0.021438     0.035729     
1.01         0.024339     0.032672     -0.7869      0.59         -0.7869      0.59         0.024339     0.032672     
1.02         0.02681      0.029357     -0.7239      0.66571      -0.7239      0.66571      0.02681      0.029357     
1.03         0.028828     0.025846     -0.65363     0.73474      -0.65363     0.73474      0.028828     0.025846     
1.04         0.030375     0.022198     -0.57681     0.79641      -0.57681     0.79641      0.030375     0.022198     
1.05         0.031442     0.018479     -0.4942      0.85008      -0.4942      0.85008      0.031442     0.018479     
1.06         0.03203      0.014751     -0.40663     0.89522      -0.40663     0.89522      0.03203      0.014751     
1.07         0.032146     0.011078     -0.31497     0.93137      -0.31497     0.93137      0.032146     0.011078     
1.08         0.031806     0.0075209    -0.22015     0.95817      -0.22015     0.95817      0.031806     0.0075209    
1.09         0.031035     0.0041386    -0.1231      0.97535      -0.1231      0.97535      0.031035     0.0041386    
1.1          0.029862     0.00098621   -0.024824    0.98272      -0.024824    0.98272      0.029862     0.00098621   
1.11         0.028328     -0.0018855   0.073711     0.98021      0.073711     0.98021      0.028328     -0.0018855   
1.12         0.026477     -0.0044314   0.17151      0.96785      0.17151      0.96785      0.026477     -0.0044314   
1.13         0.024359     -0.0066126   0.26758      0.94575      0.26758      0.94575      0.024359     -0.0066126   
1.14         0.022031     -0.008397    0.36097      0.91413      0.36097      0.91413      0.022031     -0.008397    
1.15         0.019553     -0.0097605   0.45072      0.87331      0.45072      0.87331      0.019553     -0.0097605   
1.16         0.016989     -0.010687    0.53594      0.8237       0.53594      0.8237       0.016989     -0.010687    
1.17         0.014402     -0.01117     0.61576      0.76579      0.61576      0.76579      0.014402     -0.01117     
1.18         0.011861     -0.011211    0.68938      0.70016      0.68938      0.70016      0.011861     -0.011211    
1.19         0.0094316    -0.010822    0.75606      0.62748      0.75606      0.62748      0.0094316    -0.010822    
1.2          0.0071778    -0.010024    0.81511      0.54846      0.81511      0.54846      0.0071778    -0.010024    
1.21         0.0051617    -0.0088461   0.86594      0.46392      0.86594      0.46392      0.0051617    -0.0088461   
1.22         0.0034411    -0.0073286   0.90804      0.3747       0.90804      0.3747       0.0034411    -0.0073286   
1.23         0.0020679    -0.005519    0.94097      0.2817       0.94097      0.2817       0.0020679    -0.005519    
1.24         0.0010877    -0.0034729   0.96441      0.18585      0.96441      0.18585      0.0010877    -0.0034729   
1.25         0.00053789   -0.0012527   0.9781       0.088137     0.9781       0.088137     0.00053789   -0.0012527   
1.26         0.00044682   0.0010731    0.98192      -0.010463    0.98192      -0.010463    0.00044682   0.0010731    
1.27         0.00083297   0.0034315    0.97581      -0.10895     0.97581      -0.10895     0.00083297   0.0034315    
1.28         0.001704     0.0057464    0.95984      -0.20633     0.95984      -0.20633     0.001704     0.0057464    
1.29         0.0030563    0.0079398    0.93418      -0.30161     0.93418      -0.30161     0.0030563    0.0079398    
1.3          0.0048746    0.0099338    0.89906      -0.39384     0.89906      -0.39384     0.0048746    0.0099338    
1.31         0.0071317    0.011652     0.85487      -0.48206     0.85487      -0.48206     0.0071317    0.011652     
1.32         0.0097889    0.013023     0.80203      -0.5654      0.80203      -0.5654      0.0097889    0.013023     
1.33         0.012796     0.013977     0.74108      -0.643       0.74108      -0.643       0.012796     0.013977     
1.34         0.016093     0.014456     0.67265      -0.71408     0.67265      -0.71408     0.016093     0.014456     
1.35         0.01961      0.014407     0.59742      -0.77791     0.59742      -0.77791     0.01961      0.014407     
1.36         0.023269     0.013788     0.51617      -0.83386     0.51617      -0.83386     0.023269     0.013788     
1.37         0.026983     0.012569     0.42971      -0.88134     0.42971      -0.88134     0.026983     0.012569     
1.38         0.030664     0.010732     0.33893      -0.91989     0.33893      -0.91989     0.030664     0.010732     
1.39         0.034217     0.0082728    0.24474      -0.94911     0.24474      -0.94911     0.034217     0.0082728    
1.4          0.037547     0.0052006    0.1481       -0.96872     0.1481       -0.96872     0.037547     0.0052006    
1.41         0.040561     0.0015387    0.050002     -0.9785      0.050002     -0.9785      0.040561     0.0015387    
1.42         0.043166     -0.0026751   -0.048569    -0.97837     -0.048569    -0.97837     0.043166     -0.0026751   
1.43         0.045277     -0.0073899   -0.14661     -0.96833     -0.14661     -0.96833     0.045277     -0.0073899   
1.44         0.046815     -0.012541    -0.24313     -0.94849     -0.24313     -0.94849     0.046815     -0.012541    
1.45         0.047708     -0.018054    -0.33714     -0.91905     -0.33714     -0.91905     0.047708     -0.018054    
1.46         0.047897     -0.02384     -0.4277      -0.88032     -0.4277      -0.88032     0.047897     -0.02384     
1.47         0.047336     -0.029806    -0.51389     -0.83269     -0.51389     -0.83269     0.047336     -0.029806    
1.48         0.04599      -0.035847    -0.59483     -0.77665     -0.59483     -0.77665     0.04599      -0.035847    
1.49         0.043839     -0.041857    -0.66972     -0.71278     -0.66972     -0.71278     0.043839     -0.041857    
1.5          0.040882     -0.047724    -0.73779     -0.64171     -0.73779     -0.64171     0.040882     -0.047724    
1.51         0.037128     -0.053337    -0.79836     -0.56419     -0.79836     -0.56419     0.037128     -0.053337    
1.52         0.032607     -0.058587    -0.85082     -0.48099     -0.85082     -0.48099     0.032607     -0.058587    
1.53         0.027361     -0.063367    -0.89465     -0.39296     -0.89465     -0.39296     0.027361     -0.063367    
1.54         0.021448     -0.067578    -0.9294      -0.30099     -0.9294      -0.30099     0.021448     -0.067578    
1.55         0.01494      -0.071128    -0.95473     -0.20602     -0.95473     -0.20602     0.01494      -0.071128    
1.56         0.0079207    -0.073935    -0.97039     -0.109       -0.97039     -0.109       0.0079207    -0.073935    
1.57         0.00048629   -0.075931    -0.97623     -0.010919    -0.97623     -0.010919    0.00048629   -0.075931    
1.58         -0.0072591   -0.077057    -0.97218     0.087231     -0.97218     0.087231     -0.0072591   -0.077057    
1.59         -0.015203    -0.077273    -0.95831     0.18446      -0.95831     0.18446      -0.015203    -0.077273    
1.6          -0.02323     -0.076552    -0.93473     0.27979      -0.93473     0.27979      -0.02323     -0.076552    
1.61         -0.031218    -0.074882    -0.90171     0.37226      -0.90171     0.37226      -0.031218    -0.074882    
1.62         -0.039047    -0.07227     -0.85958     0.46093      -0.85958     0.46093      -0.039047    -0.07227     
1.63         -0.046598    -0.068738    -0.80876     0.54491      -0.80876     0.54491      -0.046598    -0.068738    
1.64         -0.053754    -0.064322    -0.74977     0.62335      -0.74977     0.62335      -0.053754    -0.064322    
1.65         -0.060407    -0.059076    -0.68321     0.69546      -0.68321     0.69546      -0.060407    -0.059076    
1.66         -0.066453    -0.053065    -0.60975     0.76052      -0.60975     0.76052      -0.066453    -0.053065    
1.67         -0.071801    -0.04637     -0.53012     0.81787      -0.53012     0.81787      -0.071801    -0.04637     
1.68         -0.076368    -0.03908     -0.44514     0.86693      -0.44514     0.86693      -0.076368    -0.03908     
1.69         -0.080087    -0.031298    -0.35567     0.90721      -0.35567     0.90721      -0.080087    -0.031298    
1.7          -0.082901    -0.023131    -0.2626      0.93829      -0.2626      0.93829      -0.082901    -0.023131    
1.71         -0.084771    -0.014694    -0.16688     0.95987      -0.16688     0.95987      -0.084771    -0.014694    
1.72         -0.085671    -0.0061072   -0.069472    0.97171      -0.069472    0.97171      -0.085671    -0.0061072   
1.73         -0.085591    0.0025095    0.028639     0.97371      0.028639     0.97371      -0.085591    0.0025095    
1.74         -0.084538    0.011035     0.12646      0.96583      0.12646      0.96583      -0.084538    0.011035     
1.75         -0.082532    0.01935      0.223        0.94816      0.223        0.94816      -0.082532    0.01935      
1.76         -0.079611    0.027339     0.31729      0.92087      0.31729      0.92087      -0.079611    0.027339     
1.77         -0.075824    0.034893     0.40836      0.88424      0.40836      0.88424      -0.075824    0.034893     
1.78         -0.071236    0.041911     0.4953       0.83862      0.4953       0.83862      -0.071236    0.041911     
1.79         -0.065924    0.0483       0.57722      0.78448      0.57722      0.78448      -0.065924    0.0483       
1.8          -0.059975    0.053978     0.65329      0.72236      0.65329      0.72236      -0.059975    0.053978     
1.81         -0.053486    0.058876     0.72274      0.65289      0.72274      0.65289      -0.053486    0.058876     
1.82         -0.046562    0.062938     0.78485      0.57677      0.78485      0.57677      -0.046562    0.062938     
1.83         -0.039315    0.06612      0.83899      0.49476      0.83899      0.49476      -0.039315    0.06612      
1.84         -0.031861    0.068395     0.88461      0.4077       0.88461      0.4077       -0.031861    0.068395     
1.85         -0.024318    0.069751     0.92123      0.31647      0.92123      0.31647      -0.024318    0.069751     
1.86         -0.016805    0.07019      0.94848      0.22199      0.94848      0.22199      -0.016805    0.07019      
1.87         -0.0094395   0.069732     0.96608      0.12522      0.96608      0.12522      -0.0094395   0.069732     
1.88         -0.0023356   0.06841      0.97383      0.027144     0.97383      0.027144     -0.0023356   0.06841      
1.89         0.0043977    0.066272     0.97166      -0.071239    0.97166      -0.071239    0.0043977    0.066272     
1.9          0.010659     0.063381     0.95957      -0.16893     0.95957      -0.16893     0.010659     0.063381     
1.91         0.016355     0.059814     0.93768      -0.26493     0.93768      -0.26493     0.016355     0.059814     
1.92         0.021405     0.055657     0.90621      -0.35825     0.90621      -0.35825     0.021405     0.055657     
1.93         0.025738     0.05101      0.86546      -0.44795     0.86546      -0.44795     0.025738     0.05101      
1.94         0.0293       0.045979     0.81585      -0.5331      0.81585      -0.5331      0.0293       0.045979     
1.95         0.03205      0.04068      0.75787      -0.61283     0.75787      -0.61283     0.03205      0.04068      
1.96         0.033963     0.035232     0.69212      -0.68631     0.69212      -0.68631     0.033963     0.035232     
1.97         0.035033     0.029756     0.61925      -0.75279     0.61925      -0.75279     0.035033     0.029756     
1.98         0.035268     0.024378     0.54001      -0.81158     0.54001      -0.81158     0.035268     0.024378     
1.99         0.034696     0.019217     0.45521      -0.86206     0.45521      -0.86206     0.034696     0.019217     
2            0.033361     0.014392     0.36571      -0.90372     0.36571      -0.90372     0.033361     0.014392     
2.01         0.031325     0.010012     0.27242      -0.93612     0.27242      -0.93612     0.031325     0.010012     
2.02         0.028666     0.006179     0.17631      -0.95891     0.17631      -0.95891     0.028666     0.006179     
2.03         0.025475     0.0029831    0.078356     -0.97185     0.078356     -0.97185     0.025475     0.0029831    
2.04         0.021858     0.00050037   -0.020427    -0.97479     -0.020427    -0.97479     0.021858     0.00050037   
2.05         0.017932     -0.0012086   -0.11902     -0.96771     -0.11902     -0.96771     0.017932     -0.0012086   
2.06         0.013822     -0.0021008   -0.21641     -0.95066     -0.21641     -0.95066     0.013822     -0.0021008   
2.07         0.0096615    -0.002152    -0.31158     -0.92382     -0.31158     -0.92382     0.0096615    -0.002152    
2.08         0.0055862    -0.001358    -0.40355     -0.88745     -0.40355     -0.88745     0.0055862    -0.001358    
2.09         0.0017332    0.00026476   -0.49137     -0.84194     -0.49137     -0.84194     0.0017332    0.00026476   
2.1          -0.0017625   0.0026788    -0.57412     -0.78773     -0.57412     -0.78773     -0.0017625   0.0026788    
2.11         -0.0047716   0.005826     -0.65094     -0.7254      -0.65094     -0.7254      -0.0047716   0.005826     
2.12         -0.0071733   0.0096282    -0.72103     -0.65559     -0.72103     -0.65559     -0.0071733   0.0096282    
2.13         -0.0088583   0.013988     -0.78367     -0.57901     -0.78367     -0.57901     -0.0088583   0.013988     
2.14         -0.0097321   0.018793     -0.8382      -0.49648     -0.8382      -0.49648     -0.0097321   0.018793     
2.15         -0.0097173   0.023912     -0.88405     -0.40884     -0.88405     -0.40884     -0.0097173   0.023912     
