!freq-unit  param-type  data-format  keyword  impedance-ohms
# GHZ           S          RI           R         50
!-----------------------------------------------------------------------------
!Freq          ReS11        ImS11        ReS21        ImS21        ReS12        ImS12        ReS22        ImS22
0.5          0.0061727    -0.001142    -0.17264     -0.96846     -0.17264     -0.96846     0.0061727    -0.001142    
0.51         0.0064089    -0.0023086   -0.32562     -0.92806     -0.32562     -0.92806     0.0064089    -0.0023086   
0.52         0.0065393    -0.0036409   -0.47013     -0.86366     -0.47013     -0.86366     0.0065393    -0.0036409   
0.53         0.0064912    -0.0051406   -0.60242     -0.77694     -0.60242     -0.77694     0.0064912    -0.0051406   
0.54         0.0061882    -0.0067824   -0.71908     -0.67013     -0.71908     -0.67013     0.0061882    -0.0067824   
0.55         0.0055598    -0.0085126   -0.81709     -0.546       -0.81709     -0.546       0.0055598    -0.0085126   
0.56         0.0045506    -0.010252    -0.89391     -0.40778     -0.89391     -0.40778     0.0045506    -0.010252    
0.57         0.0031289    -0.011901    -0.94756     -0.25904     -0.94756     -0.25904     0.0031289    -0.011901    
0.58         0.0012926    -0.013348    -0.97665     -0.10364     -0.97665     -0.10364     0.0012926    -0.013348    
0.59         -0.00092696  -0.014478    -0.98042     0.054401     -0.98042     0.054401     -0.00092696  -0.014478    
0.6          -0.0034652   -0.015184    -0.95879     0.21098      -0.95879     0.21098      -0.0034652   -0.015184    
0.61         -0.0062264   -0.015375    -0.91232     0.36204      -0.91232     0.36204      -0.0062264   -0.015375    
0.62         -0.0090904   -0.014988    -0.84222     0.50366      -0.84222     0.50366      -0.0090904   -0.014988    
0.63         -0.01192     -0.013992    -0.7503      0.63219      -0.7503      0.63219      -0.01192     -0.013992    
0.64         -0.014571    -0.012392    -0.63897     0.74428      -0.63897     0.74428      -0.014571    -0.012392    
0.65         -0.016903    -0.010232    -0.5111      0.83704      -0.5111      0.83704      -0.016903    -0.010232    
0.66         -0.01879     -0.0075896   -0.37001     0.90807      -0.37001     0.90807      -0.01879     -0.0075896   
0.67         -0.020128    -0.004573    -0.21936     0.95551      -0.21936     0.95551      -0.020128    -0.004573    
0.68         -0.020846    -0.0013126   -0.063067    0.97816      -0.063067    0.97816      -0.020846    -0.0013126   
0.69         -0.020905    0.0020483    0.094822     0.97541      0.094822     0.97541      -0.020905    0.0020483    
0.7          -0.020302    0.0053632    0.25021      0.94735      0.25021      0.94735      -0.020302    0.0053632    
0.71         -0.019073    0.0084928    0.39906      0.8947       0.39906      0.8947       -0.019073    0.0084928    
0.72         -0.017282    0.011313     0.53752      0.81883      0.53752      0.81883      -0.017282    0.011313     
0.73         -0.015017    0.013723     0.66198      0.72171      0.66198      0.72171      -0.015017    0.013723     
0.74         -0.012385    0.015648     0.76921      0.60586      0.76921      0.60586      -0.012385    0.015648     
0.75         -0.0095021   0.017044     0.85643      0.4743       0.85643      0.4743       -0.0095021   0.017044     
0.76         -0.0064822   0.017895     0.92138      0.33043      0.92138      0.33043      -0.0064822   0.017895     
0.77         -0.0034337   0.018211     0.96235      0.17801      0.96235      0.17801      -0.0034337   0.018211     
0.78         -0.00045157  0.018025     0.97829      0.020985     0.97829      0.020985     -0.00045157  0.018025     
0.79         0.0023863    0.017384     0.96878      -0.13655     0.96878      -0.13655     0.0023863    0.017384     
0.8          0.0050206    0.016344     0.93406      -0.29049     0.93406      -0.29049     0.0050206    0.016344     
0.81         0.0074103    0.014964     0.87505      -0.43685     0.87505      -0.43685     0.0074103    0.014964     
0.82         0.0095303    0.0133       0.79327      -0.57179     0.79327      -0.57179     0.0095303    0.0133       
0.83         0.011367     0.011402     0.69086      -0.69183     0.69086      -0.69183     0.011367     0.011402     
0.84         0.012916     0.0093131    0.57048      -0.79382     0.57048      -0.79382     0.012916     0.0093131    
0.85         0.014174     0.0070646    0.43527      -0.87511     0.43527      -0.87511     0.014174     0.0070646    
0.86         0.015137     0.004682     0.28875      -0.93358     0.28875      -0.93358     0.015137     0.004682     
0.87         0.015797     0.0021864    0.13475      -0.96771     0.13475      -0.96771     0.015797     0.0021864    
0.88         0.016139     -0.00040196  -0.022733    -0.97662     -0.022733    -0.97662     0.016139     -0.00040196  
0.89         0.016141     -0.0030591   -0.17958     -0.96006     -0.17958     -0.96006     0.016141     -0.0030591   
0.9          0.01578      -0.0057535   -0.33171     -0.91848     -0.33171     -0.91848     0.01578      -0.0057535   
0.91         0.015028     -0.0084429   -0.47515     -0.85296     -0.47515     -0.85296     0.015028     -0.0084429   
0.92         0.013862     -0.011073    -0.60617     -0.76521     -0.60617     -0.76521     0.013862     -0.011073    
0.93         0.012266     -0.013576    -0.72133     -0.65752     -0.72133     -0.65752     0.012266     -0.013576    
0.94         0.010238     -0.015874    -0.81765     -0.5327      -0.81765     -0.5327      0.010238     -0.015874    
0.95         0.0077937    -0.017882    -0.8926      -0.39401     -0.8926      -0.39401     0.0077937    -0.017882    
0.96         0.0049672    -0.019512    -0.94424     -0.24508     -0.94424     -0.24508     0.0049672    -0.019512    
0.97         0.0018165    -0.02068     -0.97121     -0.089783    -0.97121     -0.089783    0.0018165    -0.02068     
0.98         -0.0015792   -0.021309    -0.97282     0.067814     -0.97282     0.067814     -0.0015792   -0.021309    
0.99         -0.0051211   -0.021341    -0.94902     0.2236       -0.94902     0.2236       -0.0051211   -0.021341    
1            -0.0086948   -0.020738    -0.90045     0.3735       -0.90045     0.3735       -0.0086948   -0.020738    
1.01         -0.012176    -0.019486    -0.82836     0.51361      -0.82836     0.51361      -0.012176    -0.019486    
1.02         -0.015436    -0.017602    -0.73466     0.64027      -0.73466     0.64027      -0.015436    -0.017602    
1.03         -0.018351    -0.015128    -0.62177     0.75016      -0.62177     0.75016      -0.018351    -0.015128    
1.04         -0.020808    -0.012135    -0.49266     0.84042      -0.49266     0.84042      -0.020808    -0.012135    
1.05         -0.022709    -0.0087176   -0.35071     0.90869      -0.35071     0.90869      -0.022709    -0.0087176   
1.06         -0.02398     -0.0049876   -0.19961     0.95318      -0.19961     0.95318      -0.02398     -0.0049876   
1.07         -0.024572    -0.0010712   -0.043335    0.97274      -0.043335    0.97274      -0.024572    -0.0010712   
1.08         -0.024465    0.0028997    0.11404      0.96684      0.11404      0.96684      -0.024465    0.0028997    
1.09         -0.023664    0.0067933    0.26841      0.93566      0.26841      0.93566      -0.023664    0.0067933    
1.1          -0.022203    0.010485     0.41571      0.87999      0.41571      0.87999      -0.022203    0.010485     
1.11         -0.020137    0.013861     0.55211      0.8013       0.55211      0.8013       -0.020137    0.013861     
1.12         -0.01754     0.016826     0.67402      0.70165      0.67402      0.70165      -0.01754     0.016826     
1.13         -0.014501    0.0193       0.77826      0.58365      0.77826      0.58365      -0.014501    0.0193       
1.14         -0.011117    0.021226     0.86209      0.45038      0.86209      0.45038      -0.011117    0.021226     
1.15         -0.0074904   0.022566     0.92333      0.30534      0.92333      0.30534      -0.0074904   0.022566     
1.16         -0.0037232   0.0233       0.96035      0.15233      0.96035      0.15233      -0.0037232   0.0233       
1.17         8.5582e-05   0.023426     0.9722       -0.0046517   0.9722       -0.0046517   8.5582e-05   0.023426     
1.18         0.0038421    0.022956     0.95856      -0.16148     0.95856      -0.16148     0.0038421    0.022956     
1.19         0.0074593    0.021915     0.91979      -0.31404     0.91979      -0.31404     0.0074593    0.021915     
1.2          0.010858     0.020338     0.8569       -0.45833     0.8569       -0.45833     0.010858     0.020338     
1.21         0.013964     0.018266     0.77155      -0.59057     0.77155      -0.59057     0.013964     0.018266     
1.22         0.016714     0.01575      0.66597      -0.70729     0.66597      -0.70729     0.016714     0.01575      
1.23         0.019049     0.012845     0.54293      -0.80542     0.54293      -0.80542     0.019049     0.012845     
1.24         0.020916     0.0096139    0.40567      -0.8824      0.40567      -0.8824      0.020916     0.0096139    
1.25         0.02227      0.0061253    0.25779      -0.93619     0.25779      -0.93619     0.02227      0.0061253    
1.26         0.023075     0.0024544    0.10317      -0.96539     0.10317      -0.96539     0.023075     0.0024544    
1.27         0.023302     -0.0013172   -0.054131    -0.96922     -0.054131    -0.96922     0.023302     -0.0013172   
1.28         0.022933     -0.0051014   -0.20997     -0.9476      -0.20997     -0.9476      0.022933     -0.0051014   
1.29         0.021963     -0.0088052   -0.36027     -0.90108     -0.36027     -0.90108     0.021963     -0.0088052   
1.3          0.020404     -0.012332    -0.50106     -0.8309      -0.50106     -0.8309      0.020404     -0.012332    
1.31         0.01828      -0.015586    -0.62865     -0.73889     -0.62865     -0.73889     0.01828      -0.015586    
1.32         0.015636     -0.018472    -0.73969     -0.62748     -0.73969     -0.62748     0.015636     -0.018472    
1.33         0.012532     -0.020902    -0.83126     -0.49959     -0.83126     -0.49959     0.012532     -0.020902    
1.34         0.0090474    -0.022798    -0.90095     -0.35859     -0.90095     -0.35859     0.0090474    -0.022798    
1.35         0.0052742    -0.024096    -0.94692     -0.20819     -0.94692     -0.20819     0.0052742    -0.024096    
1.36         0.0013174    -0.024749    -0.96798     -0.052342    -0.96798     -0.052342    0.0013174    -0.024749    
1.37         -0.0027095   -0.02473     -0.96356     0.10485      -0.96356     0.10485      -0.0027095   -0.02473     
1.38         -0.0066891   -0.024035    -0.93378     0.25925      -0.93378     0.25925      -0.0066891   -0.024035    
1.39         -0.010505    -0.022679    -0.87943     0.4068       -0.87943     0.4068       -0.010505    -0.022679    
1.4          -0.014045    -0.0207      -0.80193     0.5436       -0.80193     0.5436       -0.014045    -0.0207      
1.41         -0.017207    -0.018157    -0.70334     0.66607      -0.70334     0.66607      -0.017207    -0.018157    
1.42         -0.019902    -0.015125    -0.58623     0.77097      -0.58623     0.77097      -0.019902    -0.015125    
1.43         -0.022057    -0.011691    -0.4537      0.85553      -0.4537      0.85553      -0.022057    -0.011691    
1.44         -0.023617    -0.0079553   -0.30924     0.91754      -0.30924     0.91754      -0.023617    -0.0079553   
1.45         -0.024546    -0.0040207   -0.15666     0.95535      -0.15666     0.95535      -0.024546    -0.0040207   
1.46         -0.024825    5.5863e-06   2.1125e-05   0.96797      2.1125e-05   0.96797      -0.024825    5.5863e-06   
1.47         -0.024454    0.0040181    0.15667      0.95507      0.15667      0.95507      -0.024454    0.0040181    
1.48         -0.02345     0.0079152    0.30917      0.91698      0.30917      0.91698      -0.02345     0.0079152    
1.49         -0.021842    0.011601     0.45348      0.8547       0.45348      0.8547       -0.021842    0.011601     
1.5          -0.019674    0.014987     0.58579      0.76989      0.58579      0.76989      -0.019674    0.014987     
1.51         -0.017001    0.017994     0.70263      0.66478      0.70263      0.66478      -0.017001    0.017994     
1.52         -0.013886    0.02055      0.80089      0.54214      0.80089      0.54214      -0.013886    0.02055      
1.53         -0.010401    0.022593     0.87799      0.40522      0.87799      0.40522      -0.010401    0.022593     
1.54         -0.0066268   0.024073     0.9319       0.25762      0.9319       0.25762      -0.0066268   0.024073     
1.55         -0.00265     0.024947     0.96118      0.10324      0.96118      0.10324      -0.00265     0.024947     
1.56         0.0014361    0.025186     0.96507      -0.05383     0.96507      -0.05383     0.0014361    0.025186     
1.57         0.0055325    0.024772     0.94346      -0.20945     0.94346      -0.20945     0.0055325    0.024772     
1.58         0.0095356    0.023704     0.89692      -0.3595      0.89692      -0.3595      0.0095356    0.023704     
1.59         0.013339     0.021995     0.82669      -0.50002     0.82669      -0.50002     0.013339     0.021995     
1.6          0.016838     0.019675     0.73461      -0.6273      0.73461      -0.6273      0.016838     0.019675     
1.61         0.019927     0.016795     0.62314      -0.73796     0.62314      -0.73796     0.019927     0.016795     
1.62         0.022512     0.013424     0.4952       -0.82909     0.4952       -0.82909     0.022512     0.013424     
1.63         0.024506     0.0096494    0.3542       -0.89827     0.3542       -0.89827     0.024506     0.0096494    
1.64         0.025839     0.0055768    0.20385      -0.94367     0.20385      -0.94367     0.025839     0.0055768    
1.65         0.02646      0.0013253    0.048139     -0.9641      0.048139     -0.9641      0.02646      0.0013253    
1.66         0.026343     -0.0029753   -0.10882     -0.95901     -0.10882     -0.95901     0.026343     -0.0029753   
1.67         0.025486     -0.0071898   -0.26287     -0.92854     -0.26287     -0.92854     0.025486     -0.0071898   
1.68         0.023913     -0.011184    -0.40993     -0.87349     -0.40993     -0.87349     0.023913     -0.011184    
1.69         0.021677     -0.014829    -0.54611     -0.79533     -0.54611     -0.79533     0.021677     -0.014829    
1.7          0.018855     -0.018011    -0.6678      -0.69611     -0.6678      -0.69611     0.018855     -0.018011    
1.71         0.015546     -0.020631    -0.77178     -0.57847     -0.77178     -0.57847     0.015546     -0.020631    
1.72         0.011865     -0.022617    -0.8553      -0.44552     -0.8553      -0.44552     0.011865     -0.022617    
1.73         0.0079399    -0.023918    -0.91614     -0.30078     -0.91614     -0.30078     0.0079399    -0.023918    
1.74         0.0039009    -0.024515    -0.95269     -0.1481      -0.95269     -0.1481      0.0039009    -0.024515    
1.75         -0.00012179  -0.024412    -0.96397     0.0084889    -0.96397     0.0084889    -0.00012179  -0.024412    
1.76         -0.0040064   -0.023641    -0.94969     0.16483      -0.94969     0.16483      -0.0040064   -0.023641    
1.77         -0.007644    -0.022254    -0.91021     0.31677      -0.91021     0.31677      -0.007644    -0.022254    
1.78         -0.010943    -0.020321    -0.8466      0.46029      -0.8466      0.46029      -0.010943    -0.020321    
1.79         -0.01383     -0.017923    -0.76053     0.59158      -0.76053     0.59158      -0.01383     -0.017923    
1.8          -0.016252    -0.015147    -0.65428     0.70714      -0.65428     0.70714      -0.016252    -0.015147    
1.81         -0.018176    -0.012084    -0.53068     0.80391      -0.53068     0.80391      -0.018176    -0.012084    
1.82         -0.019584    -0.0088182   -0.39301     0.87931      -0.39301     0.87931      -0.019584    -0.0088182   
1.83         -0.020474    -0.0054314   -0.24492     0.93135      -0.24492     0.93135      -0.020474    -0.0054314   
1.84         -0.020852    -0.0019959   -0.090343    0.95864      -0.090343    0.95864      -0.020852    -0.0019959   
1.85         -0.020731    0.0014231    0.066606     0.96046      0.066606     0.96046      -0.020731    0.0014231    
1.86         -0.020129    0.0047677    0.22176      0.93674      0.22176      0.93674      -0.020129    0.0047677    
1.87         -0.019063    0.0079843    0.37099      0.88813      0.37099      0.88813      -0.019063    0.0079843    
1.88         -0.017553    0.011022     0.51033      0.81592      0.51033      0.81592      -0.017553    0.011022     
1.89         -0.015619    0.01383      0.63607      0.72202      0.63607      0.72202      -0.015619    0.01383      
1.9          -0.013283    0.016355     0.74488      0.60893      0.74488      0.60893      -0.013283    0.016355     
1.91         -0.010573    0.01854      0.83384      0.47967      0.83384      0.47967      -0.010573    0.01854      
1.92         -0.0075238   0.020325     0.90061      0.33767      0.90061      0.33767      -0.0075238   0.020325     
1.93         -0.0041846   0.021649     0.94339      0.18671      0.94339      0.18671      -0.0041846   0.021649     
1.94         -0.00061715  0.022453     0.96105      0.030814     0.96105      0.030814     -0.00061715  0.022453     
1.95         0.0031001    0.022683     0.95313      -0.12587     0.95313      -0.12587     0.0031001    0.022683     
1.96         0.0068723    0.022296     0.91984      -0.27917     0.91984      -0.27917     0.0068723    0.022296     
1.97         0.01059      0.021266     0.86205      -0.42501     0.86205      -0.42501     0.01059      0.021266     
1.98         0.014133     0.019592     0.78132      -0.5595      0.78132      -0.5595      0.014133     0.019592     
1.99         0.017374     0.017294     0.6798       -0.67905     0.6798       -0.67905     0.017374     0.017294     
2            0.020188     0.014425     0.56018      -0.78049     0.56018      -0.78049     0.020188     0.014425     
2.01         0.022459     0.011066     0.42566      -0.86112     0.42566      -0.86112     0.022459     0.011066     
2.02         0.024087     0.0073269    0.27983      -0.91878     0.27983      -0.91878     0.024087     0.0073269    
2.03         0.024998     0.0033401    0.12656      -0.95194     0.12656      -0.95194     0.024998     0.0033401    
2.04         0.025147     -0.00074398  -0.030055    -0.95972     -0.030055    -0.95972     0.025147     -0.00074398  
2.05         0.024525     -0.0047662   -0.18584     -0.94191     -0.18584     -0.94191     0.024525     -0.0047662   
2.06         0.023162     -0.0085676   -0.33665     -0.89898     -0.33665     -0.89898     0.023162     -0.0085676   
2.07         0.021123     -0.012       -0.47846     -0.83208     -0.47846     -0.83208     0.021123     -0.012       
2.08         0.018506     -0.014934    -0.60748     -0.74298     -0.60748     -0.74298     0.018506     -0.014934    
2.09         0.015437     -0.017268    -0.72027     -0.63407     -0.72027     -0.63407     0.015437     -0.017268    
2.1          0.012058     -0.018935    -0.81382     -0.50825     -0.81382     -0.50825     0.012058     -0.018935    
2.11         0.008523     -0.019904    -0.88563     -0.36887     -0.88563     -0.36887     0.008523     -0.019904    
2.12         0.0049819    -0.020181    -0.93379     -0.21966     -0.93379     -0.21966     0.0049819    -0.020181    
2.13         0.0015747    -0.019808    -0.95699     -0.06459     -0.95699     -0.06459     0.0015747    -0.019808    
2.14         -0.0015788   -0.018856    -0.95462     0.092184     -0.95462     0.092184     -0.0015788   -0.018856    
2.15         -0.0043849   -0.017419    -0.92673     0.24648      -0.92673     0.24648      -0.0043849   -0.017419    
