!freq-unit  param-type  data-format  keyword  impedance-ohms
# GHZ           S          RI           R         50
!-----------------------------------------------------------------------------
!Freq          ReS11        ImS11        ReS21        ImS21        ReS12        ImS12        ReS22        ImS22
0.5          0.0020515    -0.0025504   -0.75084     -0.63344     -0.75084     -0.63344     0.0020515    -0.0025504   
0.51         0.0019853    -0.0035925   -0.84944     -0.49299     -0.84944     -0.49299     0.0019853    -0.0035925   
0.52         0.0016299    -0.0047232   -0.92208     -0.33754     -0.92208     -0.33754     0.0016299    -0.0047232   
0.53         0.00094051   -0.0058423   -0.96655     -0.17184     -0.96655     -0.17184     0.00094051   -0.0058423   
0.54         -9.0372e-05  -0.006835    -0.98149     -0.00095273  -0.98149     -0.00095273  -9.0372e-05  -0.006835    
0.55         -0.001429    -0.0075858   -0.96646     0.16991      -0.96646     0.16991      -0.001429    -0.0075858   
0.56         -0.0030023   -0.0079931   -0.92191     0.33552      -0.92191     0.33552      -0.0030023   -0.0079931   
0.57         -0.0047038   -0.0079822   -0.84922     0.49083      -0.84922     0.49083      -0.0047038   -0.0079822   
0.58         -0.0064052   -0.007516    -0.7506      0.63109      -0.7506      0.63109      -0.0064052   -0.007516    
0.59         -0.0079691   -0.0066      -0.62908     0.75202      -0.62908     0.75202      -0.0079691   -0.0066      
0.6          -0.0092644   -0.0052843   -0.48837     0.84992      -0.48837     0.84992      -0.0092644   -0.0052843   
0.61         -0.010181    -0.0036589   -0.33278     0.92181      -0.33278     0.92181      -0.010181    -0.0036589   
0.62         -0.01064     -0.0018454   -0.16706     0.9655       -0.16706     0.9655       -0.01064     -0.0018454   
0.63         -0.010606    1.586e-05    0.0037224    0.97964      0.0037224    0.97964      -0.010606    1.586e-05    
0.64         -0.010088    0.0017795    0.17434      0.96382      0.17434      0.96382      -0.010088    0.0017795    
0.65         -0.0091389   0.0033107    0.33957      0.91851      0.33957      0.91851      -0.0091389   0.0033107    
0.66         -0.0078516   0.0044982    0.49437      0.8451       0.49437      0.8451       -0.0078516   0.0044982    
0.67         -0.0063464   0.0052657    0.63399      0.74585      0.63399      0.74585      -0.0063464   0.0052657    
0.68         -0.0047602   0.0055788    0.75416      0.62378      0.75416      0.62378      -0.0047602   0.0055788    
0.69         -0.0032311   0.005447     0.85121      0.48265      0.85121      0.48265      -0.0032311   0.005447     
0.7          -0.0018847   0.0049214    0.92215      0.32677      0.92215      0.32677      -0.0018847   0.0049214    
0.71         -0.00082204  0.0040877    0.96483      0.16092      0.96483      0.16092      -0.00082204  0.0040877    
0.72         -0.00011021  0.0030561    0.97792      -0.0098162   0.97792      -0.0098162   -0.00011021  0.0030561    
0.73         0.0002227    0.0019487    0.96103      -0.1802      0.96103      -0.1802      0.0002227    0.0019487    
0.74         0.0001882    0.00088604   0.91469      -0.34502     0.91469      -0.34502     0.0001882    0.00088604   
0.75         -0.00016618  -2.4909e-05  0.84031      -0.49921     0.84031      -0.49921     -0.00016618  -2.4909e-05  
0.76         -0.0007643   -0.00070109  0.74018      -0.63804     0.74018      -0.63804     -0.0007643   -0.00070109  
0.77         -0.0015114   -0.0010903   0.61738      -0.75727     0.61738      -0.75727     -0.0015114   -0.0010903   
0.78         -0.0023055   -0.0011741   0.47566      -0.85322     0.47566      -0.85322     -0.0023055   -0.0011741   
0.79         -0.0030489   -0.0009672   0.31939      -0.92297     0.31939      -0.92297     -0.0030489   -0.0009672   
0.8          -0.0036578   -0.00051264  0.15336      -0.96437     0.15336      -0.96437     -0.0036578   -0.00051264  
0.81         -0.0040705   0.00012546   -0.017328    -0.97615     -0.017328    -0.97615     -0.0040705   0.00012546   
0.82         -0.0042513   0.00087111   -0.18744     -0.95795     -0.18744     -0.95795     -0.0042513   0.00087111   
0.83         -0.0041915   0.0016461    -0.35175     -0.91035     -0.35175     -0.91035     -0.0041915   0.0016461    
0.84         -0.0039073   0.002379     -0.50521     -0.83479     -0.50521     -0.83479     -0.0039073   0.002379     
0.85         -0.003434    0.0030125    -0.64311     -0.7336      -0.64311     -0.7336      -0.003434    0.0030125    
0.86         -0.0028194   0.0035077    -0.7612      -0.6099      -0.7612      -0.6099      -0.0028194   0.0035077    
0.87         -0.0021157   0.003846     -0.85588     -0.46748     -0.85588     -0.46748     -0.0021157   0.003846     
0.88         -0.001372    0.004028     -0.92421     -0.31073     -0.92421     -0.31073     -0.001372    0.004028     
0.89         -0.00062754  0.0040688    -0.96411     -0.14447     -0.96411     -0.14447     -0.00062754  0.0040688    
0.9          9.155e-05    0.0039931    -0.97434     0.026198     -0.97434     0.026198     9.155e-05    0.0039931    
0.91         0.00077442   0.0038277    -0.95461     0.19601      -0.95461     0.19601      0.00077442   0.0038277    
0.92         0.0014239    0.0035957    -0.9055      0.35975      -0.9055      0.35975      0.0014239    0.0035957    
0.93         0.0020531    0.0033105    -0.82854     0.51238      -0.82854     0.51238      0.0020531    0.0033105    
0.94         0.0026795    0.0029726    -0.72609     0.6492       -0.72609     0.6492       0.0026795    0.0029726    
0.95         0.0033188    0.0025685    -0.60132     0.76599      -0.60132     0.76599      0.0033188    0.0025685    
0.96         0.0039786    0.0020725    -0.45806     0.85917      -0.45806     0.85917      0.0039786    0.0020725    
0.97         0.004653     0.0014507    -0.30073     0.92586      -0.30073     0.92586      0.004653     0.0014507    
0.98         0.0053187    0.00066682   -0.13418     0.96401      -0.13418     0.96401      0.0053187    0.00066682   
0.99         0.0059347    -0.00031031  0.03647      0.97244      0.03647      0.97244      0.0059347    -0.00031031  
1            0.0064434    -0.0014999   0.20595      0.95091      0.20595      0.95091      0.0064434    -0.0014999   
1.01         0.0067751    -0.0029025   0.36904      0.90006      0.36904      0.90006      0.0067751    -0.0029025   
1.02         0.0068547    -0.0044957   0.5207       0.82148      0.5207       0.82148      0.0068547    -0.0044957   
1.03         0.0066095    -0.0062314   0.65627      0.71758      0.65627      0.71758      0.0066095    -0.0062314   
1.04         0.0059779    -0.008037    0.77156      0.59158      0.77156      0.59158      0.0059779    -0.008037    
1.05         0.0049175    -0.0098182   0.86301      0.44736      0.86301      0.44736      0.0049175    -0.0098182   
1.06         0.0034116    -0.011466    0.92781      0.28937      0.92781      0.28937      0.0034116    -0.011466    
1.07         0.0014742    -0.012863    0.96396      0.1225       0.96396      0.1225       0.0014742    -0.012863    
1.08         -0.00084821  -0.013895    0.97034      -0.04811     0.97034      -0.04811     -0.00084821  -0.013895    
1.09         -0.003478    -0.014458    0.94676      -0.21719     0.94676      -0.21719     -0.003478    -0.014458    
1.1          -0.0063099   -0.014471    0.89395      -0.37951     0.89395      -0.37951     -0.0063099   -0.014471    
1.11         -0.0092179   -0.013876    0.81355      -0.53006     0.81355      -0.53006     -0.0092179   -0.013876    
1.12         -0.012063    -0.012652    0.70803      -0.6642      0.70803      -0.6642      -0.012063    -0.012652    
1.13         -0.014701    -0.010808    0.58068      -0.77778     0.58068      -0.77778     -0.014701    -0.010808    
1.14         -0.016996    -0.0083914   0.43541      -0.8673      0.43541      -0.8673      -0.016996    -0.0083914   
1.15         -0.018822    -0.0054781   0.27672      -0.92998     0.27672      -0.92998     -0.018822    -0.0054781   
1.16         -0.020079    -0.0021716   0.10952      -0.9639      0.10952      -0.9639      -0.020079    -0.0021716   
1.17         -0.020687    0.0014053    -0.061021    -0.96801     -0.061021    -0.96801     -0.020687    0.0014053    
1.18         -0.020601    0.0051172    -0.22963     -0.94218     -0.22963     -0.94218     -0.020601    0.0051172    
1.19         -0.019801    0.0088236    -0.3911      -0.88721     -0.3911      -0.88721     -0.019801    0.0088236    
1.2          -0.018298    0.012385     -0.54042     -0.80481     -0.54042     -0.80481     -0.018298    0.012385     
1.21         -0.016131    0.015671     -0.67298     -0.69752     -0.67298     -0.69752     -0.016131    0.015671     
1.22         -0.01336     0.018561     -0.78468     -0.56867     -0.78468     -0.56867     -0.01336     0.018561     
1.23         -0.010063    0.020951     -0.87206     -0.42224     -0.87206     -0.42224     -0.010063    0.020951     
1.24         -0.0063368   0.022751     -0.93242     -0.26278     -0.93242     -0.26278     -0.0063368   0.022751     
1.25         -0.0022868   0.023893     -0.96388     -0.095217    -0.96388     -0.095217    -0.0022868   0.023893     
1.26         0.0019712    0.024325     -0.96547     0.075254     -0.96547     0.075254     0.0019712    0.024325     
1.27         0.0063154    0.024012     -0.93715     0.24335      -0.93715     0.24335      0.0063154    0.024012     
1.28         0.010619     0.022939     -0.87979     0.40386      -0.87979     0.40386      0.010619     0.022939     
1.29         0.014753     0.021111     -0.79518     0.55182      -0.79518     0.55182      0.014753     0.021111     
1.3          0.018587     0.018551     -0.68593     0.68263      -0.68593     0.68263      0.018587     0.018551     
1.31         0.021993     0.015306     -0.55544     0.79223      -0.55544     0.79223      0.021993     0.015306     
1.32         0.024845     0.011442     -0.40776     0.87724      -0.40776     0.87724      0.024845     0.011442     
1.33         0.027028     0.0070501    -0.24747     0.93501      -0.24747     0.93501      0.027028     0.0070501    
1.34         0.028439     0.0022442    -0.079539    0.96375      -0.079539    0.96375      0.028439     0.0022442    
1.35         0.028994     -0.0028402   0.090814     0.96258      0.090814     0.96258      0.028994     -0.0028402   
1.36         0.028632     -0.0080486   0.2583       0.93153      0.2583       0.93153      0.028632     -0.0080486   
1.37         0.027321     -0.013211    0.41773      0.87157      0.41773      0.87157      0.027321     -0.013211    
1.38         0.025063     -0.01815     0.56414      0.78457      0.56414      0.78457      0.025063     -0.01815     
1.39         0.021893     -0.022683    0.69299      0.67322      0.69299      0.67322      0.021893     -0.022683    
1.4          0.017885     -0.026637    0.80028      0.54099      0.80028      0.54099      0.017885     -0.026637    
1.41         0.013149     -0.02985     0.88269      0.39199      0.88269      0.39199      0.013149     -0.02985     
1.42         0.0078268    -0.032183    0.93764      0.23085      0.93764      0.23085      0.0078268    -0.032183    
1.43         0.0020873    -0.033528    0.96344      0.062581     0.96344      0.062581     0.0020873    -0.033528    
1.44         -0.0038793   -0.03381     0.95929      -0.10759     0.95929      -0.10759     -0.0038793   -0.03381     
1.45         -0.0098702   -0.032994    0.92531      -0.27438     0.92531      -0.27438     -0.0098702   -0.032994    
1.46         -0.015679    -0.031085    0.86257      -0.4326      0.86257      -0.4326      -0.015679    -0.031085    
1.47         -0.021103    -0.028128    0.77302      -0.57732     0.77302      -0.57732     -0.021103    -0.028128    
1.48         -0.025955    -0.024208    0.65944      -0.70404     0.65944      -0.70404     -0.025955    -0.024208    
1.49         -0.030065    -0.01944     0.52537      -0.80883     0.52537      -0.80883     -0.030065    -0.01944     
1.5          -0.033288    -0.01397     0.37498      -0.88843     0.37498      -0.88843     -0.033288    -0.01397     
1.51         -0.035513    -0.0079656   0.21295      -0.94034     0.21295      -0.94034     -0.035513    -0.0079656   
1.52         -0.036655    -0.0016111   0.04433      -0.96297     0.04433      -0.96297     -0.036655    -0.0016111   
1.53         -0.036668    0.0048999    -0.12563     -0.95561     -0.12563     -0.95561     -0.036668    0.0048999    
1.54         -0.035536    0.011369     -0.29164     -0.91848     -0.29164     -0.91848     -0.035536    0.011369     
1.55         -0.033278    0.017599     -0.44852     -0.85275     -0.44852     -0.85275     -0.033278    0.017599     
1.56         -0.029943    0.023398     -0.59139     -0.76045     -0.59139     -0.76045     -0.029943    0.023398     
1.57         -0.025612    0.028583     -0.71579     -0.64448     -0.71579     -0.64448     -0.025612    0.028583     
1.58         -0.020394    0.032986     -0.81784     -0.50845     -0.81784     -0.50845     -0.020394    0.032986     
1.59         -0.014429    0.036455     -0.89438     -0.3566      -0.89438     -0.3566      -0.014429    0.036455     
1.6          -0.0078786   0.03886      -0.943       -0.19367     -0.943       -0.19367     -0.0078786   0.03886      
1.61         -0.00093028  0.040098     -0.9622      -0.024741    -0.9622      -0.024741    -0.00093028  0.040098     
1.62         0.0062085    0.040097     -0.95137     0.14492      -0.95137     0.14492      0.0062085    0.040097     
1.63         0.013315     0.038821     -0.91087     0.31001      -0.91087     0.31001      0.013315     0.038821     
1.64         0.020156     0.036275     -0.84195     0.46538      -0.84195     0.46538      0.020156     0.036275     
1.65         0.026497     0.032507     -0.74678     0.60619      -0.74678     0.60619      0.026497     0.032507     
1.66         0.032109     0.02761      -0.62832     0.72804      -0.62832     0.72804      0.032109     0.02761      
1.67         0.03678      0.021725     -0.49027     0.82714      -0.49027     0.82714      0.03678      0.021725     
1.68         0.040324     0.015035     -0.33695     0.90037      -0.33695     0.90037      0.040324     0.015035     
1.69         0.042594     0.0077615    -0.17315     0.94548      -0.17315     0.94548      0.042594     0.0077615    
1.7          0.043486     0.00015755   -0.003971    0.96104      -0.003971    0.96104      0.043486     0.00015755   
1.71         0.04295      -0.0075051   0.16529      0.94657      0.16529      0.94657      0.04295      -0.0075051   
1.72         0.040995     -0.014946    0.32935      0.90253      0.32935      0.90253      0.040995     -0.014946    
1.73         0.037687     -0.021892    0.48308      0.8303       0.48308      0.8303       0.037687     -0.021892    
1.74         0.03315      -0.028087    0.62168      0.73212      0.62168      0.73212      0.03315      -0.028087    
1.75         0.027558     -0.033308    0.74082      0.61107      0.74082      0.61107      0.027558     -0.033308    
1.76         0.021126     -0.037374    0.83678      0.47094      0.83678      0.47094      0.021126     -0.037374    
1.77         0.014101     -0.040156    0.90654      0.31609      0.90654      0.31609      0.014101     -0.040156    
1.78         0.0067462    -0.04158     0.94793      0.15138      0.94793      0.15138      0.0067462    -0.04158     
1.79         -0.00066933  -0.041629    0.95965      -0.018041    0.95965      -0.018041    -0.00066933  -0.041629    
1.8          -0.0078874   -0.04034     0.94133      -0.18688     0.94133      -0.18688     -0.0078874   -0.04034     
1.81         -0.01467     -0.0378      0.89353      -0.34984     0.89353      -0.34984     -0.01467     -0.0378      
1.82         -0.020807    -0.034137    0.81776      -0.50182     0.81776      -0.50182     -0.020807    -0.034137    
1.83         -0.026128    -0.029509    0.71638      -0.63807     0.71638      -0.63807     -0.026128    -0.029509    
1.84         -0.030497    -0.024096    0.59256      -0.7543      0.59256      -0.7543      -0.030497    -0.024096    
1.85         -0.033821    -0.01809     0.45019      -0.84687     0.45019      -0.84687     -0.033821    -0.01809     
1.86         -0.036042    -0.011686    0.29372      -0.91288     0.29372      -0.91288     -0.036042    -0.011686    
1.87         -0.037137    -0.0050762   0.12807      -0.95025     0.12807      -0.95025     -0.037137    -0.0050762   
1.88         -0.03711     0.0015569    -0.041569    -0.95781     -0.041569    -0.95781     -0.03711     0.0015569    
1.89         -0.035991    0.008039     -0.20988     -0.93532     -0.20988     -0.93532     -0.035991    0.008039     
1.9          -0.033829    0.014207     -0.37157     -0.88349     -0.37157     -0.88349     -0.033829    0.014207     
1.91         -0.030691    0.01991      -0.52157     -0.80394     -0.52157     -0.80394     -0.030691    0.01991      
1.92         -0.026661    0.025003     -0.65517     -0.69917     -0.65517     -0.69917     -0.026661    0.025003     
1.93         -0.021841    0.029353     -0.76818     -0.57247     -0.76818     -0.57247     -0.021841    0.029353     
1.94         -0.01635     0.032838     -0.85703     -0.42782     -0.85703     -0.42782     -0.01635     0.032838     
1.95         -0.01033     0.035347     -0.91896     -0.26977     -0.91896     -0.26977     -0.01033     0.035347     
1.96         -0.0039429   0.036789     -0.952       -0.10328     -0.952       -0.10328     -0.0039429   0.036789     
1.97         0.0026258    0.037094     -0.95514     0.066419     -0.95514     0.066419     0.0026258    0.037094     
1.98         0.0091723    0.036225     -0.92826     0.23399      -0.92826     0.23399      0.0091723    0.036225     
1.99         0.015478     0.034182     -0.87222     0.39417      -0.87222     0.39417      0.015478     0.034182     
2            0.021318     0.031008     -0.78878     0.54193      -0.78878     0.54193      0.021318     0.031008     
2.01         0.02647      0.026797     -0.68057     0.67262      -0.68057     0.67262      0.02647      0.026797     
2.02         0.030729     0.021692     -0.55099     0.78214      -0.55099     0.78214      0.030729     0.021692     
2.03         0.03392      0.015882     -0.40411     0.86705      -0.40411     0.86705      0.03392      0.015882     
2.04         0.03591      0.0096003    -0.24455     0.92468      -0.24455     0.92468      0.03591      0.0096003    
2.05         0.03662      0.0031067    -0.077331    0.95321      -0.077331    0.95321      0.03662      0.0031067    
2.06         0.036034     -0.0033207   0.092301     0.95176      0.092301     0.95176      0.036034     -0.0033207   
2.07         0.034199     -0.0094047   0.25901      0.92037      0.25901      0.92037      0.034199     -0.0094047   
2.08         0.031231     -0.014886    0.41754      0.86001      0.41754      0.86001      0.031231     -0.014886    
2.09         0.027304     -0.019541    0.56291      0.77258      0.56291      0.77258      0.027304     -0.019541    
2.1          0.022639     -0.023195    0.69055      0.66084      0.69055      0.66084      0.022639     -0.023195    
2.11         0.01749      -0.025736    0.79642      0.52829      0.79642      0.52829      0.01749      -0.025736    
2.12         0.012128     -0.027117    0.8772       0.37911      0.8772       0.37911      0.012128     -0.027117    
2.13         0.0068167    -0.027362    0.93033      0.21799      0.93033      0.21799      0.0068167    -0.027362    
2.14         0.0018012    -0.026557    0.95412      0.050002     0.95412      0.050002     0.0018012    -0.026557    
2.15         -0.0027133   -0.02484     0.94783      -0.11955     0.94783      -0.11955     -0.0027133   -0.02484     
