!freq-unit  param-type  data-format  keyword  impedance-ohms
# GHZ           S          RI           R         50
!-----------------------------------------------------------------------------
!Freq          ReS11        ImS11        ReS21        ImS21        ReS12        ImS12        ReS22        ImS22
0.045        -0.0010975   -0.01367     0.99668      -0.074782    0.99668      -0.074782    -0.0010975   -0.01367     
0.065        -0.0022238   -0.019665    0.99345      -0.10789     0.99345      -0.10789     -0.0022238   -0.019665    
0.085        -0.0037461   -0.025582    0.98909      -0.14087     0.98909      -0.14087     -0.0037461   -0.025582    
0.105        -0.0056601   -0.0314      0.9836       -0.17368     0.9836       -0.17368     -0.0056601   -0.0314      
0.125        -0.0079606   -0.037098    0.977        -0.20627     0.977        -0.20627     -0.0079606   -0.037098    
0.145        -0.010641    -0.042655    0.96929      -0.2386      0.96929      -0.2386      -0.010641    -0.042655    
0.165        -0.013693    -0.048054    0.96048      -0.27065     0.96048      -0.27065     -0.013693    -0.048054    
0.185        -0.017109    -0.053273    0.95058      -0.30236     0.95058      -0.30236     -0.017109    -0.053273    
0.205        -0.020879    -0.058294    0.9396       -0.3337      0.9396       -0.3337      -0.020879    -0.058294    
0.225        -0.024992    -0.063099    0.92756      -0.36463     0.92756      -0.36463     -0.024992    -0.063099    
0.245        -0.029437    -0.06767     0.91448      -0.39511     0.91448      -0.39511     -0.029437    -0.06767     
0.265        -0.034202    -0.071989    0.90036      -0.42511     0.90036      -0.42511     -0.034202    -0.071989    
0.285        -0.039274    -0.076041    0.88524      -0.45459     0.88524      -0.45459     -0.039274    -0.076041    
0.305        -0.044638    -0.07981     0.86913      -0.48352     0.86913      -0.48352     -0.044638    -0.07981     
0.325        -0.050281    -0.08328     0.85204      -0.51186     0.85204      -0.51186     -0.050281    -0.08328     
0.345        -0.056186    -0.086437    0.83402      -0.53957     0.83402      -0.53957     -0.056186    -0.086437    
0.365        -0.062338    -0.089268    0.81507      -0.56663     0.81507      -0.56663     -0.062338    -0.089268    
0.385        -0.068721    -0.091759    0.79522      -0.59301     0.79522      -0.59301     -0.068721    -0.091759    
0.405        -0.075317    -0.0939      0.7745       -0.61866     0.7745       -0.61866     -0.075317    -0.0939      
0.425        -0.082109    -0.095678    0.75294      -0.64357     0.75294      -0.64357     -0.082109    -0.095678    
0.445        -0.089079    -0.097084    0.73056      -0.66771     0.73056      -0.66771     -0.089079    -0.097084    
0.465        -0.096207    -0.098108    0.7074       -0.69104     0.7074       -0.69104     -0.096207    -0.098108    
0.485        -0.10348     -0.098743    0.68348      -0.71355     0.68348      -0.71355     -0.10348     -0.098743    
0.505        -0.11087     -0.09898     0.65883      -0.73521     0.65883      -0.73521     -0.11087     -0.09898     
0.525        -0.11836     -0.098813    0.63349      -0.75599     0.63349      -0.75599     -0.11836     -0.098813    
0.545        -0.12593     -0.098237    0.60749      -0.77587     0.60749      -0.77587     -0.12593     -0.098237    
0.565        -0.13356     -0.097246    0.58086      -0.79483     0.58086      -0.79483     -0.13356     -0.097246    
0.585        -0.14124     -0.095838    0.55363      -0.81285     0.55363      -0.81285     -0.14124     -0.095838    
0.605        -0.14893     -0.094009    0.52585      -0.82992     0.52585      -0.82992     -0.14893     -0.094009    
0.625        -0.15663     -0.091757    0.49753      -0.84601     0.49753      -0.84601     -0.15663     -0.091757    
0.645        -0.16431     -0.089083    0.46873      -0.86111     0.46873      -0.86111     -0.16431     -0.089083    
0.665        -0.17194     -0.085985    0.43948      -0.8752      0.43948      -0.8752      -0.17194     -0.085985    
0.685        -0.17952     -0.082466    0.4098       -0.88828     0.4098       -0.88828     -0.17952     -0.082466    
0.705        -0.18701     -0.078526    0.37975      -0.90033     0.37975      -0.90033     -0.18701     -0.078526    
0.725        -0.19441     -0.074169    0.34935      -0.91133     0.34935      -0.91133     -0.19441     -0.074169    
0.745        -0.20168     -0.069399    0.31864      -0.92129     0.31864      -0.92129     -0.20168     -0.069399    
0.765        -0.20881     -0.06422     0.28767      -0.93019     0.28767      -0.93019     -0.20881     -0.06422     
0.785        -0.21578     -0.058638    0.25646      -0.93803     0.25646      -0.93803     -0.21578     -0.058638    
0.805        -0.22257     -0.052659    0.22505      -0.94479     0.22505      -0.94479     -0.22257     -0.052659    
0.825        -0.22917     -0.046291    0.19349      -0.95049     0.19349      -0.95049     -0.22917     -0.046291    
0.845        -0.23555     -0.039541    0.1618       -0.95511     0.1618       -0.95511     -0.23555     -0.039541    
0.865        -0.24169     -0.032419    0.13003      -0.95866     0.13003      -0.95866     -0.24169     -0.032419    
0.885        -0.24758     -0.024934    0.098218     -0.96113     0.098218     -0.96113     -0.24758     -0.024934    
0.905        -0.2532      -0.017097    0.066395     -0.96253     0.066395     -0.96253     -0.2532      -0.017097    
0.925        -0.25854     -0.0089179   0.034599     -0.96286     0.034599     -0.96286     -0.25854     -0.0089179   
0.945        -0.26357     -0.00040983  0.0028679    -0.96212     0.0028679    -0.96212     -0.26357     -0.00040983  
0.965        -0.26828     0.008415     -0.028763    -0.96032     -0.028763    -0.96032     -0.26828     0.008415     
0.985        -0.27267     0.017543     -0.060256    -0.95746     -0.060256    -0.95746     -0.27267     0.017543     
1.005        -0.2767      0.026962     -0.091578    -0.95356     -0.091578    -0.95356     -0.2767      0.026962     
1.025        -0.28037     0.036655     -0.12269     -0.94863     -0.12269     -0.94863     -0.28037     0.036655     
1.045        -0.28367     0.046609     -0.15356     -0.94267     -0.15356     -0.94267     -0.28367     0.046609     
1.065        -0.28658     0.056807     -0.18416     -0.93569     -0.18416     -0.93569     -0.28658     0.056807     
1.085        -0.28909     0.067234     -0.21445     -0.92771     -0.21445     -0.92771     -0.28909     0.067234     
1.105        -0.29119     0.077873     -0.24439     -0.91874     -0.24439     -0.91874     -0.29119     0.077873     
1.125        -0.29286     0.088707     -0.27396     -0.9088      -0.27396     -0.9088      -0.29286     0.088707     
1.145        -0.29411     0.099719     -0.30312     -0.8979      -0.30312     -0.8979      -0.29411     0.099719     
1.165        -0.29492     0.11089      -0.33184     -0.88606     -0.33184     -0.88606     -0.29492     0.11089      
1.185        -0.29528     0.1222       -0.36009     -0.87329     -0.36009     -0.87329     -0.29528     0.1222       
1.205        -0.29518     0.13364      -0.38784     -0.85963     -0.38784     -0.85963     -0.29518     0.13364      
1.225        -0.29462     0.14518      -0.41507     -0.84508     -0.41507     -0.84508     -0.29462     0.14518      
1.245        -0.2936      0.1568       -0.44174     -0.82966     -0.44174     -0.82966     -0.2936      0.1568       
1.265        -0.2921      0.16849      -0.46783     -0.8134      -0.46783     -0.8134      -0.2921      0.16849      
1.285        -0.29012     0.18023      -0.49331     -0.79633     -0.49331     -0.79633     -0.29012     0.18023      
1.305        -0.28766     0.19199      -0.51816     -0.77846     -0.51816     -0.77846     -0.28766     0.19199      
1.325        -0.28472     0.20376      -0.54234     -0.75982     -0.54234     -0.75982     -0.28472     0.20376      
1.345        -0.28129     0.21552      -0.56585     -0.74043     -0.56585     -0.74043     -0.28129     0.21552      
1.365        -0.27737     0.22724      -0.58864     -0.72032     -0.58864     -0.72032     -0.27737     0.22724      
1.385        -0.27297     0.23891      -0.61072     -0.69951     -0.61072     -0.69951     -0.27297     0.23891      
1.405        -0.26808     0.2505       -0.63204     -0.67804     -0.63204     -0.67804     -0.26808     0.2505       
1.425        -0.26271     0.262        -0.65259     -0.65592     -0.65259     -0.65592     -0.26271     0.262        
1.445        -0.25685     0.27339      -0.67236     -0.6332      -0.67236     -0.6332      -0.25685     0.27339      
1.465        -0.25051     0.28464      -0.69133     -0.60988     -0.69133     -0.60988     -0.25051     0.28464      
1.485        -0.24369     0.29574      -0.70947     -0.58602     -0.70947     -0.58602     -0.24369     0.29574      
1.505        -0.23641     0.30667      -0.72678     -0.56163     -0.72678     -0.56163     -0.23641     0.30667      
1.525        -0.22865     0.3174       -0.74324     -0.53674     -0.74324     -0.53674     -0.22865     0.3174       
1.545        -0.22044     0.32792      -0.75883     -0.51138     -0.75883     -0.51138     -0.22044     0.32792      
1.565        -0.21177     0.33821      -0.77354     -0.48559     -0.77354     -0.48559     -0.21177     0.33821      
1.585        -0.20266     0.34826      -0.78737     -0.4594      -0.78737     -0.4594      -0.20266     0.34826      
1.605        -0.19311     0.35803      -0.8003      -0.43283     -0.8003      -0.43283     -0.19311     0.35803      
1.625        -0.18313     0.36752      -0.81233     -0.40592     -0.81233     -0.40592     -0.18313     0.36752      
1.645        -0.17273     0.3767       -0.82344     -0.3787      -0.82344     -0.3787      -0.17273     0.3767       
1.665        -0.16193     0.38556      -0.83363     -0.3512      -0.83363     -0.3512      -0.16193     0.38556      
1.685        -0.15072     0.39409      -0.84289     -0.32345     -0.84289     -0.32345     -0.15072     0.39409      
1.705        -0.13914     0.40226      -0.85122     -0.29549     -0.85122     -0.29549     -0.13914     0.40226      
1.725        -0.12718     0.41006      -0.85861     -0.26734     -0.85861     -0.26734     -0.12718     0.41006      
1.745        -0.11486     0.41747      -0.86507     -0.23904     -0.86507     -0.23904     -0.11486     0.41747      
1.765        -0.1022      0.42448      -0.87059     -0.21062     -0.87059     -0.21062     -0.1022      0.42448      
1.785        -0.089211    0.43107      -0.87517     -0.18211     -0.87517     -0.18211     -0.089211    0.43107      
1.805        -0.075904    0.43724      -0.87881     -0.15354     -0.87881     -0.15354     -0.075904    0.43724      
1.825        -0.062297    0.44296      -0.88151     -0.12494     -0.88151     -0.12494     -0.062297    0.44296      
1.845        -0.048406    0.44823      -0.88328     -0.096343    -0.88328     -0.096343    -0.048406    0.44823      
1.865        -0.034248    0.45303      -0.88412     -0.067782    -0.88412     -0.067782    -0.034248    0.45303      
1.885        -0.01984     0.45735      -0.88404     -0.039286    -0.88404     -0.039286    -0.01984     0.45735      
1.905        -0.0051993   0.46117      -0.88304     -0.010883    -0.88304     -0.010883    -0.0051993   0.46117      
1.925        0.0096559    0.4645       -0.88112     0.017396     -0.88112     0.017396     0.0096559    0.4645       
1.945        0.024707     0.46732      -0.87831     0.045522     -0.87831     0.045522     0.024707     0.46732      
1.965        0.039936     0.46962      -0.87459     0.073465     -0.87459     0.073465     0.039936     0.46962      
1.985        0.055323     0.47139      -0.86999     0.1012       -0.86999     0.1012       0.055323     0.47139      
2.005        0.07085      0.47263      -0.86452     0.12869      -0.86452     0.12869      0.07085      0.47263      
2.025        0.086496     0.47333      -0.85818     0.15592      -0.85818     0.15592      0.086496     0.47333      
2.045        0.10224      0.47348      -0.851       0.18286      -0.851       0.18286      0.10224      0.47348      
2.065        0.11807      0.47308      -0.84297     0.20948      -0.84297     0.20948      0.11807      0.47308      
2.085        0.13395      0.47212      -0.83412     0.23576      -0.83412     0.23576      0.13395      0.47212      
2.105        0.14987      0.4706       -0.82446     0.26166      -0.82446     0.26166      0.14987      0.4706       
2.125        0.16581      0.46853      -0.81401     0.28717      -0.81401     0.28717      0.16581      0.46853      
2.145        0.18175      0.46588      -0.80278     0.31227      -0.80278     0.31227      0.18175      0.46588      
2.165        0.19766      0.46268      -0.79079     0.33692      -0.79079     0.33692      0.19766      0.46268      
2.185        0.21353      0.4589       -0.77806     0.36111      -0.77806     0.36111      0.21353      0.4589       
2.205        0.22933      0.45457      -0.7646      0.38482      -0.7646      0.38482      0.22933      0.45457      
2.225        0.24505      0.44966      -0.75043     0.40802      -0.75043     0.40802      0.24505      0.44966      
2.245        0.26065      0.4442       -0.73558     0.4307       -0.73558     0.4307       0.26065      0.4442       
2.265        0.27613      0.43818      -0.72006     0.45283      -0.72006     0.45283      0.27613      0.43818      
2.285        0.29147      0.4316       -0.70389     0.47439      -0.70389     0.47439      0.29147      0.4316       
2.305        0.30663      0.42447      -0.6871      0.49538      -0.6871      0.49538      0.30663      0.42447      
2.325        0.3216       0.4168       -0.6697      0.51576      -0.6697      0.51576      0.3216       0.4168       
2.345        0.33636      0.40858      -0.65172     0.53553      -0.65172     0.53553      0.33636      0.40858      
2.365        0.3509       0.39983      -0.63318     0.55467      -0.63318     0.55467      0.3509       0.39983      
2.385        0.36518      0.39056      -0.6141      0.57317      -0.6141      0.57317      0.36518      0.39056      
2.405        0.3792       0.38077      -0.59451     0.591        -0.59451     0.591        0.3792       0.38077      
2.425        0.39293      0.37047      -0.57442     0.60816      -0.57442     0.60816      0.39293      0.37047      
2.445        0.40635      0.35967      -0.55386     0.62464      -0.55386     0.62464      0.40635      0.35967      
2.465        0.41944      0.34838      -0.53286     0.64042      -0.53286     0.64042      0.41944      0.34838      
2.485        0.4322       0.33661      -0.51143     0.65549      -0.51143     0.65549      0.4322       0.33661      
2.505        0.44459      0.32437      -0.4896      0.66985      -0.4896      0.66985      0.44459      0.32437      
2.525        0.45661      0.31168      -0.4674      0.68348      -0.4674      0.68348      0.45661      0.31168      
2.545        0.46823      0.29855      -0.44485     0.69638      -0.44485     0.69638      0.46823      0.29855      
2.565        0.47944      0.28499      -0.42198     0.70854      -0.42198     0.70854      0.47944      0.28499      
2.585        0.49023      0.27102      -0.3988      0.71994      -0.3988      0.71994      0.49023      0.27102      
2.605        0.50057      0.25665      -0.37534     0.7306       -0.37534     0.7306       0.50057      0.25665      
2.625        0.51046      0.24189      -0.35163     0.74049      -0.35163     0.74049      0.51046      0.24189      
2.645        0.51988      0.22676      -0.32769     0.74962      -0.32769     0.74962      0.51988      0.22676      
2.665        0.52882      0.21128      -0.30355     0.75799      -0.30355     0.75799      0.52882      0.21128      
2.685        0.53726      0.19547      -0.27922     0.76558      -0.27922     0.76558      0.53726      0.19547      
2.705        0.54519      0.17933      -0.25474     0.77241      -0.25474     0.77241      0.54519      0.17933      
2.725        0.5526       0.16289      -0.23013     0.77846      -0.23013     0.77846      0.5526       0.16289      
2.745        0.55948      0.14617      -0.2054      0.78374      -0.2054      0.78374      0.55948      0.14617      
2.765        0.56582      0.12918      -0.1806      0.78824      -0.1806      0.78824      0.56582      0.12918      
2.785        0.5716       0.11195      -0.15573     0.79197      -0.15573     0.79197      0.5716       0.11195      
2.805        0.57683      0.094488     -0.13082     0.79494      -0.13082     0.79494      0.57683      0.094488     
2.825        0.58149      0.076817     -0.1059      0.79713      -0.1059      0.79713      0.58149      0.076817     
2.845        0.58557      0.058957     -0.080985    0.79856      -0.080985    0.79856      0.58557      0.058957     
2.865        0.58907      0.040927     -0.056102    0.79922      -0.056102    0.79922      0.58907      0.040927     
2.885        0.59198      0.022747     -0.031272    0.79913      -0.031272    0.79913      0.59198      0.022747     
2.905        0.5943       0.0044375    -0.0065182   0.79828      -0.0065182   0.79828      0.5943       0.0044375    
2.925        0.59601      -0.013981    0.018139     0.79669      0.018139     0.79669      0.59601      -0.013981    
2.945        0.59712      -0.032488    0.042677     0.79435      0.042677     0.79435      0.59712      -0.032488    
2.965        0.59763      -0.051064    0.067074     0.79128      0.067074     0.79128      0.59763      -0.051064    
2.985        0.59752      -0.069687    0.091311     0.78748      0.091311     0.78748      0.59752      -0.069687    
3.005        0.59681      -0.088336    0.11537      0.78295      0.11537      0.78295      0.59681      -0.088336    
3.025        0.59548      -0.10699     0.13922      0.77772      0.13922      0.77772      0.59548      -0.10699     
3.045        0.59354      -0.12563     0.16285      0.77178      0.16285      0.77178      0.59354      -0.12563     
3.065        0.59098      -0.14424     0.18624      0.76514      0.18624      0.76514      0.59098      -0.14424     
3.085        0.58781      -0.16279     0.20936      0.75782      0.20936      0.75782      0.58781      -0.16279     
3.105        0.58404      -0.18126     0.23221      0.74983      0.23221      0.74983      0.58404      -0.18126     
3.125        0.57965      -0.19963     0.25476      0.74117      0.25476      0.74117      0.57965      -0.19963     
3.145        0.57466      -0.21788     0.27699      0.73185      0.27699      0.73185      0.57466      -0.21788     
3.165        0.56907      -0.236       0.29889      0.72189      0.29889      0.72189      0.56907      -0.236       
3.185        0.56288      -0.25396     0.32044      0.7113       0.32044      0.7113       0.56288      -0.25396     
3.205        0.5561       -0.27174     0.34161      0.7001       0.34161      0.7001       0.5561       -0.27174     
3.225        0.54873      -0.28932     0.36241      0.68828      0.36241      0.68828      0.54873      -0.28932     
3.245        0.54079      -0.30668     0.3828       0.67587      0.3828       0.67587      0.54079      -0.30668     
3.265        0.53227      -0.3238      0.40277      0.66288      0.40277      0.66288      0.53227      -0.3238      
3.285        0.52319      -0.34067     0.42232      0.64933      0.42232      0.64933      0.52319      -0.34067     
3.305        0.51355      -0.35726     0.44141      0.63522      0.44141      0.63522      0.51355      -0.35726     
3.325        0.50337      -0.37355     0.46005      0.62058      0.46005      0.62058      0.50337      -0.37355     
3.345        0.49265      -0.38954     0.47821      0.60541      0.47821      0.60541      0.49265      -0.38954     
