!freq-unit  param-type  data-format  keyword  impedance-ohms
# GHZ           S          RI           R         50
!-----------------------------------------------------------------------------
!Freq          ReS11        ImS11        ReS21        ImS21        ReS12        ImS12        ReS22        ImS22
0.045        -0.0026758   -0.026771    0.99466      -0.094185    0.99466      -0.094185    -0.0026758   -0.026771    
0.065        -0.0054467   -0.038436    0.98934      -0.13575     0.98934      -0.13575     -0.0054467   -0.038436    
0.085        -0.0091872   -0.049861    0.98215      -0.177       0.98215      -0.177       -0.0091872   -0.049861    
0.105        -0.013879    -0.060979    0.97312      -0.21784     0.97312      -0.21784     -0.013879    -0.060979    
0.125        -0.019498    -0.071724    0.96228      -0.25818     0.96228      -0.25818     -0.019498    -0.071724    
0.145        -0.026015    -0.082033    0.94965      -0.29793     0.94965      -0.29793     -0.026015    -0.082033    
0.165        -0.033399    -0.091845    0.93527      -0.33701     0.93527      -0.33701     -0.033399    -0.091845    
0.185        -0.04161     -0.1011      0.91918      -0.37532     0.91918      -0.37532     -0.04161     -0.1011      
0.205        -0.05061     -0.10975     0.90143      -0.41279     0.90143      -0.41279     -0.05061     -0.10975     
0.225        -0.060353    -0.11773     0.88207      -0.44934     0.88207      -0.44934     -0.060353    -0.11773     
0.245        -0.07079     -0.125       0.86114      -0.48489     0.86114      -0.48489     -0.07079     -0.125       
0.265        -0.081872    -0.13151     0.83872      -0.51937     0.83872      -0.51937     -0.081872    -0.13151     
0.285        -0.093545    -0.13723     0.81486      -0.55272     0.81486      -0.55272     -0.093545    -0.13723     
0.305        -0.10575     -0.14211     0.78963      -0.58487     0.78963      -0.58487     -0.10575     -0.14211     
0.325        -0.11844     -0.14612     0.76309      -0.61577     0.76309      -0.61577     -0.11844     -0.14612     
0.345        -0.13154     -0.14923     0.73532      -0.64536     0.73532      -0.64536     -0.13154     -0.14923     
0.365        -0.145       -0.15142     0.70638      -0.67358     0.70638      -0.67358     -0.145       -0.15142     
0.385        -0.15875     -0.15267     0.67636      -0.70041     0.67636      -0.70041     -0.15875     -0.15267     
0.405        -0.17273     -0.15297     0.64532      -0.72579     0.64532      -0.72579     -0.17273     -0.15297     
0.425        -0.18688     -0.15229     0.61335      -0.74969     0.61335      -0.74969     -0.18688     -0.15229     
0.445        -0.20114     -0.15063     0.58052      -0.77208     0.58052      -0.77208     -0.20114     -0.15063     
0.465        -0.21543     -0.148       0.54691      -0.79293     0.54691      -0.79293     -0.21543     -0.148       
0.485        -0.22971     -0.14438     0.51259      -0.81222     0.51259      -0.81222     -0.22971     -0.14438     
0.505        -0.2439      -0.13979     0.47766      -0.82993     0.47766      -0.82993     -0.2439      -0.13979     
0.525        -0.25795     -0.13424     0.44218      -0.84605     0.44218      -0.84605     -0.25795     -0.13424     
0.545        -0.27179     -0.12773     0.40624      -0.86057     0.40624      -0.86057     -0.27179     -0.12773     
0.565        -0.28538     -0.12028     0.3699       -0.87349     0.3699       -0.87349     -0.28538     -0.12028     
0.585        -0.29864     -0.11191     0.33326      -0.88479     0.33326      -0.88479     -0.29864     -0.11191     
0.605        -0.31153     -0.10265     0.29637      -0.8945      0.29637      -0.8945      -0.31153     -0.10265     
0.625        -0.324       -0.092516    0.25932      -0.9026      0.25932      -0.9026      -0.324       -0.092516    
0.645        -0.33598     -0.081542    0.22218      -0.90912     0.22218      -0.90912     -0.33598     -0.081542    
0.665        -0.34745     -0.069757    0.18501      -0.91406     0.18501      -0.91406     -0.34745     -0.069757    
0.685        -0.35834     -0.057195    0.14789      -0.91744     0.14789      -0.91744     -0.35834     -0.057195    
0.705        -0.36861     -0.043892    0.11088      -0.91928     0.11088      -0.91928     -0.36861     -0.043892    
0.725        -0.37824     -0.029886    0.074052     -0.9196      0.074052     -0.9196      -0.37824     -0.029886    
0.745        -0.38716     -0.015218    0.037462     -0.91842     0.037462     -0.91842     -0.38716     -0.015218    
0.765        -0.39536     7.1285e-05   0.0011713    -0.91577     0.0011713    -0.91577     -0.39536     7.1285e-05   
0.785        -0.4028      0.015939     -0.034761    -0.91169     -0.034761    -0.91169     -0.4028      0.015939     
0.805        -0.40945     0.032339     -0.07028     -0.90619     -0.07028     -0.90619     -0.40945     0.032339     
0.825        -0.41528     0.049227     -0.10533     -0.89932     -0.10533     -0.89932     -0.41528     0.049227     
0.845        -0.42027     0.066557     -0.13986     -0.8911      -0.13986     -0.8911      -0.42027     0.066557     
0.865        -0.42439     0.08428      -0.17383     -0.88158     -0.17383     -0.88158     -0.42439     0.08428      
0.885        -0.42764     0.10235      -0.20718     -0.87079     -0.20718     -0.87079     -0.42764     0.10235      
0.905        -0.42998     0.12072      -0.23988     -0.85878     -0.23988     -0.85878     -0.42998     0.12072      
0.925        -0.43142     0.13933      -0.27187     -0.84557     -0.27187     -0.84557     -0.43142     0.13933      
0.945        -0.43193     0.15815      -0.30313     -0.83121     -0.30313     -0.83121     -0.43193     0.15815      
0.965        -0.43151     0.17711      -0.33361     -0.81574     -0.33361     -0.81574     -0.43151     0.17711      
0.985        -0.43017     0.19618      -0.36328     -0.79921     -0.36328     -0.79921     -0.43017     0.19618      
1.005        -0.42788     0.21531      -0.39211     -0.78166     -0.39211     -0.78166     -0.42788     0.21531      
1.025        -0.42466     0.23444      -0.42007     -0.76313     -0.42007     -0.76313     -0.42466     0.23444      
1.045        -0.42051     0.25353      -0.44713     -0.74366     -0.44713     -0.74366     -0.42051     0.25353      
1.065        -0.41543     0.27253      -0.47327     -0.7233      -0.47327     -0.7233      -0.41543     0.27253      
1.085        -0.40943     0.29139      -0.49846     -0.7021      -0.49846     -0.7021      -0.40943     0.29139      
1.105        -0.40252     0.31008      -0.52267     -0.6801      -0.52267     -0.6801      -0.40252     0.31008      
1.125        -0.3947      0.32855      -0.5459      -0.65734     -0.5459      -0.65734     -0.3947      0.32855      
1.145        -0.386       0.34674      -0.56812     -0.63387     -0.56812     -0.63387     -0.386       0.34674      
1.165        -0.37643     0.36463      -0.58932     -0.60973     -0.58932     -0.60973     -0.37643     0.36463      
1.185        -0.366       0.38217      -0.60948     -0.58497     -0.60948     -0.58497     -0.366       0.38217      
1.205        -0.35474     0.39932      -0.6286      -0.55963     -0.6286      -0.55963     -0.35474     0.39932      
1.225        -0.34267     0.41604      -0.64665     -0.53376     -0.64665     -0.53376     -0.34267     0.41604      
1.245        -0.3298      0.43229      -0.66364     -0.50739     -0.66364     -0.50739     -0.3298      0.43229      
1.265        -0.31616     0.44804      -0.67956     -0.48058     -0.67956     -0.48058     -0.31616     0.44804      
1.285        -0.30178     0.46326      -0.6944      -0.45336     -0.6944      -0.45336     -0.30178     0.46326      
1.305        -0.28669     0.47791      -0.70816     -0.42577     -0.70816     -0.42577     -0.28669     0.47791      
1.325        -0.2709      0.49195      -0.72083     -0.39786     -0.72083     -0.39786     -0.2709      0.49195      
1.345        -0.25446     0.50537      -0.73242     -0.36967     -0.73242     -0.36967     -0.25446     0.50537      
1.365        -0.23739     0.51812      -0.74293     -0.34124     -0.74293     -0.34124     -0.23739     0.51812      
1.385        -0.21972     0.5302       -0.75235     -0.31261     -0.75235     -0.31261     -0.21972     0.5302       
1.405        -0.20148     0.54156      -0.7607      -0.28381     -0.7607      -0.28381     -0.20148     0.54156      
1.425        -0.18272     0.55218      -0.76797     -0.25489     -0.76797     -0.25489     -0.18272     0.55218      
1.445        -0.16345     0.56205      -0.77418     -0.22589     -0.77418     -0.22589     -0.16345     0.56205      
1.465        -0.14372     0.57115      -0.77932     -0.19683     -0.77932     -0.19683     -0.14372     0.57115      
1.485        -0.12356     0.57944      -0.78341     -0.16776     -0.78341     -0.16776     -0.12356     0.57944      
1.505        -0.10301     0.58693      -0.78645     -0.13872     -0.78645     -0.13872     -0.10301     0.58693      
1.525        -0.082103    0.59359      -0.78846     -0.10972     -0.78846     -0.10972     -0.082103    0.59359      
1.545        -0.060874    0.5994       -0.78944     -0.080825    -0.78944     -0.080825    -0.060874    0.5994       
1.565        -0.039361    0.60437      -0.78941     -0.052048    -0.78941     -0.052048    -0.039361    0.60437      
1.585        -0.017602    0.60847      -0.78839     -0.023427    -0.78839     -0.023427    -0.017602    0.60847      
1.605        0.0043659    0.6117       -0.78637     0.0050071    -0.78637     0.0050071    0.0043659    0.6117       
1.625        0.026506     0.61404      -0.78338     0.033223     -0.78338     0.033223     0.026506     0.61404      
1.645        0.04878      0.61551      -0.77944     0.061192     -0.77944     0.061192     0.04878      0.61551      
1.665        0.07115      0.61608      -0.77455     0.088884     -0.77455     0.088884     0.07115      0.61608      
1.685        0.09358      0.61577      -0.76874     0.11627      -0.76874     0.11627      0.09358      0.61577      
1.705        0.11603      0.61456      -0.76202     0.14333      -0.76202     0.14333      0.11603      0.61456      
1.725        0.13847      0.61246      -0.7544      0.17002      -0.7544      0.17002      0.13847      0.61246      
1.745        0.16085      0.60947      -0.74591     0.19634      -0.74591     0.19634      0.16085      0.60947      
1.765        0.18315      0.60559      -0.73657     0.22224      -0.73657     0.22224      0.18315      0.60559      
1.785        0.20532      0.60084      -0.72639     0.24771      -0.72639     0.24771      0.20532      0.60084      
1.805        0.22732      0.59521      -0.71539     0.27272      -0.71539     0.27272      0.22732      0.59521      
1.825        0.24914      0.58871      -0.7036      0.29726      -0.7036      0.29726      0.24914      0.58871      
1.845        0.27072      0.58136      -0.69102     0.32129      -0.69102     0.32129      0.27072      0.58136      
1.865        0.29203      0.57317      -0.67769     0.34481      -0.67769     0.34481      0.29203      0.57317      
1.885        0.31305      0.56414      -0.66363     0.36778      -0.66363     0.36778      0.31305      0.56414      
1.905        0.33373      0.55429      -0.64885     0.39019      -0.64885     0.39019      0.33373      0.55429      
1.925        0.35405      0.54364      -0.63338     0.41203      -0.63338     0.41203      0.35405      0.54364      
1.945        0.37397      0.5322       -0.61723     0.43326      -0.61723     0.43326      0.37397      0.5322       
1.965        0.39346      0.51998      -0.60044     0.45389      -0.60044     0.45389      0.39346      0.51998      
1.985        0.41249      0.50701      -0.58301     0.47388      -0.58301     0.47388      0.41249      0.50701      
2.005        0.43104      0.49331      -0.56499     0.49323      -0.56499     0.49323      0.43104      0.49331      
2.025        0.44906      0.47889      -0.54638     0.51192      -0.54638     0.51192      0.44906      0.47889      
2.045        0.46655      0.46378      -0.52721     0.52993      -0.52721     0.52993      0.46655      0.46378      
2.065        0.48346      0.44799      -0.5075      0.54726      -0.5075      0.54726      0.48346      0.44799      
2.085        0.49978      0.43156      -0.48728     0.56389      -0.48728     0.56389      0.49978      0.43156      
2.105        0.51547      0.41451      -0.46657     0.5798       -0.46657     0.5798       0.51547      0.41451      
2.125        0.53052      0.39686      -0.44539     0.59499      -0.44539     0.59499      0.53052      0.39686      
2.145        0.5449       0.37864      -0.42376     0.60945      -0.42376     0.60945      0.5449       0.37864      
2.165        0.5586       0.35987      -0.40172     0.62316      -0.40172     0.62316      0.5586       0.35987      
2.185        0.57158      0.34059      -0.37927     0.63612      -0.37927     0.63612      0.57158      0.34059      
2.205        0.58383      0.32081      -0.35645     0.64831      -0.35645     0.64831      0.58383      0.32081      
2.225        0.59533      0.30058      -0.33328     0.65974      -0.33328     0.65974      0.59533      0.30058      
2.245        0.60606      0.27991      -0.30978     0.67038      -0.30978     0.67038      0.60606      0.27991      
2.265        0.61602      0.25885      -0.28598     0.68024      -0.28598     0.68024      0.61602      0.25885      
2.285        0.62517      0.23741      -0.26189     0.68931      -0.26189     0.68931      0.62517      0.23741      
2.305        0.63352      0.21564      -0.23755     0.69758      -0.23755     0.69758      0.63352      0.21564      
2.325        0.64104      0.19356      -0.21297     0.70504      -0.21297     0.70504      0.64104      0.19356      
2.345        0.64773      0.17121      -0.18818     0.7117       -0.18818     0.7117       0.64773      0.17121      
2.365        0.65357      0.14861      -0.16321     0.71754      -0.16321     0.71754      0.65357      0.14861      
2.385        0.65856      0.12581      -0.13807     0.72256      -0.13807     0.72256      0.65856      0.12581      
2.405        0.66268      0.10283      -0.11279     0.72676      -0.11279     0.72676      0.66268      0.10283      
2.425        0.66594      0.079708     -0.087392    0.73014      -0.087392    0.73014      0.66594      0.079708     
2.445        0.66833      0.056479     -0.061901    0.7327       -0.061901    0.7327       0.66833      0.056479     
2.465        0.66983      0.033176     -0.036339    0.73442      -0.036339    0.73442      0.66983      0.033176     
2.485        0.67046      0.0098337    -0.01073     0.73532      -0.01073     0.73532      0.67046      0.0098337    
2.505        0.67021      -0.013515    0.014902     0.73538      0.014902     0.73538      0.67021      -0.013515    
2.525        0.66907      -0.036835    0.040535     0.73461      0.040535     0.73461      0.66907      -0.036835    
2.545        0.66706      -0.060092    0.066145     0.73301      0.066145     0.73301      0.66706      -0.060092    
2.565        0.66417      -0.083252    0.091709     0.73058      0.091709     0.73058      0.66417      -0.083252    
2.585        0.6604       -0.10628     0.1172       0.72731      0.1172       0.72731      0.6604       -0.10628     
2.605        0.65576      -0.12914     0.1426       0.72322      0.1426       0.72322      0.65576      -0.12914     
2.625        0.65027      -0.15181     0.16789      0.7183       0.16789      0.7183       0.65027      -0.15181     
2.645        0.64392      -0.17424     0.19303      0.71255      0.19303      0.71255      0.64392      -0.17424     
2.665        0.63672      -0.1964      0.21801      0.70598      0.21801      0.70598      0.63672      -0.1964      
2.685        0.62869      -0.21827     0.2428       0.69858      0.2428       0.69858      0.62869      -0.21827     
2.705        0.61983      -0.2398      0.26739      0.69037      0.26739      0.69037      0.61983      -0.2398      
2.725        0.61016      -0.26096     0.29173      0.68135      0.29173      0.68135      0.61016      -0.26096     
2.745        0.5997       -0.28173     0.31582      0.67151      0.31582      0.67151      0.5997       -0.28173     
2.765        0.58846      -0.30207     0.33963      0.66087      0.33963      0.66087      0.58846      -0.30207     
2.785        0.57645      -0.32195     0.36314      0.64943      0.36314      0.64943      0.57645      -0.32195     
2.805        0.56369      -0.34134     0.38631      0.63719      0.38631      0.63719      0.56369      -0.34134     
2.825        0.5502       -0.3602      0.40913      0.62417      0.40913      0.62417      0.5502       -0.3602      
2.845        0.53601      -0.37852     0.43157      0.61036      0.43157      0.61036      0.53601      -0.37852     
2.865        0.52113      -0.39626     0.45361      0.59578      0.45361      0.59578      0.52113      -0.39626     
2.885        0.50559      -0.41338     0.47522      0.58044      0.47522      0.58044      0.50559      -0.41338     
2.905        0.48941      -0.42988     0.49639      0.56433      0.49639      0.56433      0.48941      -0.42988     
2.925        0.47262      -0.44571     0.51707      0.54748      0.51707      0.54748      0.47262      -0.44571     
2.945        0.45523      -0.46086     0.53726      0.52989      0.53726      0.52989      0.45523      -0.46086     
2.965        0.43729      -0.47529     0.55693      0.51157      0.55693      0.51157      0.43729      -0.47529     
2.985        0.41881      -0.48899     0.57604      0.49253      0.57604      0.49253      0.41881      -0.48899     
3.005        0.39983      -0.50193     0.59458      0.47278      0.59458      0.47278      0.39983      -0.50193     
3.025        0.38038      -0.5141      0.61253      0.45234      0.61253      0.45234      0.38038      -0.5141      
3.045        0.3605       -0.52546     0.62984      0.43122      0.62984      0.43122      0.3605       -0.52546     
3.065        0.3402       -0.536       0.64651      0.40943      0.64651      0.40943      0.3402       -0.536       
3.085        0.31953      -0.54571     0.66251      0.38699      0.66251      0.38699      0.31953      -0.54571     
3.105        0.29852      -0.55456     0.6778       0.36391      0.6778       0.36391      0.29852      -0.55456     
3.125        0.27721      -0.56255     0.69238      0.34021      0.69238      0.34021      0.27721      -0.56255     
3.145        0.25563      -0.56965     0.7062       0.31591      0.7062       0.31591      0.25563      -0.56965     
3.165        0.23382      -0.57585     0.71924      0.29103      0.71924      0.29103      0.23382      -0.57585     
3.185        0.21182      -0.58115     0.73149      0.26558      0.73149      0.26558      0.21182      -0.58115     
3.205        0.18967      -0.58553     0.74291      0.23958      0.74291      0.23958      0.18967      -0.58553     
3.225        0.16741      -0.58899     0.75348      0.21306      0.75348      0.21306      0.16741      -0.58899     
3.245        0.14507      -0.59152     0.76318      0.18604      0.76318      0.18604      0.14507      -0.59152     
3.265        0.1227       -0.59311     0.77197      0.15854      0.77197      0.15854      0.1227       -0.59311     
3.285        0.10034      -0.59376     0.77985      0.13059      0.77985      0.13059      0.10034      -0.59376     
3.305        0.078031     -0.59347     0.78677      0.10221      0.78677      0.10221      0.078031     -0.59347     
3.325        0.055815     -0.59225     0.79272      0.073429     0.79272      0.073429     0.055815     -0.59225     
3.345        0.033734     -0.59009     0.79768      0.04428      0.79768      0.04428      0.033734     -0.59009     
