!freq-unit  param-type  data-format  keyword  impedance-ohms
# GHZ           S          RI           R         50
!-----------------------------------------------------------------------------
!Freq          ReS11        ImS11        ReS21        ImS21        ReS12        ImS12        ReS22        ImS22
4            0.18565      -0.15146     -0.57983     -0.75769     -0.57983     -0.75769     0.18565      -0.15146     
4.01         0.19334      -0.17142     -0.60924     -0.72796     -0.60924     -0.72796     0.19334      -0.17142     
4.02         0.19935      -0.19194     -0.63677     -0.69714     -0.63677     -0.69714     0.19935      -0.19194     
4.03         0.20366      -0.21288     -0.66238     -0.66536     -0.66238     -0.66536     0.20366      -0.21288     
4.04         0.20628      -0.2341      -0.68608     -0.63277     -0.68608     -0.63277     0.20628      -0.2341      
4.05         0.20721      -0.25544     -0.70785     -0.59952     -0.70785     -0.59952     0.20721      -0.25544     
4.06         0.20649      -0.27678     -0.72772     -0.56574     -0.72772     -0.56574     0.20649      -0.27678     
4.07         0.20415      -0.298       -0.7457      -0.53156     -0.7457      -0.53156     0.20415      -0.298       
4.08         0.20022      -0.31897     -0.76184     -0.4971      -0.76184     -0.4971      0.20022      -0.31897     
4.09         0.19478      -0.33958     -0.77616     -0.46247     -0.77616     -0.46247     0.19478      -0.33958     
4.1          0.18787      -0.35973     -0.78873     -0.42778     -0.78873     -0.42778     0.18787      -0.35973     
4.11         0.17956      -0.37933     -0.79959     -0.39312     -0.79959     -0.39312     0.17956      -0.37933     
4.12         0.16992      -0.39829     -0.8088      -0.35859     -0.8088      -0.35859     0.16992      -0.39829     
4.13         0.15903      -0.41653     -0.81642     -0.32426     -0.81642     -0.32426     0.15903      -0.41653     
4.14         0.14696      -0.43399     -0.82251     -0.2902      -0.82251     -0.2902      0.14696      -0.43399     
4.15         0.13379      -0.45062     -0.82715     -0.25649     -0.82715     -0.25649     0.13379      -0.45062     
4.16         0.1196       -0.46634     -0.8304      -0.22316     -0.8304      -0.22316     0.1196       -0.46634     
4.17         0.10446      -0.48113     -0.83231     -0.19027     -0.83231     -0.19027     0.10446      -0.48113     
4.18         0.08847      -0.49494     -0.83297     -0.15787     -0.83297     -0.15787     0.08847      -0.49494     
4.19         0.071693     -0.50775     -0.83243     -0.12598     -0.83243     -0.12598     0.071693     -0.50775     
4.2          0.054209     -0.51953     -0.83076     -0.094636    -0.83076     -0.094636    0.054209     -0.51953     
4.21         0.036093     -0.53025     -0.82801     -0.063866    -0.82801     -0.063866    0.036093     -0.53025     
4.22         0.01742      -0.53991     -0.82426     -0.033684    -0.82426     -0.033684    0.01742      -0.53991     
4.23         -0.001739    -0.54849     -0.81954     -0.0041075   -0.81954     -0.0041075   -0.001739    -0.54849     
4.24         -0.021316    -0.556       -0.81393     0.024855     -0.81393     0.024855     -0.021316    -0.556       
4.25         -0.041243    -0.56242     -0.80746     0.053195     -0.80746     0.053195     -0.041243    -0.56242     
4.26         -0.061457    -0.56777     -0.8002      0.080908     -0.8002      0.080908     -0.061457    -0.56777     
4.27         -0.081895    -0.57204     -0.79218     0.108        -0.79218     0.108        -0.081895    -0.57204     
4.28         -0.1025      -0.57525     -0.78345     0.13446      -0.78345     0.13446      -0.1025      -0.57525     
4.29         -0.12321     -0.57741     -0.77405     0.16029      -0.77405     0.16029      -0.12321     -0.57741     
4.3          -0.14398     -0.57852     -0.76402     0.18551      -0.76402     0.18551      -0.14398     -0.57852     
4.31         -0.16475     -0.5786      -0.75339     0.21012      -0.75339     0.21012      -0.16475     -0.5786      
4.32         -0.18548     -0.57768     -0.7422      0.23412      -0.7422      0.23412      -0.18548     -0.57768     
4.33         -0.20611     -0.57576     -0.73048     0.25753      -0.73048     0.25753      -0.20611     -0.57576     
4.34         -0.2266      -0.57286     -0.71824     0.28036      -0.71824     0.28036      -0.2266      -0.57286     
4.35         -0.24692     -0.56901     -0.70553     0.3026       -0.70553     0.3026       -0.24692     -0.56901     
4.36         -0.26701     -0.56422     -0.69235     0.32428      -0.69235     0.32428      -0.26701     -0.56422     
4.37         -0.28684     -0.55853     -0.67874     0.34541      -0.67874     0.34541      -0.28684     -0.55853     
4.38         -0.30637     -0.55194     -0.66471     0.36599      -0.66471     0.36599      -0.30637     -0.55194     
4.39         -0.32557     -0.54449     -0.65028     0.38604      -0.65028     0.38604      -0.32557     -0.54449     
4.4          -0.34441     -0.53619     -0.63546     0.40556      -0.63546     0.40556      -0.34441     -0.53619     
4.41         -0.36284     -0.52707     -0.62027     0.42457      -0.62027     0.42457      -0.36284     -0.52707     
4.42         -0.38084     -0.51716     -0.60471     0.44307      -0.60471     0.44307      -0.38084     -0.51716     
4.43         -0.39838     -0.50647     -0.5888      0.46108      -0.5888      0.46108      -0.39838     -0.50647     
4.44         -0.41543     -0.49504     -0.57255     0.47861      -0.57255     0.47861      -0.41543     -0.49504     
4.45         -0.43197     -0.48289     -0.55595     0.49566      -0.55595     0.49566      -0.43197     -0.48289     
4.46         -0.44796     -0.47005     -0.53903     0.51223      -0.53903     0.51223      -0.44796     -0.47005     
4.47         -0.46338     -0.45654     -0.52177     0.52834      -0.52177     0.52834      -0.46338     -0.45654     
4.48         -0.47821     -0.44239     -0.50419     0.544        -0.50419     0.544        -0.47821     -0.44239     
4.49         -0.49242     -0.42762     -0.48629     0.5592       -0.48629     0.5592       -0.49242     -0.42762     
4.5          -0.50599     -0.41226     -0.46807     0.57395      -0.46807     0.57395      -0.50599     -0.41226     
4.51         -0.5189      -0.39635     -0.44952     0.58825      -0.44952     0.58825      -0.5189      -0.39635     
4.52         -0.53113     -0.3799      -0.43065     0.60211      -0.43065     0.60211      -0.53113     -0.3799      
4.53         -0.54265     -0.36295     -0.41145     0.61553      -0.41145     0.61553      -0.54265     -0.36295     
4.54         -0.55344     -0.34552     -0.39193     0.6285       -0.39193     0.6285       -0.55344     -0.34552     
4.55         -0.5635      -0.32765     -0.37208     0.64103      -0.37208     0.64103      -0.5635      -0.32765     
4.56         -0.57278     -0.30936     -0.3519      0.65312      -0.3519      0.65312      -0.57278     -0.30936     
4.57         -0.58129     -0.29068     -0.33138     0.66475      -0.33138     0.66475      -0.58129     -0.29068     
4.58         -0.589       -0.27166     -0.31052     0.67593      -0.31052     0.67593      -0.589       -0.27166     
4.59         -0.59589     -0.2523      -0.28931     0.68664      -0.28931     0.68664      -0.59589     -0.2523      
4.6          -0.60195     -0.23266     -0.26775     0.69689      -0.26775     0.69689      -0.60195     -0.23266     
4.61         -0.60716     -0.21277     -0.24584     0.70666      -0.24584     0.70666      -0.60716     -0.21277     
4.62         -0.61151     -0.19265     -0.22356     0.71594      -0.22356     0.71594      -0.61151     -0.19265     
4.63         -0.61497     -0.17235     -0.20092     0.72471      -0.20092     0.72471      -0.61497     -0.17235     
4.64         -0.61755     -0.15189     -0.1779      0.73297      -0.1779      0.73297      -0.61755     -0.15189     
4.65         -0.61922     -0.13133     -0.15451     0.7407       -0.15451     0.7407       -0.61922     -0.13133     
4.66         -0.61998     -0.11069     -0.13074     0.74789      -0.13074     0.74789      -0.61998     -0.11069     
4.67         -0.6198      -0.090026    -0.10659     0.7545       -0.10659     0.7545       -0.6198      -0.090026    
4.68         -0.61869     -0.069366    -0.082041    0.76053      -0.082041    0.76053      -0.61869     -0.069366    
4.69         -0.61664     -0.048758    -0.057104    0.76595      -0.057104    0.76595      -0.61664     -0.048758    
4.7          -0.61363     -0.028247    -0.031775    0.77073      -0.031775    0.77073      -0.61363     -0.028247    
4.71         -0.60966     -0.0078771   -0.0060527   0.77485      -0.0060527   0.77485      -0.60966     -0.0078771   
4.72         -0.60473     0.012304     0.020063     0.77829      0.020063     0.77829      -0.60473     0.012304     
4.73         -0.59883     0.032246     0.046569     0.781        0.046569     0.781        -0.59883     0.032246     
4.74         -0.59196     0.051901     0.073463     0.78297      0.073463     0.78297      -0.59196     0.051901     
4.75         -0.58414     0.071216     0.10074      0.78415      0.10074      0.78415      -0.58414     0.071216     
4.76         -0.57535     0.090137     0.12839      0.78451      0.12839      0.78451      -0.57535     0.090137     
4.77         -0.56561     0.10861      0.1564       0.78402      0.1564       0.78402      -0.56561     0.10861      
4.78         -0.55492     0.12658      0.18477      0.78262      0.18477      0.78262      -0.55492     0.12658      
4.79         -0.54331     0.14399      0.21347      0.78029      0.21347      0.78029      -0.54331     0.14399      
4.8          -0.53078     0.16077      0.24249      0.77698      0.24249      0.77698      -0.53078     0.16077      
4.81         -0.51736     0.17687      0.2718       0.77264      0.2718       0.77264      -0.51736     0.17687      
4.82         -0.50307     0.19223      0.30138      0.76723      0.30138      0.76723      -0.50307     0.19223      
4.83         -0.48794     0.20679      0.3312       0.76071      0.3312       0.76071      -0.48794     0.20679      
4.84         -0.47201     0.22048      0.36122      0.75302      0.36122      0.75302      -0.47201     0.22048      
4.85         -0.4553      0.23324      0.3914       0.74412      0.3914       0.74412      -0.4553      0.23324      
4.86         -0.43787     0.245        0.4217       0.73397      0.4217       0.73397      -0.43787     0.245        
4.87         -0.41976     0.25571      0.45207      0.72251      0.45207      0.72251      -0.41976     0.25571      
4.88         -0.40103     0.26531      0.48246      0.70969      0.48246      0.70969      -0.40103     0.26531      
4.89         -0.38174     0.27374      0.51279      0.69548      0.51279      0.69548      -0.38174     0.27374      
4.9          -0.36195     0.28093      0.54301      0.67984      0.54301      0.67984      -0.36195     0.28093      
4.91         -0.34175     0.28684      0.57303      0.66271      0.57303      0.66271      -0.34175     0.28684      
4.92         -0.32121     0.29141      0.60279      0.64407      0.60279      0.64407      -0.32121     0.29141      
4.93         -0.30041     0.29461      0.63218      0.62388      0.63218      0.62388      -0.30041     0.29461      
4.94         -0.27946     0.29638      0.66113      0.60212      0.66113      0.60212      -0.27946     0.29638      
4.95         -0.25844     0.29669      0.68952      0.57876      0.68952      0.57876      -0.25844     0.29669      
4.96         -0.23747     0.29552      0.71726      0.55379      0.71726      0.55379      -0.23747     0.29552      
4.97         -0.21666     0.29284      0.74422      0.5272       0.74422      0.5272       -0.21666     0.29284      
4.98         -0.19612     0.28865      0.77031      0.49899      0.77031      0.49899      -0.19612     0.28865      
4.99         -0.17597     0.28294      0.79539      0.46918      0.79539      0.46918      -0.17597     0.28294      
5            -0.15634     0.27572      0.81935      0.43779      0.81935      0.43779      -0.15634     0.27572      
5.01         -0.13736     0.26701      0.84206      0.40485      0.84206      0.40485      -0.13736     0.26701      
5.02         -0.11914     0.25684      0.86338      0.3704       0.86338      0.3704       -0.11914     0.25684      
5.03         -0.10182     0.24527      0.8832       0.33451      0.8832       0.33451      -0.10182     0.24527      
5.04         -0.085535    0.23234      0.9014       0.29724      0.9014       0.29724      -0.085535    0.23234      
5.05         -0.070394    0.21812      0.91783      0.25868      0.91783      0.25868      -0.070394    0.21812      
5.06         -0.056523    0.20271      0.9324       0.21892      0.9324       0.21892      -0.056523    0.20271      
5.07         -0.044034    0.18619      0.94498      0.17807      0.94498      0.17807      -0.044034    0.18619      
5.08         -0.033033    0.16869      0.95548      0.13626      0.95548      0.13626      -0.033033    0.16869      
5.09         -0.023615    0.15031      0.9638       0.093615     0.9638       0.093615     -0.023615    0.15031      
5.1          -0.015865    0.1312       0.96985      0.050289     0.96985      0.050289     -0.015865    0.1312       
5.11         -0.009856    0.1115       0.97357      0.0064346    0.97357      0.0064346    -0.009856    0.1115       
5.12         -0.005645    0.091359     0.9749       -0.037784    0.9749       -0.037784    -0.005645    0.091359     
5.13         -0.0032752   0.070936     0.9738       -0.082197    0.9738       -0.082197    -0.0032752   0.070936     
5.14         -0.0027734   0.050396     0.97024      -0.12663     0.97024      -0.12663     -0.0027734   0.050396     
5.15         -0.0041494   0.029905     0.96423      -0.1709      0.96423      -0.1709      -0.0041494   0.029905     
5.16         -0.0073959   0.009631     0.95576      -0.21483     0.95576      -0.21483     -0.0073959   0.009631     
5.17         -0.012488    -0.010259    0.94486      -0.25824     0.94486      -0.25824     -0.012488    -0.010259    
5.18         -0.019384    -0.029601    0.93159      -0.30095     0.93159      -0.30095     -0.019384    -0.029601    
5.19         -0.028026    -0.048239    0.916        -0.34281     0.916        -0.34281     -0.028026    -0.048239    
5.2          -0.03834     -0.06602     0.89816      -0.38363     0.89816      -0.38363     -0.03834     -0.06602     
5.21         -0.050236    -0.082803    0.87818      -0.42328     0.87818      -0.42328     -0.050236    -0.082803    
5.22         -0.063614    -0.098458    0.85615      -0.4616      0.85615      -0.4616      -0.063614    -0.098458    
5.23         -0.078359    -0.11287     0.83219      -0.49847     0.83219      -0.49847     -0.078359    -0.11287     
5.24         -0.094348    -0.12592     0.80643      -0.53377     0.80643      -0.53377     -0.094348    -0.12592     
5.25         -0.11145     -0.13754     0.77901      -0.56739     0.77901      -0.56739     -0.11145     -0.13754     
5.26         -0.12952     -0.14763     0.75006      -0.59926     0.75006      -0.59926     -0.12952     -0.14763     
5.27         -0.14843     -0.15614     0.71974      -0.62929     0.71974      -0.62929     -0.14843     -0.15614     
5.28         -0.16803     -0.16303     0.68819      -0.65743     0.68819      -0.65743     -0.16803     -0.16303     
5.29         -0.18816     -0.16826     0.65556      -0.68363     0.65556      -0.68363     -0.18816     -0.16826     
5.3          -0.20869     -0.17181     0.62201      -0.70787     0.62201      -0.70787     -0.20869     -0.17181     
5.31         -0.22948     -0.17368     0.58767      -0.73013     0.58767      -0.73013     -0.22948     -0.17368     
5.32         -0.25038     -0.17389     0.55269      -0.75041     0.55269      -0.75041     -0.25038     -0.17389     
5.33         -0.27126     -0.17244     0.51721      -0.76871     0.51721      -0.76871     -0.27126     -0.17244     
5.34         -0.292       -0.16939     0.48137      -0.78507     0.48137      -0.78507     -0.292       -0.16939     
5.35         -0.31248     -0.16476     0.44528      -0.7995      0.44528      -0.7995      -0.31248     -0.16476     
5.36         -0.33257     -0.15861     0.40906      -0.81206     0.40906      -0.81206     -0.33257     -0.15861     
5.37         -0.35219     -0.151       0.37283      -0.82277     0.37283      -0.82277     -0.35219     -0.151       
5.38         -0.37122     -0.14199     0.33669      -0.83171     0.33669      -0.83171     -0.37122     -0.14199     
5.39         -0.38959     -0.13165     0.30073      -0.83892     0.30073      -0.83892     -0.38959     -0.13165     
5.4          -0.40721     -0.12006     0.26503      -0.84447     0.26503      -0.84447     -0.40721     -0.12006     
5.41         -0.42402     -0.10729     0.22968      -0.84843     0.22968      -0.84843     -0.42402     -0.10729     
5.42         -0.43995     -0.093434    0.19474      -0.85086     0.19474      -0.85086     -0.43995     -0.093434    
5.43         -0.45494     -0.07856     0.16027      -0.85182     0.16027      -0.85182     -0.45494     -0.07856     
5.44         -0.46895     -0.062755    0.12632      -0.8514      0.12632      -0.8514      -0.46895     -0.062755    
5.45         -0.48195     -0.046101    0.092953     -0.84966     0.092953     -0.84966     -0.48195     -0.046101    
5.46         -0.49389     -0.028679    0.060193     -0.84666     0.060193     -0.84666     -0.49389     -0.028679    
5.47         -0.50476     -0.01057     0.028078     -0.84249     0.028078     -0.84249     -0.50476     -0.01057     
5.48         -0.51453     0.008147     -0.0033655   -0.83719     -0.0033655   -0.83719     -0.51453     0.008147     
5.49         -0.52319     0.027394     -0.034115    -0.83085     -0.034115    -0.83085     -0.52319     0.027394     
5.5          -0.53073     0.047095     -0.064154    -0.82352     -0.064154    -0.82352     -0.53073     0.047095     
5.51         -0.53715     0.067179     -0.093469    -0.81525     -0.093469    -0.81525     -0.53715     0.067179     
5.52         -0.54244     0.087574     -0.12205     -0.80612     -0.12205     -0.80612     -0.54244     0.087574     
5.53         -0.54662     0.10821      -0.1499      -0.79616     -0.1499      -0.79616     -0.54662     0.10821      
5.54         -0.54968     0.12903      -0.17701     -0.78545     -0.17701     -0.78545     -0.54968     0.12903      
5.55         -0.55164     0.14996      -0.20337     -0.77401     -0.20337     -0.77401     -0.55164     0.14996      
5.56         -0.55251     0.17095      -0.22901     -0.7619      -0.22901     -0.7619      -0.55251     0.17095      
5.57         -0.55231     0.19193      -0.25391     -0.74917     -0.25391     -0.74917     -0.55231     0.19193      
5.58         -0.55106     0.21286      -0.27809     -0.73585     -0.27809     -0.73585     -0.55106     0.21286      
5.59         -0.54877     0.23368      -0.30156     -0.72198     -0.30156     -0.72198     -0.54877     0.23368      
5.6          -0.54546     0.25435      -0.32432     -0.7076      -0.32432     -0.7076      -0.54546     0.25435      
5.61         -0.54117     0.27481      -0.34639     -0.69274     -0.34639     -0.69274     -0.54117     0.27481      
5.62         -0.5359      0.29503      -0.36778     -0.67742     -0.36778     -0.67742     -0.5359      0.29503      
5.63         -0.5297      0.31495      -0.3885      -0.66168     -0.3885      -0.66168     -0.5297      0.31495      
5.64         -0.52258     0.33454      -0.40856     -0.64553     -0.40856     -0.64553     -0.52258     0.33454      
5.65         -0.51456     0.35377      -0.42797     -0.62901     -0.42797     -0.62901     -0.51456     0.35377      
