!freq-unit  param-type  data-format  keyword  impedance-ohms
# GHZ           S          RI           R         50
!-----------------------------------------------------------------------------
!Freq          ReS11        ImS11        ReS21        ImS21        ReS12        ImS12        ReS22        ImS22
4            0.17807      -0.50804     -0.78492     -0.27814     -0.78492     -0.27814     0.17807      -0.50804     
4.01         0.16788      -0.51517     -0.78874     -0.25996     -0.78874     -0.25996     0.16788      -0.51517     
4.02         0.15746      -0.52203     -0.79216     -0.24178     -0.79216     -0.24178     0.15746      -0.52203     
4.03         0.14683      -0.52861     -0.79517     -0.22364     -0.79517     -0.22364     0.14683      -0.52861     
4.04         0.13599      -0.5349      -0.79778     -0.20552     -0.79778     -0.20552     0.13599      -0.5349      
4.05         0.12496      -0.54089     -0.8         -0.18743     -0.8         -0.18743     0.12496      -0.54089     
4.06         0.11373      -0.54658     -0.80183     -0.16939     -0.80183     -0.16939     0.11373      -0.54658     
4.07         0.10234      -0.55198     -0.80327     -0.15141     -0.80327     -0.15141     0.10234      -0.55198     
4.08         0.090769     -0.55706     -0.80433     -0.13348     -0.80433     -0.13348     0.090769     -0.55706     
4.09         0.079043     -0.56184     -0.80501     -0.11561     -0.80501     -0.11561     0.079043     -0.56184     
4.1          0.067169     -0.5663      -0.80533     -0.097819    -0.80533     -0.097819    0.067169     -0.5663      
4.11         0.055156     -0.57044     -0.80527     -0.080104    -0.80527     -0.080104    0.055156     -0.57044     
4.12         0.043013     -0.57427     -0.80486     -0.062472    -0.80486     -0.062472    0.043013     -0.57427     
4.13         0.03075      -0.57777     -0.80408     -0.04493     -0.80408     -0.04493     0.03075      -0.57777     
4.14         0.018375     -0.58095     -0.80295     -0.027483    -0.80295     -0.027483    0.018375     -0.58095     
4.15         0.0058999    -0.5838      -0.80148     -0.010137    -0.80148     -0.010137    0.0058999    -0.5838      
4.16         -0.0066677   -0.58633     -0.79966     0.007102     -0.79966     0.007102     -0.0066677   -0.58633     
4.17         -0.019318    -0.58853     -0.7975      0.02423      -0.7975      0.02423      -0.019318    -0.58853     
4.18         -0.032041    -0.59039     -0.79501     0.041242     -0.79501     0.041242     -0.032041    -0.59039     
4.19         -0.044829    -0.59193     -0.79218     0.058132     -0.79218     0.058132     -0.044829    -0.59193     
4.2          -0.057671    -0.59314     -0.78903     0.074896     -0.78903     0.074896     -0.057671    -0.59314     
4.21         -0.070559    -0.59401     -0.78557     0.091529     -0.78557     0.091529     -0.070559    -0.59401     
4.22         -0.083484    -0.59455     -0.78178     0.10803      -0.78178     0.10803      -0.083484    -0.59455     
4.23         -0.096436    -0.59476     -0.77769     0.12438      -0.77769     0.12438      -0.096436    -0.59476     
4.24         -0.10941     -0.59464     -0.77329     0.1406       -0.77329     0.1406       -0.10941     -0.59464     
4.25         -0.12239     -0.59419     -0.76858     0.15667      -0.76858     0.15667      -0.12239     -0.59419     
4.26         -0.13537     -0.59341     -0.76358     0.17258      -0.76358     0.17258      -0.13537     -0.59341     
4.27         -0.14834     -0.5923      -0.75829     0.18834      -0.75829     0.18834      -0.14834     -0.5923      
4.28         -0.1613      -0.59086     -0.75271     0.20394      -0.75271     0.20394      -0.1613      -0.59086     
4.29         -0.17423     -0.58909     -0.74684     0.21937      -0.74684     0.21937      -0.17423     -0.58909     
4.3          -0.18713     -0.587       -0.74069     0.23464      -0.74069     0.23464      -0.18713     -0.587       
4.31         -0.19999     -0.58459     -0.73427     0.24974      -0.73427     0.24974      -0.19999     -0.58459     
4.32         -0.2128      -0.58185     -0.72758     0.26467      -0.72758     0.26467      -0.2128      -0.58185     
4.33         -0.22555     -0.5788      -0.72063     0.27942      -0.72063     0.27942      -0.22555     -0.5788      
4.34         -0.23823     -0.57542     -0.71341     0.29398      -0.71341     0.29398      -0.23823     -0.57542     
4.35         -0.25084     -0.57174     -0.70593     0.30837      -0.70593     0.30837      -0.25084     -0.57174     
4.36         -0.26337     -0.56774     -0.6982      0.32257      -0.6982      0.32257      -0.26337     -0.56774     
4.37         -0.27581     -0.56343     -0.69022     0.33658      -0.69022     0.33658      -0.27581     -0.56343     
4.38         -0.28815     -0.55882     -0.682       0.3504       -0.682       0.3504       -0.28815     -0.55882     
4.39         -0.30039     -0.5539      -0.67353     0.36402      -0.67353     0.36402      -0.30039     -0.5539      
4.4          -0.31252     -0.54868     -0.66483     0.37744      -0.66483     0.37744      -0.31252     -0.54868     
4.41         -0.32452     -0.54317     -0.6559      0.39067      -0.6559      0.39067      -0.32452     -0.54317     
4.42         -0.3364      -0.53736     -0.64673     0.40369      -0.64673     0.40369      -0.3364      -0.53736     
4.43         -0.34815     -0.53127     -0.63735     0.41651      -0.63735     0.41651      -0.34815     -0.53127     
4.44         -0.35975     -0.52489     -0.62774     0.42911      -0.62774     0.42911      -0.35975     -0.52489     
4.45         -0.37121     -0.51823     -0.61792     0.44151      -0.61792     0.44151      -0.37121     -0.51823     
4.46         -0.38252     -0.51129     -0.60789     0.45369      -0.60789     0.45369      -0.38252     -0.51129     
4.47         -0.39366     -0.50408     -0.59765     0.46566      -0.59765     0.46566      -0.39366     -0.50408     
4.48         -0.40464     -0.4966      -0.5872      0.47741      -0.5872      0.47741      -0.40464     -0.4966      
4.49         -0.41544     -0.48886     -0.57655     0.48894      -0.57655     0.48894      -0.41544     -0.48886     
4.5          -0.42607     -0.48086     -0.56571     0.50025      -0.56571     0.50025      -0.42607     -0.48086     
4.51         -0.43651     -0.4726      -0.55468     0.51134      -0.55468     0.51134      -0.43651     -0.4726      
4.52         -0.44675     -0.4641      -0.54346     0.52219      -0.54346     0.52219      -0.44675     -0.4641      
4.53         -0.4568      -0.45535     -0.53205     0.53282      -0.53205     0.53282      -0.4568      -0.45535     
4.54         -0.46665     -0.44636     -0.52047     0.54322      -0.52047     0.54322      -0.46665     -0.44636     
4.55         -0.47629     -0.43714     -0.5087      0.55338      -0.5087      0.55338      -0.47629     -0.43714     
4.56         -0.48572     -0.42769     -0.49677     0.56331      -0.49677     0.56331      -0.48572     -0.42769     
4.57         -0.49492     -0.41801     -0.48466     0.573        -0.48466     0.573        -0.49492     -0.41801     
4.58         -0.50391     -0.40812     -0.4724      0.58245      -0.4724      0.58245      -0.50391     -0.40812     
4.59         -0.51266     -0.39802     -0.45997     0.59166      -0.45997     0.59166      -0.51266     -0.39802     
4.6          -0.52118     -0.38771     -0.44738     0.60063      -0.44738     0.60063      -0.52118     -0.38771     
4.61         -0.52946     -0.3772      -0.43464     0.60935      -0.43464     0.60935      -0.52946     -0.3772      
4.62         -0.5375      -0.3665      -0.42175     0.61783      -0.42175     0.61783      -0.5375      -0.3665      
4.63         -0.54529     -0.3556      -0.40872     0.62605      -0.40872     0.62605      -0.54529     -0.3556      
4.64         -0.55282     -0.34453     -0.39554     0.63403      -0.39554     0.63403      -0.55282     -0.34453     
4.65         -0.5601      -0.33328     -0.38223     0.64175      -0.38223     0.64175      -0.5601      -0.33328     
4.66         -0.56712     -0.32186     -0.36878     0.64922      -0.36878     0.64922      -0.56712     -0.32186     
4.67         -0.57388     -0.31028     -0.35521     0.65644      -0.35521     0.65644      -0.57388     -0.31028     
4.68         -0.58037     -0.29854     -0.3415      0.66339      -0.3415      0.66339      -0.58037     -0.29854     
4.69         -0.58659     -0.28665     -0.32768     0.67009      -0.32768     0.67009      -0.58659     -0.28665     
4.7          -0.59253     -0.27461     -0.31373     0.67653      -0.31373     0.67653      -0.59253     -0.27461     
4.71         -0.59819     -0.26244     -0.29968     0.6827       -0.29968     0.6827       -0.59819     -0.26244     
4.72         -0.60357     -0.25014     -0.28551     0.68861      -0.28551     0.68861      -0.60357     -0.25014     
4.73         -0.60867     -0.23772     -0.27123     0.69425      -0.27123     0.69425      -0.60867     -0.23772     
4.74         -0.61348     -0.22518     -0.25686     0.69962      -0.25686     0.69962      -0.61348     -0.22518     
4.75         -0.618       -0.21252     -0.24238     0.70473      -0.24238     0.70473      -0.618       -0.21252     
4.76         -0.62223     -0.19977     -0.22781     0.70956      -0.22781     0.70956      -0.62223     -0.19977     
4.77         -0.62616     -0.18692     -0.21315     0.71412      -0.21315     0.71412      -0.62616     -0.18692     
4.78         -0.6298      -0.17398     -0.19841     0.71841      -0.19841     0.71841      -0.6298      -0.17398     
4.79         -0.63314     -0.16096     -0.18358     0.72242      -0.18358     0.72242      -0.63314     -0.16096     
4.8          -0.63617     -0.14787     -0.16867     0.72616      -0.16867     0.72616      -0.63617     -0.14787     
4.81         -0.63891     -0.13471     -0.15369     0.72962      -0.15369     0.72962      -0.63891     -0.13471     
4.82         -0.64134     -0.12148     -0.13864     0.73279      -0.13864     0.73279      -0.64134     -0.12148     
4.83         -0.64346     -0.10821     -0.12352     0.73569      -0.12352     0.73569      -0.64346     -0.10821     
4.84         -0.64528     -0.094889    -0.10834     0.7383       -0.10834     0.7383       -0.64528     -0.094889    
4.85         -0.64678     -0.081531    -0.093108    0.74063      -0.093108    0.74063      -0.64678     -0.081531    
4.86         -0.64798     -0.068143    -0.077819    0.74268      -0.077819    0.74268      -0.64798     -0.068143    
4.87         -0.64887     -0.054731    -0.062481    0.74444      -0.062481    0.74444      -0.64887     -0.054731    
4.88         -0.64945     -0.041304    -0.047099    0.74591      -0.047099    0.74591      -0.64945     -0.041304    
4.89         -0.64972     -0.027869    -0.031676    0.74709      -0.031676    0.74709      -0.64972     -0.027869    
4.9          -0.64967     -0.014432    -0.016217    0.74798      -0.016217    0.74798      -0.64967     -0.014432    
4.91         -0.64932     -0.0010027   -0.00072767  0.74858      -0.00072767  0.74858      -0.64932     -0.0010027   
4.92         -0.64865     0.012413     0.014789     0.74889      0.014789     0.74889      -0.64865     0.012413     
4.93         -0.64767     0.025806     0.030328     0.7489       0.030328     0.7489       -0.64767     0.025806     
4.94         -0.64638     0.03917      0.045885     0.74862      0.045885     0.74862      -0.64638     0.03917      
4.95         -0.64479     0.052497     0.061455     0.74804      0.061455     0.74804      -0.64479     0.052497     
4.96         -0.64288     0.06578      0.077034     0.74717      0.077034     0.74717      -0.64288     0.06578      
4.97         -0.64066     0.079011     0.092617     0.74599      0.092617     0.74599      -0.64066     0.079011     
4.98         -0.63813     0.092182     0.1082       0.74452      0.1082       0.74452      -0.63813     0.092182     
4.99         -0.6353      0.10529      0.12378      0.74275      0.12378      0.74275      -0.6353      0.10529      
5            -0.63217     0.11831      0.13934      0.74068      0.13934      0.74068      -0.63217     0.11831      
5.01         -0.62873     0.13126      0.15489      0.73831      0.15489      0.73831      -0.62873     0.13126      
5.02         -0.62499     0.14412      0.17043      0.73563      0.17043      0.73563      -0.62499     0.14412      
5.03         -0.62095     0.15688      0.18593      0.73265      0.18593      0.73265      -0.62095     0.15688      
5.04         -0.61661     0.16954      0.20141      0.72937      0.20141      0.72937      -0.61661     0.16954      
5.05         -0.61198     0.18208      0.21685      0.72579      0.21685      0.72579      -0.61198     0.18208      
5.06         -0.60705     0.1945       0.23225      0.7219       0.23225      0.7219       -0.60705     0.1945       
5.07         -0.60184     0.2068       0.24761      0.7177       0.24761      0.7177       -0.60184     0.2068       
5.08         -0.59633     0.21896      0.26291      0.7132       0.26291      0.7132       -0.59633     0.21896      
5.09         -0.59055     0.23099      0.27816      0.70839      0.27816      0.70839      -0.59055     0.23099      
5.1          -0.58448     0.24286      0.29335      0.70327      0.29335      0.70327      -0.58448     0.24286      
5.11         -0.57814     0.25458      0.30847      0.69785      0.30847      0.69785      -0.57814     0.25458      
5.12         -0.57152     0.26613      0.32352      0.69212      0.32352      0.69212      -0.57152     0.26613      
5.13         -0.56463     0.27752      0.3385       0.68609      0.3385       0.68609      -0.56463     0.27752      
5.14         -0.55748     0.28872      0.35339      0.67974      0.35339      0.67974      -0.55748     0.28872      
5.15         -0.55006     0.29975      0.36819      0.67309      0.36819      0.67309      -0.55006     0.29975      
5.16         -0.54238     0.31058      0.3829       0.66613      0.3829       0.66613      -0.54238     0.31058      
5.17         -0.53446     0.32121      0.39751      0.65886      0.39751      0.65886      -0.53446     0.32121      
5.18         -0.52628     0.33164      0.41201      0.65129      0.41201      0.65129      -0.52628     0.33164      
5.19         -0.51786     0.34186      0.4264       0.64341      0.4264       0.64341      -0.51786     0.34186      
5.2          -0.5092      0.35186      0.44067      0.63522      0.44067      0.63522      -0.5092      0.35186      
5.21         -0.50031     0.36164      0.45482      0.62672      0.45482      0.62672      -0.50031     0.36164      
5.22         -0.49119     0.37119      0.46885      0.61792      0.46885      0.61792      -0.49119     0.37119      
5.23         -0.48185     0.38049      0.48273      0.60881      0.48273      0.60881      -0.48185     0.38049      
5.24         -0.47229     0.38956      0.49648      0.5994       0.49648      0.5994       -0.47229     0.38956      
5.25         -0.46252     0.39838      0.51007      0.58969      0.51007      0.58969      -0.46252     0.39838      
5.26         -0.45255     0.40694      0.52352      0.57967      0.52352      0.57967      -0.45255     0.40694      
5.27         -0.44238     0.41524      0.5368       0.56935      0.5368       0.56935      -0.44238     0.41524      
5.28         -0.43202     0.42328      0.54992      0.55872      0.54992      0.55872      -0.43202     0.42328      
5.29         -0.42147     0.43104      0.56286      0.5478       0.56286      0.5478       -0.42147     0.43104      
5.3          -0.41074     0.43853      0.57562      0.53658      0.57562      0.53658      -0.41074     0.43853      
5.31         -0.39984     0.44573      0.5882       0.52506      0.5882       0.52506      -0.39984     0.44573      
5.32         -0.38878     0.45264      0.60058      0.51325      0.60058      0.51325      -0.38878     0.45264      
5.33         -0.37757     0.45926      0.61277      0.50114      0.61277      0.50114      -0.37757     0.45926      
5.34         -0.3662      0.46559      0.62475      0.48874      0.62475      0.48874      -0.3662      0.46559      
5.35         -0.35469     0.47161      0.63651      0.47605      0.63651      0.47605      -0.35469     0.47161      
5.36         -0.34305     0.47732      0.64806      0.46307      0.64806      0.46307      -0.34305     0.47732      
5.37         -0.33129     0.48273      0.65938      0.44981      0.65938      0.44981      -0.33129     0.48273      
5.38         -0.31941     0.48781      0.67046      0.43626      0.67046      0.43626      -0.31941     0.48781      
5.39         -0.30742     0.49258      0.68131      0.42242      0.68131      0.42242      -0.30742     0.49258      
5.4          -0.29533     0.49703      0.6919       0.40831      0.6919       0.40831      -0.29533     0.49703      
5.41         -0.28315     0.50115      0.70224      0.39393      0.70224      0.39393      -0.28315     0.50115      
5.42         -0.27088     0.50494      0.71232      0.37927      0.71232      0.37927      -0.27088     0.50494      
5.43         -0.25855     0.50839      0.72213      0.36434      0.72213      0.36434      -0.25855     0.50839      
5.44         -0.24615     0.51151      0.73166      0.34914      0.73166      0.34914      -0.24615     0.51151      
5.45         -0.23369     0.51429      0.74091      0.33368      0.74091      0.33368      -0.23369     0.51429      
5.46         -0.2212      0.51673      0.74986      0.31796      0.74986      0.31796      -0.2212      0.51673      
5.47         -0.20866     0.51883      0.75852      0.30198      0.75852      0.30198      -0.20866     0.51883      
5.48         -0.1961      0.52058      0.76687      0.28575      0.76687      0.28575      -0.1961      0.52058      
5.49         -0.18353     0.52199      0.7749       0.26928      0.7749       0.26928      -0.18353     0.52199      
5.5          -0.17095     0.52304      0.78261      0.25256      0.78261      0.25256      -0.17095     0.52304      
5.51         -0.15837     0.52375      0.79         0.2356       0.79         0.2356       -0.15837     0.52375      
5.52         -0.14581     0.52411      0.79704      0.21841      0.79704      0.21841      -0.14581     0.52411      
5.53         -0.13328     0.52411      0.80375      0.20098      0.80375      0.20098      -0.13328     0.52411      
5.54         -0.12078     0.52377      0.8101       0.18334      0.8101       0.18334      -0.12078     0.52377      
5.55         -0.10833     0.52307      0.81609      0.16548      0.81609      0.16548      -0.10833     0.52307      
5.56         -0.09593     0.52203      0.82171      0.1474       0.82171      0.1474       -0.09593     0.52203      
5.57         -0.083603    0.52063      0.82696      0.12912      0.82696      0.12912      -0.083603    0.52063      
5.58         -0.071355    0.51888      0.83183      0.11064      0.83183      0.11064      -0.071355    0.51888      
5.59         -0.059197    0.51679      0.8363       0.091965     0.8363       0.091965     -0.059197    0.51679      
5.6          -0.04714     0.51435      0.84038      0.073105     0.84038      0.073105     -0.04714     0.51435      
5.61         -0.035194    0.51157      0.84405      0.054065     0.84405      0.054065     -0.035194    0.51157      
5.62         -0.023372    0.50844      0.84731      0.034853     0.84731      0.034853     -0.023372    0.50844      
5.63         -0.011684    0.50498      0.85015      0.015477     0.85015      0.015477     -0.011684    0.50498      
5.64         -0.00014084  0.50118      0.85256      -0.0040561   0.85256      -0.0040561   -0.00014084  0.50118      
5.65         0.011246     0.49705      0.85454      -0.023737    0.85454      -0.023737    0.011246     0.49705      
