!freq-unit  param-type  data-format  keyword  impedance-ohms
# GHZ           S          RI           R         50
!-----------------------------------------------------------------------------
!Freq          ReS11        ImS11        ReS21        ImS21        ReS12        ImS12        ReS22        ImS22
4            -0.064607    -0.64952     0.74616      -0.074083    0.74616      -0.074083    -0.064607    -0.64952     
4.01         -0.074561    -0.64863     0.74477      -0.085479    0.74477      -0.085479    -0.074561    -0.64863     
4.02         -0.084503    -0.64758     0.74321      -0.096851    0.74321      -0.096851    -0.084503    -0.64758     
4.03         -0.094432    -0.64638     0.74148      -0.1082      0.74148      -0.1082      -0.094432    -0.64638     
4.04         -0.10434     -0.64502     0.73958      -0.11952     0.73958      -0.11952     -0.10434     -0.64502     
4.05         -0.11424     -0.6435      0.73751      -0.13081     0.73751      -0.13081     -0.11424     -0.6435      
4.06         -0.12411     -0.64182     0.73528      -0.14206     0.73528      -0.14206     -0.12411     -0.64182     
4.07         -0.13396     -0.63999     0.73288      -0.15328     0.73288      -0.15328     -0.13396     -0.63999     
4.08         -0.14378     -0.638       0.7303       -0.16447     0.7303       -0.16447     -0.14378     -0.638       
4.09         -0.15357     -0.63586     0.72757      -0.17561     0.72757      -0.17561     -0.15357     -0.63586     
4.1          -0.16333     -0.63356     0.72466      -0.18671     0.72466      -0.18671     -0.16333     -0.63356     
4.11         -0.17306     -0.63111     0.72159      -0.19777     0.72159      -0.19777     -0.17306     -0.63111     
4.12         -0.18275     -0.6285      0.71835      -0.20878     0.71835      -0.20878     -0.18275     -0.6285      
4.13         -0.1924      -0.62573     0.71495      -0.21973     0.71495      -0.21973     -0.1924      -0.62573     
4.14         -0.20201     -0.62282     0.71139      -0.23064     0.71139      -0.23064     -0.20201     -0.62282     
4.15         -0.21158     -0.61975     0.70766      -0.24149     0.70766      -0.24149     -0.21158     -0.61975     
4.16         -0.2211      -0.61653     0.70377      -0.25229     0.70377      -0.25229     -0.2211      -0.61653     
4.17         -0.23057     -0.61316     0.69972      -0.26303     0.69972      -0.26303     -0.23057     -0.61316     
4.18         -0.23999     -0.60964     0.69551      -0.2737      0.69551      -0.2737      -0.23999     -0.60964     
4.19         -0.24935     -0.60597     0.69113      -0.28431     0.69113      -0.28431     -0.24935     -0.60597     
4.2          -0.25866     -0.60215     0.6866       -0.29486     0.6866       -0.29486     -0.25866     -0.60215     
4.21         -0.26791     -0.59819     0.68191      -0.30533     0.68191      -0.30533     -0.26791     -0.59819     
4.22         -0.2771      -0.59407     0.67706      -0.31574     0.67706      -0.31574     -0.2771      -0.59407     
4.23         -0.28623     -0.58981     0.67205      -0.32607     0.67205      -0.32607     -0.28623     -0.58981     
4.24         -0.29529     -0.58541     0.66689      -0.33632     0.66689      -0.33632     -0.29529     -0.58541     
4.25         -0.30429     -0.58086     0.66158      -0.3465      0.66158      -0.3465      -0.30429     -0.58086     
4.26         -0.31321     -0.57617     0.65611      -0.3566      0.65611      -0.3566      -0.31321     -0.57617     
4.27         -0.32206     -0.57134     0.65049      -0.36661     0.65049      -0.36661     -0.32206     -0.57134     
4.28         -0.33084     -0.56637     0.64472      -0.37654     0.64472      -0.37654     -0.33084     -0.56637     
4.29         -0.33954     -0.56126     0.6388       -0.38639     0.6388       -0.38639     -0.33954     -0.56126     
4.3          -0.34816     -0.55601     0.63273      -0.39614     0.63273      -0.39614     -0.34816     -0.55601     
4.31         -0.3567      -0.55062     0.62651      -0.4058      0.62651      -0.4058      -0.3567      -0.55062     
4.32         -0.36515     -0.5451      0.62015      -0.41537     0.62015      -0.41537     -0.36515     -0.5451      
4.33         -0.37352     -0.53944     0.61364      -0.42484     0.61364      -0.42484     -0.37352     -0.53944     
4.34         -0.3818      -0.53366     0.60699      -0.43422     0.60699      -0.43422     -0.3818      -0.53366     
4.35         -0.39        -0.52774     0.60019      -0.44349     0.60019      -0.44349     -0.39        -0.52774     
4.36         -0.3981      -0.52169     0.59326      -0.45267     0.59326      -0.45267     -0.3981      -0.52169     
4.37         -0.4061      -0.51551     0.58618      -0.46173     0.58618      -0.46173     -0.4061      -0.51551     
4.38         -0.41401     -0.50921     0.57897      -0.47069     0.57897      -0.47069     -0.41401     -0.50921     
4.39         -0.42182     -0.50278     0.57162      -0.47955     0.57162      -0.47955     -0.42182     -0.50278     
4.4          -0.42953     -0.49622     0.56414      -0.48829     0.56414      -0.48829     -0.42953     -0.49622     
4.41         -0.43714     -0.48955     0.55652      -0.49692     0.55652      -0.49692     -0.43714     -0.48955     
4.42         -0.44464     -0.48275     0.54877      -0.50543     0.54877      -0.50543     -0.44464     -0.48275     
4.43         -0.45204     -0.47583     0.5409       -0.51382     0.5409       -0.51382     -0.45204     -0.47583     
4.44         -0.45933     -0.4688      0.53289      -0.5221      0.53289      -0.5221      -0.45933     -0.4688      
4.45         -0.46651     -0.46165     0.52476      -0.53026     0.52476      -0.53026     -0.46651     -0.46165     
4.46         -0.47358     -0.45439     0.5165       -0.53829     0.5165       -0.53829     -0.47358     -0.45439     
4.47         -0.48053     -0.44702     0.50812      -0.5462      0.50812      -0.5462      -0.48053     -0.44702     
4.48         -0.48737     -0.43953     0.49962      -0.55398     0.49962      -0.55398     -0.48737     -0.43953     
4.49         -0.49409     -0.43194     0.491        -0.56163     0.491        -0.56163     -0.49409     -0.43194     
4.5          -0.50069     -0.42424     0.48226      -0.56916     0.48226      -0.56916     -0.50069     -0.42424     
4.51         -0.50717     -0.41644     0.4734       -0.57655     0.4734       -0.57655     -0.50717     -0.41644     
4.52         -0.51353     -0.40853     0.46444      -0.5838      0.46444      -0.5838      -0.51353     -0.40853     
4.53         -0.51977     -0.40053     0.45536      -0.59092     0.45536      -0.59092     -0.51977     -0.40053     
4.54         -0.52588     -0.39242     0.44617      -0.5979      0.44617      -0.5979      -0.52588     -0.39242     
4.55         -0.53186     -0.38422     0.43687      -0.60475     0.43687      -0.60475     -0.53186     -0.38422     
4.56         -0.53772     -0.37593     0.42747      -0.61145     0.42747      -0.61145     -0.53772     -0.37593     
4.57         -0.54344     -0.36754     0.41796      -0.61801     0.41796      -0.61801     -0.54344     -0.36754     
4.58         -0.54903     -0.35906     0.40835      -0.62442     0.40835      -0.62442     -0.54903     -0.35906     
4.59         -0.55449     -0.35049     0.39864      -0.63069     0.39864      -0.63069     -0.55449     -0.35049     
4.6          -0.55982     -0.34184     0.38884      -0.63681     0.38884      -0.63681     -0.55982     -0.34184     
4.61         -0.565       -0.3331      0.37894      -0.64278     0.37894      -0.64278     -0.565       -0.3331      
4.62         -0.57006     -0.32428     0.36894      -0.6486      0.36894      -0.6486      -0.57006     -0.32428     
4.63         -0.57497     -0.31538     0.35886      -0.65427     0.35886      -0.65427     -0.57497     -0.31538     
4.64         -0.57974     -0.30641     0.34869      -0.65978     0.34869      -0.65978     -0.57974     -0.30641     
4.65         -0.58437     -0.29736     0.33843      -0.66514     0.33843      -0.66514     -0.58437     -0.29736     
4.66         -0.58886     -0.28823     0.32809      -0.67034     0.32809      -0.67034     -0.58886     -0.28823     
4.67         -0.59321     -0.27904     0.31766      -0.67539     0.31766      -0.67539     -0.59321     -0.27904     
4.68         -0.59741     -0.26977     0.30716      -0.68027     0.30716      -0.68027     -0.59741     -0.26977     
4.69         -0.60147     -0.26044     0.29658      -0.68499     0.29658      -0.68499     -0.60147     -0.26044     
4.7          -0.60538     -0.25105     0.28593      -0.68956     0.28593      -0.68956     -0.60538     -0.25105     
4.71         -0.60914     -0.2416      0.2752       -0.69395     0.2752       -0.69395     -0.60914     -0.2416      
4.72         -0.61275     -0.23208     0.2644       -0.69819     0.2644       -0.69819     -0.61275     -0.23208     
4.73         -0.61622     -0.22251     0.25354      -0.70226     0.25354      -0.70226     -0.61622     -0.22251     
4.74         -0.61953     -0.21289     0.24262      -0.70616     0.24262      -0.70616     -0.61953     -0.21289     
4.75         -0.62269     -0.20321     0.23163      -0.70989     0.23163      -0.70989     -0.62269     -0.20321     
4.76         -0.6257      -0.19348     0.22058      -0.71346     0.22058      -0.71346     -0.6257      -0.19348     
4.77         -0.62856     -0.18371     0.20948      -0.71686     0.20948      -0.71686     -0.62856     -0.18371     
4.78         -0.63126     -0.17389     0.19832      -0.72008     0.19832      -0.72008     -0.63126     -0.17389     
4.79         -0.63381     -0.16403     0.18711      -0.72314     0.18711      -0.72314     -0.63381     -0.16403     
4.8          -0.6362      -0.15413     0.17585      -0.72602     0.17585      -0.72602     -0.6362      -0.15413     
4.81         -0.63844     -0.1442      0.16454      -0.72872     0.16454      -0.72872     -0.63844     -0.1442      
4.82         -0.64052     -0.13423     0.15319      -0.73126     0.15319      -0.73126     -0.64052     -0.13423     
4.83         -0.64244     -0.12422     0.1418       -0.73362     0.1418       -0.73362     -0.64244     -0.12422     
4.84         -0.64421     -0.11419     0.13037      -0.7358      0.13037      -0.7358      -0.64421     -0.11419     
4.85         -0.64582     -0.10413     0.11891      -0.7378      0.11891      -0.7378      -0.64582     -0.10413     
4.86         -0.64727     -0.094045    0.10741      -0.73963     0.10741      -0.73963     -0.64727     -0.094045    
4.87         -0.64857     -0.083938    0.095884     -0.74129     0.095884     -0.74129     -0.64857     -0.083938    
4.88         -0.6497      -0.073812    0.084329     -0.74276     0.084329     -0.74276     -0.6497      -0.073812    
4.89         -0.65067     -0.063669    0.072749     -0.74405     0.072749     -0.74405     -0.65067     -0.063669    
4.9          -0.65149     -0.053511    0.061148     -0.74517     0.061148     -0.74517     -0.65149     -0.053511    
4.91         -0.65214     -0.043341    0.049527     -0.7461      0.049527     -0.7461      -0.65214     -0.043341    
4.92         -0.65264     -0.033162    0.03789      -0.74686     0.03789      -0.74686     -0.65264     -0.033162    
4.93         -0.65297     -0.022976    0.026239     -0.74744     0.026239     -0.74744     -0.65297     -0.022976    
4.94         -0.65315     -0.012786    0.014578     -0.74783     0.014578     -0.74783     -0.65315     -0.012786    
4.95         -0.65316     -0.0025946   0.0029084    -0.74804     0.0029084    -0.74804     -0.65316     -0.0025946   
4.96         -0.65302     0.0075962    -0.0087662   -0.74808     -0.0087662   -0.74808     -0.65302     0.0075962    
4.97         -0.65271     0.017784     -0.020443    -0.74793     -0.020443    -0.74793     -0.65271     0.017784     
4.98         -0.65225     0.027965     -0.03212     -0.7476      -0.03212     -0.7476      -0.65225     0.027965     
4.99         -0.65162     0.038138     -0.043793    -0.74709     -0.043793    -0.74709     -0.65162     0.038138     
5            -0.65084     0.0483       -0.05546     -0.7464      -0.05546     -0.7464      -0.65084     0.0483       
5.01         -0.64989     0.058448     -0.067118    -0.74552     -0.067118    -0.74552     -0.64989     0.058448     
5.02         -0.64879     0.068579     -0.078764    -0.74447     -0.078764    -0.74447     -0.64879     0.068579     
5.03         -0.64752     0.078692     -0.090395    -0.74323     -0.090395    -0.74323     -0.64752     0.078692     
5.04         -0.6461      0.088784     -0.10201     -0.74181     -0.10201     -0.74181     -0.6461      0.088784     
5.05         -0.64452     0.098852     -0.1136      -0.74021     -0.1136      -0.74021     -0.64452     0.098852     
5.06         -0.64278     0.10889      -0.12517     -0.73843     -0.12517     -0.73843     -0.64278     0.10889      
5.07         -0.64089     0.11891      -0.13672     -0.73647     -0.13672     -0.73647     -0.64089     0.11891      
5.08         -0.63883     0.12889      -0.14823     -0.73433     -0.14823     -0.73433     -0.63883     0.12889      
5.09         -0.63662     0.13883      -0.15972     -0.73201     -0.15972     -0.73201     -0.63662     0.13883      
5.1          -0.63426     0.14874      -0.17117     -0.72952     -0.17117     -0.72952     -0.63426     0.14874      
5.11         -0.63173     0.15862      -0.18258     -0.72684     -0.18258     -0.72684     -0.63173     0.15862      
5.12         -0.62906     0.16845      -0.19395     -0.72398     -0.19395     -0.72398     -0.62906     0.16845      
5.13         -0.62623     0.17823      -0.20528     -0.72095     -0.20528     -0.72095     -0.62623     0.17823      
5.14         -0.62324     0.18797      -0.21656     -0.71774     -0.21656     -0.71774     -0.62324     0.18797      
5.15         -0.62011     0.19766      -0.22779     -0.71435     -0.22779     -0.71435     -0.62011     0.19766      
5.16         -0.61682     0.2073       -0.23898     -0.71079     -0.23898     -0.71079     -0.61682     0.2073       
5.17         -0.61338     0.21689      -0.25011     -0.70706     -0.25011     -0.70706     -0.61338     0.21689      
5.18         -0.60979     0.22642      -0.26118     -0.70314     -0.26118     -0.70314     -0.60979     0.22642      
5.19         -0.60605     0.23589      -0.27219     -0.69906     -0.27219     -0.69906     -0.60605     0.23589      
5.2          -0.60216     0.2453       -0.28314     -0.6948      -0.28314     -0.6948      -0.60216     0.2453       
5.21         -0.59813     0.25465      -0.29402     -0.69038     -0.29402     -0.69038     -0.59813     0.25465      
5.22         -0.59395     0.26393      -0.30484     -0.68578     -0.30484     -0.68578     -0.59395     0.26393      
5.23         -0.58962     0.27315      -0.31559     -0.68101     -0.31559     -0.68101     -0.58962     0.27315      
5.24         -0.58515     0.28229      -0.32626     -0.67608     -0.32626     -0.67608     -0.58515     0.28229      
5.25         -0.58054     0.29136      -0.33686     -0.67097     -0.33686     -0.67097     -0.58054     0.29136      
5.26         -0.57578     0.30036      -0.34738     -0.6657      -0.34738     -0.6657      -0.57578     0.30036      
5.27         -0.57089     0.30928      -0.35781     -0.66027     -0.35781     -0.66027     -0.57089     0.30928      
5.28         -0.56585     0.31812      -0.36817     -0.65467     -0.36817     -0.65467     -0.56585     0.31812      
5.29         -0.56068     0.32688      -0.37844     -0.64892     -0.37844     -0.64892     -0.56068     0.32688      
5.3          -0.55537     0.33555      -0.38861     -0.643       -0.38861     -0.643       -0.55537     0.33555      
5.31         -0.54992     0.34414      -0.3987      -0.63692     -0.3987      -0.63692     -0.54992     0.34414      
5.32         -0.54434     0.35264      -0.40869     -0.63068     -0.40869     -0.63068     -0.54434     0.35264      
5.33         -0.53863     0.36105      -0.41859     -0.62428     -0.41859     -0.62428     -0.53863     0.36105      
5.34         -0.53279     0.36937      -0.42839     -0.61773     -0.42839     -0.61773     -0.53279     0.36937      
5.35         -0.52682     0.3776       -0.43809     -0.61103     -0.43809     -0.61103     -0.52682     0.3776       
5.36         -0.52072     0.38572      -0.44768     -0.60418     -0.44768     -0.60418     -0.52072     0.38572      
5.37         -0.51449     0.39375      -0.45716     -0.59717     -0.45716     -0.59717     -0.51449     0.39375      
5.38         -0.50814     0.40168      -0.46654     -0.59002     -0.46654     -0.59002     -0.50814     0.40168      
5.39         -0.50167     0.40951      -0.47581     -0.58272     -0.47581     -0.58272     -0.50167     0.40951      
5.4          -0.49507     0.41723      -0.48496     -0.57527     -0.48496     -0.57527     -0.49507     0.41723      
5.41         -0.48836     0.42484      -0.494       -0.56768     -0.494       -0.56768     -0.48836     0.42484      
5.42         -0.48152     0.43235      -0.50292     -0.55995     -0.50292     -0.55995     -0.48152     0.43235      
5.43         -0.47457     0.43975      -0.51172     -0.55208     -0.51172     -0.55208     -0.47457     0.43975      
5.44         -0.46751     0.44703      -0.5204      -0.54407     -0.5204      -0.54407     -0.46751     0.44703      
5.45         -0.46033     0.4542       -0.52895     -0.53592     -0.52895     -0.53592     -0.46033     0.4542       
5.46         -0.45304     0.46125      -0.53738     -0.52764     -0.53738     -0.52764     -0.45304     0.46125      
5.47         -0.44564     0.46819      -0.54568     -0.51923     -0.54568     -0.51923     -0.44564     0.46819      
5.48         -0.43814     0.47501      -0.55385     -0.51069     -0.55385     -0.51069     -0.43814     0.47501      
5.49         -0.43053     0.48171      -0.56188     -0.50202     -0.56188     -0.50202     -0.43053     0.48171      
5.5          -0.42282     0.48828      -0.56978     -0.49322     -0.56978     -0.49322     -0.42282     0.48828      
5.51         -0.415       0.49473      -0.57754     -0.4843      -0.57754     -0.4843      -0.415       0.49473      
5.52         -0.40709     0.50106      -0.58517     -0.47526     -0.58517     -0.47526     -0.40709     0.50106      
5.53         -0.39908     0.50725      -0.59265     -0.4661      -0.59265     -0.4661      -0.39908     0.50725      
5.54         -0.39097     0.51332      -0.59999     -0.45682     -0.59999     -0.45682     -0.39097     0.51332      
5.55         -0.38277     0.51926      -0.60719     -0.44743     -0.60719     -0.44743     -0.38277     0.51926      
5.56         -0.37448     0.52506      -0.61424     -0.43792     -0.61424     -0.43792     -0.37448     0.52506      
5.57         -0.36611     0.53073      -0.62115     -0.4283      -0.62115     -0.4283      -0.36611     0.53073      
5.58         -0.35764     0.53627      -0.6279      -0.41858     -0.6279      -0.41858     -0.35764     0.53627      
5.59         -0.34909     0.54167      -0.6345      -0.40875     -0.6345      -0.40875     -0.34909     0.54167      
5.6          -0.34046     0.54693      -0.64095     -0.39881     -0.64095     -0.39881     -0.34046     0.54693      
5.61         -0.33175     0.55206      -0.64725     -0.38878     -0.64725     -0.38878     -0.33175     0.55206      
5.62         -0.32296     0.55704      -0.65339     -0.37864     -0.65339     -0.37864     -0.32296     0.55704      
5.63         -0.31409     0.56189      -0.65937     -0.36841     -0.65937     -0.36841     -0.31409     0.56189      
5.64         -0.30515     0.56659      -0.66519     -0.35809     -0.66519     -0.35809     -0.30515     0.56659      
5.65         -0.29615     0.57114      -0.67086     -0.34767     -0.67086     -0.34767     -0.29615     0.57114      
