!freq-unit  param-type  data-format  keyword  impedance-ohms
# GHZ           S          RI           R         50
!-----------------------------------------------------------------------------
!Freq          ReS11        ImS11        ReS21        ImS21        ReS12        ImS12        ReS22        ImS22
4            -0.36944     -0.13921     0.31713      -0.85332     0.31713      -0.85332     -0.36944     -0.13921     
4.01         -0.36829     -0.13029     0.30023      -0.86128     0.30023      -0.86128     -0.36829     -0.13029     
4.02         -0.36689     -0.12145     0.2831       -0.8689      0.2831       -0.8689      -0.36689     -0.12145     
4.03         -0.36526     -0.1127      0.26577      -0.87618     0.26577      -0.87618     -0.36526     -0.1127      
4.04         -0.3634      -0.10405     0.24822      -0.88312     0.24822      -0.88312     -0.3634      -0.10405     
4.05         -0.36131     -0.095505    0.23047      -0.8897      0.23047      -0.8897      -0.36131     -0.095505    
4.06         -0.35899     -0.08707     0.21253      -0.89592     0.21253      -0.89592     -0.35899     -0.08707     
4.07         -0.35645     -0.078754    0.1944       -0.90178     0.1944       -0.90178     -0.35645     -0.078754    
4.08         -0.35369     -0.070563    0.17609      -0.90726     0.17609      -0.90726     -0.35369     -0.070563    
4.09         -0.35072     -0.062504    0.15761      -0.91237     0.15761      -0.91237     -0.35072     -0.062504    
4.1          -0.34753     -0.054582    0.13896      -0.91709     0.13896      -0.91709     -0.34753     -0.054582    
4.11         -0.34414     -0.046805    0.12016      -0.92142     0.12016      -0.92142     -0.34414     -0.046805    
4.12         -0.34054     -0.039179    0.10121      -0.92535     0.10121      -0.92535     -0.34054     -0.039179    
4.13         -0.33675     -0.03171     0.08212      -0.92888     0.08212      -0.92888     -0.33675     -0.03171     
4.14         -0.33276     -0.024404    0.062901     -0.93201     0.062901     -0.93201     -0.33276     -0.024404    
4.15         -0.32859     -0.017267    0.043561     -0.93473     0.043561     -0.93473     -0.32859     -0.017267    
4.16         -0.32423     -0.010304    0.024108     -0.93702     0.024108     -0.93702     -0.32423     -0.010304    
4.17         -0.3197      -0.0035218   0.0045532    -0.9389      0.0045532    -0.9389      -0.3197      -0.0035218   
4.18         -0.315       0.0030752    -0.015095    -0.94036     -0.015095    -0.94036     -0.315       0.0030752    
4.19         -0.31013     0.0094815    -0.034827    -0.94138     -0.034827    -0.94138     -0.31013     0.0094815    
4.2          -0.3051      0.015692     -0.054632    -0.94198     -0.054632    -0.94198     -0.3051      0.015692     
4.21         -0.29993     0.021702     -0.074501    -0.94214     -0.074501    -0.94214     -0.29993     0.021702     
4.22         -0.2946      0.027506     -0.094423    -0.94185     -0.094423    -0.94185     -0.2946      0.027506     
4.23         -0.28914     0.033101     -0.11439     -0.94113     -0.11439     -0.94113     -0.28914     0.033101     
4.24         -0.28355     0.038481     -0.13438     -0.93996     -0.13438     -0.93996     -0.28355     0.038481     
4.25         -0.27783     0.043644     -0.1544      -0.93834     -0.1544      -0.93834     -0.27783     0.043644     
4.26         -0.27199     0.048584     -0.17443     -0.93627     -0.17443     -0.93627     -0.27199     0.048584     
4.27         -0.26604     0.053299     -0.19446     -0.93375     -0.19446     -0.93375     -0.26604     0.053299     
4.28         -0.25999     0.057785     -0.21448     -0.93077     -0.21448     -0.93077     -0.25999     0.057785     
4.29         -0.25385     0.062039     -0.23447     -0.92734     -0.23447     -0.92734     -0.25385     0.062039     
4.3          -0.24761     0.066059     -0.25444     -0.92346     -0.25444     -0.92346     -0.24761     0.066059     
4.31         -0.2413      0.069841     -0.27435     -0.91911     -0.27435     -0.91911     -0.2413      0.069841     
4.32         -0.23491     0.073383     -0.29421     -0.91431     -0.29421     -0.91431     -0.23491     0.073383     
4.33         -0.22846     0.076683     -0.31401     -0.90905     -0.31401     -0.90905     -0.22846     0.076683     
4.34         -0.22196     0.079739     -0.33372     -0.90334     -0.33372     -0.90334     -0.22196     0.079739     
4.35         -0.21541     0.082551     -0.35334     -0.89716     -0.35334     -0.89716     -0.21541     0.082551     
4.36         -0.20881     0.085115     -0.37286     -0.89053     -0.37286     -0.89053     -0.20881     0.085115     
4.37         -0.20219     0.087432     -0.39227     -0.88345     -0.39227     -0.88345     -0.20219     0.087432     
4.38         -0.19554     0.089501     -0.41155     -0.87591     -0.41155     -0.87591     -0.19554     0.089501     
4.39         -0.18888     0.091321     -0.43069     -0.86792     -0.43069     -0.86792     -0.18888     0.091321     
4.4          -0.18221     0.092893     -0.44969     -0.85948     -0.44969     -0.85948     -0.18221     0.092893     
4.41         -0.17555     0.094215     -0.46852     -0.8506      -0.46852     -0.8506      -0.17555     0.094215     
4.42         -0.16889     0.09529      -0.48718     -0.84127     -0.48718     -0.84127     -0.16889     0.09529      
4.43         -0.16226     0.096117     -0.50566     -0.83149     -0.50566     -0.83149     -0.16226     0.096117     
4.44         -0.15565     0.096697     -0.52394     -0.82128     -0.52394     -0.82128     -0.15565     0.096697     
4.45         -0.14907     0.097031     -0.54201     -0.81064     -0.54201     -0.81064     -0.14907     0.097031     
4.46         -0.14255     0.097123     -0.55986     -0.79957     -0.55986     -0.79957     -0.14255     0.097123     
4.47         -0.13607     0.096972     -0.57749     -0.78807     -0.57749     -0.78807     -0.13607     0.096972     
4.48         -0.12965     0.096581     -0.59487     -0.77616     -0.59487     -0.77616     -0.12965     0.096581     
4.49         -0.12331     0.095954     -0.61201     -0.76383     -0.61201     -0.76383     -0.12331     0.095954     
4.5          -0.11704     0.095091     -0.62888     -0.75109     -0.62888     -0.75109     -0.11704     0.095091     
4.51         -0.11085     0.093998     -0.64547     -0.73795     -0.64547     -0.73795     -0.11085     0.093998     
4.52         -0.10476     0.092676     -0.66178     -0.72441     -0.66178     -0.72441     -0.10476     0.092676     
4.53         -0.098771    0.091129     -0.6778      -0.71048     -0.6778      -0.71048     -0.098771    0.091129     
4.54         -0.092888    0.089361     -0.69351     -0.69616     -0.69351     -0.69616     -0.092888    0.089361     
4.55         -0.087121    0.087377     -0.7089      -0.68147     -0.7089      -0.68147     -0.087121    0.087377     
4.56         -0.081477    0.08518      -0.72397     -0.66641     -0.72397     -0.66641     -0.081477    0.08518      
4.57         -0.075963    0.082775     -0.73871     -0.65099     -0.73871     -0.65099     -0.075963    0.082775     
4.58         -0.070586    0.080168     -0.75309     -0.63522     -0.75309     -0.63522     -0.070586    0.080168     
4.59         -0.065354    0.077362     -0.76713     -0.61911     -0.76713     -0.61911     -0.065354    0.077362     
4.6          -0.060273    0.074364     -0.7808      -0.60265     -0.7808      -0.60265     -0.060273    0.074364     
4.61         -0.055349    0.071179     -0.79409     -0.58587     -0.79409     -0.58587     -0.055349    0.071179     
4.62         -0.050589    0.067813     -0.80701     -0.56877     -0.80701     -0.56877     -0.050589    0.067813     
4.63         -0.045999    0.064272     -0.81954     -0.55137     -0.81954     -0.55137     -0.045999    0.064272     
4.64         -0.041585    0.060562     -0.83167     -0.53366     -0.83167     -0.53366     -0.041585    0.060562     
4.65         -0.037353    0.05669      -0.84339     -0.51567     -0.84339     -0.51567     -0.037353    0.05669      
4.66         -0.033308    0.052661     -0.8547      -0.4974      -0.8547      -0.4974      -0.033308    0.052661     
4.67         -0.029454    0.048484     -0.86559     -0.47886     -0.86559     -0.47886     -0.029454    0.048484     
4.68         -0.025799    0.044165     -0.87605     -0.46006     -0.87605     -0.46006     -0.025799    0.044165     
4.69         -0.022345    0.03971      -0.88608     -0.44102     -0.88608     -0.44102     -0.022345    0.03971      
4.7          -0.019097    0.035128     -0.89566     -0.42174     -0.89566     -0.42174     -0.019097    0.035128     
4.71         -0.016061    0.030426     -0.9048      -0.40224     -0.9048      -0.40224     -0.016061    0.030426     
4.72         -0.013239    0.025612     -0.91349     -0.38252     -0.91349     -0.38252     -0.013239    0.025612     
4.73         -0.010635    0.020693     -0.92172     -0.3626      -0.92172     -0.3626      -0.010635    0.020693     
4.74         -0.0082531   0.015676     -0.92948     -0.34249     -0.92948     -0.34249     -0.0082531   0.015676     
4.75         -0.0060962   0.010571     -0.93678     -0.32221     -0.93678     -0.32221     -0.0060962   0.010571     
4.76         -0.0041671   0.0053852    -0.94361     -0.30175     -0.94361     -0.30175     -0.0041671   0.0053852    
4.77         -0.0024683   0.00012635   -0.94996     -0.28115     -0.94996     -0.28115     -0.0024683   0.00012635   
4.78         -0.0010023   -0.0051971   -0.95583     -0.2604      -0.95583     -0.2604      -0.0010023   -0.0051971   
4.79         0.00022914   -0.010577    -0.96121     -0.23952     -0.96121     -0.23952     0.00022914   -0.010577    
4.8          0.0012241    -0.016004    -0.96611     -0.21853     -0.96611     -0.21853     0.0012241    -0.016004    
4.81         0.0019813    -0.021472    -0.97053     -0.19743     -0.97053     -0.19743     0.0019813    -0.021472    
4.82         0.0024995    -0.02697     -0.97445     -0.17624     -0.97445     -0.17624     0.0024995    -0.02697     
4.83         0.0027779    -0.032491    -0.97787     -0.15497     -0.97787     -0.15497     0.0027779    -0.032491    
4.84         0.002816     -0.038026    -0.9808      -0.13363     -0.9808      -0.13363     0.002816     -0.038026    
4.85         0.0026135    -0.043567    -0.98324     -0.11224     -0.98324     -0.11224     0.0026135    -0.043567    
4.86         0.0021704    -0.049105    -0.98518     -0.090801    -0.98518     -0.090801    0.0021704    -0.049105    
4.87         0.001487     -0.054632    -0.98662     -0.069337    -0.98662     -0.069337    0.001487     -0.054632    
4.88         0.00056402   -0.06014     -0.98757     -0.047857    -0.98757     -0.047857    0.00056402   -0.06014     
4.89         -0.0005977   -0.065619    -0.98801     -0.026372    -0.98801     -0.026372    -0.0005977   -0.065619    
4.9          -0.001997    -0.071063    -0.98796     -0.0048956   -0.98796     -0.0048956   -0.001997    -0.071063    
4.91         -0.0036323   -0.076461    -0.98742     0.01656      -0.98742     0.01656      -0.0036323   -0.076461    
4.92         -0.005502    -0.081807    -0.98638     0.037982     -0.98638     0.037982     -0.005502    -0.081807    
4.93         -0.0076041   -0.087092    -0.98484     0.059359     -0.98484     0.059359     -0.0076041   -0.087092    
4.94         -0.0099361   -0.092309    -0.98282     0.080677     -0.98282     0.080677     -0.0099361   -0.092309    
4.95         -0.012496    -0.097448    -0.98031     0.10193      -0.98031     0.10193      -0.012496    -0.097448    
4.96         -0.01528     -0.1025      -0.97731     0.12309      -0.97731     0.12309      -0.01528     -0.1025      
4.97         -0.018286    -0.10747     -0.97383     0.14416      -0.97383     0.14416      -0.018286    -0.10747     
4.98         -0.02151     -0.11233     -0.96986     0.16513      -0.96986     0.16513      -0.02151     -0.11233     
4.99         -0.024948    -0.11708     -0.96543     0.18598      -0.96543     0.18598      -0.024948    -0.11708     
5            -0.028598    -0.12172     -0.96051     0.20669      -0.96051     0.20669      -0.028598    -0.12172     
5.01         -0.032454    -0.12624     -0.95514     0.22727      -0.95514     0.22727      -0.032454    -0.12624     
5.02         -0.036513    -0.13063     -0.94929     0.2477       -0.94929     0.2477       -0.036513    -0.13063     
5.03         -0.04077     -0.13489     -0.94299     0.26796      -0.94299     0.26796      -0.04077     -0.13489     
5.04         -0.04522     -0.139       -0.93624     0.28804      -0.93624     0.28804      -0.04522     -0.139       
5.05         -0.049859    -0.14296     -0.92903     0.30794      -0.92903     0.30794      -0.049859    -0.14296     
5.06         -0.054681    -0.14677     -0.92139     0.32765      -0.92139     0.32765      -0.054681    -0.14677     
5.07         -0.05968     -0.15041     -0.91331     0.34715      -0.91331     0.34715      -0.05968     -0.15041     
5.08         -0.064852    -0.15389     -0.90479     0.36643      -0.90479     0.36643      -0.064852    -0.15389     
5.09         -0.070191    -0.15719     -0.89586     0.38548      -0.89586     0.38548      -0.070191    -0.15719     
5.1          -0.07569     -0.16032     -0.8865      0.4043       -0.8865      0.4043       -0.07569     -0.16032     
5.11         -0.081345    -0.16326     -0.87674     0.42288      -0.87674     0.42288      -0.081345    -0.16326     
5.12         -0.087147    -0.16601     -0.86657     0.44119      -0.86657     0.44119      -0.087147    -0.16601     
5.13         -0.093092    -0.16857     -0.856       0.45925      -0.856       0.45925      -0.093092    -0.16857     
5.14         -0.099173    -0.17093     -0.84505     0.47703      -0.84505     0.47703      -0.099173    -0.17093     
5.15         -0.10538     -0.17309     -0.83372     0.49452      -0.83372     0.49452      -0.10538     -0.17309     
5.16         -0.11172     -0.17504     -0.82201     0.51173      -0.82201     0.51173      -0.11172     -0.17504     
5.17         -0.11816     -0.17678     -0.80994     0.52864      -0.80994     0.52864      -0.11816     -0.17678     
5.18         -0.12472     -0.1783      -0.79752     0.54524      -0.79752     0.54524      -0.12472     -0.1783      
5.19         -0.13138     -0.1796      -0.78474     0.56153      -0.78474     0.56153      -0.13138     -0.1796      
5.2          -0.13813     -0.18068     -0.77163     0.5775       -0.77163     0.5775       -0.13813     -0.18068     
5.21         -0.14497     -0.18154     -0.75819     0.59314      -0.75819     0.59314      -0.14497     -0.18154     
5.22         -0.15189     -0.18217     -0.74443     0.60844      -0.74443     0.60844      -0.15189     -0.18217     
5.23         -0.15888     -0.18257     -0.73035     0.6234       -0.73035     0.6234       -0.15888     -0.18257     
5.24         -0.16593     -0.18273     -0.71597     0.63801      -0.71597     0.63801      -0.16593     -0.18273     
5.25         -0.17305     -0.18266     -0.7013      0.65227      -0.7013      0.65227      -0.17305     -0.18266     
5.26         -0.18021     -0.18236     -0.68635     0.66616      -0.68635     0.66616      -0.18021     -0.18236     
5.27         -0.18742     -0.18181     -0.67112     0.6797       -0.67112     0.6797       -0.18742     -0.18181     
5.28         -0.19466     -0.18103     -0.65562     0.69286      -0.65562     0.69286      -0.19466     -0.18103     
5.29         -0.20193     -0.18        -0.63988     0.70564      -0.63988     0.70564      -0.20193     -0.18        
5.3          -0.20921     -0.17873     -0.62388     0.71805      -0.62388     0.71805      -0.20921     -0.17873     
5.31         -0.21651     -0.17722     -0.60765     0.73007      -0.60765     0.73007      -0.21651     -0.17722     
5.32         -0.22382     -0.17547     -0.5912      0.7417       -0.5912      0.7417       -0.22382     -0.17547     
5.33         -0.23112     -0.17348     -0.57453     0.75294      -0.57453     0.75294      -0.23112     -0.17348     
5.34         -0.23841     -0.17124     -0.55766     0.76378      -0.55766     0.76378      -0.23841     -0.17124     
5.35         -0.24568     -0.16876     -0.54059     0.77422      -0.54059     0.77422      -0.24568     -0.16876     
5.36         -0.25292     -0.16603     -0.52334     0.78426      -0.52334     0.78426      -0.25292     -0.16603     
5.37         -0.26013     -0.16307     -0.50591     0.7939       -0.50591     0.7939       -0.26013     -0.16307     
5.38         -0.2673      -0.15987     -0.48832     0.80313      -0.48832     0.80313      -0.2673      -0.15987     
5.39         -0.27443     -0.15642     -0.47057     0.81194      -0.47057     0.81194      -0.27443     -0.15642     
5.4          -0.28149     -0.15274     -0.45268     0.82035      -0.45268     0.82035      -0.28149     -0.15274     
5.41         -0.2885      -0.14883     -0.43465     0.82834      -0.43465     0.82834      -0.2885      -0.14883     
5.42         -0.29543     -0.14468     -0.4165      0.83592      -0.4165      0.83592      -0.29543     -0.14468     
5.43         -0.30229     -0.1403      -0.39824     0.84308      -0.39824     0.84308      -0.30229     -0.1403      
5.44         -0.30906     -0.13569     -0.37987     0.84983      -0.37987     0.84983      -0.30906     -0.13569     
5.45         -0.31574     -0.13085     -0.36141     0.85615      -0.36141     0.85615      -0.31574     -0.13085     
5.46         -0.32232     -0.12579     -0.34287     0.86206      -0.34287     0.86206      -0.32232     -0.12579     
5.47         -0.3288      -0.1205      -0.32425     0.86755      -0.32425     0.86755      -0.3288      -0.1205      
5.48         -0.33517     -0.115       -0.30556     0.87263      -0.30556     0.87263      -0.33517     -0.115       
5.49         -0.34142     -0.10928     -0.28682     0.87729      -0.28682     0.87729      -0.34142     -0.10928     
5.5          -0.34755     -0.10335     -0.26804     0.88152      -0.26804     0.88152      -0.34755     -0.10335     
5.51         -0.35354     -0.097216    -0.24922     0.88535      -0.24922     0.88535      -0.35354     -0.097216    
5.52         -0.3594      -0.090875    -0.23038     0.88876      -0.23038     0.88876      -0.3594      -0.090875    
5.53         -0.36512     -0.084333    -0.21152     0.89175      -0.21152     0.89175      -0.36512     -0.084333    
5.54         -0.37069     -0.077596    -0.19265     0.89434      -0.19265     0.89434      -0.37069     -0.077596    
5.55         -0.37611     -0.070666    -0.17379     0.89651      -0.17379     0.89651      -0.37611     -0.070666    
5.56         -0.38137     -0.063549    -0.15493     0.89827      -0.15493     0.89827      -0.38137     -0.063549    
5.57         -0.38646     -0.05625     -0.1361      0.89963      -0.1361      0.89963      -0.38646     -0.05625     
5.58         -0.39138     -0.048772    -0.1173      0.90059      -0.1173      0.90059      -0.39138     -0.048772    
5.59         -0.39613     -0.041121    -0.098535    0.90114      -0.098535    0.90114      -0.39613     -0.041121    
5.6          -0.40069     -0.033301    -0.079818    0.90129      -0.079818    0.90129      -0.40069     -0.033301    
5.61         -0.40507     -0.025319    -0.061157    0.90105      -0.061157    0.90105      -0.40507     -0.025319    
5.62         -0.40927     -0.017178    -0.042561    0.90042      -0.042561    0.90042      -0.40927     -0.017178    
5.63         -0.41326     -0.0088851   -0.024037    0.8994       -0.024037    0.8994       -0.41326     -0.0088851   
5.64         -0.41706     -0.00044486  -0.0055947   0.89799      -0.0055947   0.89799      -0.41706     -0.00044486  
5.65         -0.42066     0.008137     0.012759     0.8962       0.012759     0.8962       -0.42066     0.008137     
