!freq-unit  param-type  data-format  keyword  impedance-ohms
# GHZ           S          RI           R         50
!-----------------------------------------------------------------------------
!Freq          ReS11        ImS11        ReS21        ImS21        ReS12        ImS12        ReS22        ImS22
4            0.11551      -0.063409    -0.45524     -0.87038     -0.45524     -0.87038     0.11551      -0.063409    
4.01         0.12017      -0.069555    -0.47529     -0.85847     -0.47529     -0.85847     0.12017      -0.069555    
4.02         0.12456      -0.075933    -0.49499     -0.84607     -0.49499     -0.84607     0.12456      -0.075933    
4.03         0.12868      -0.082532    -0.51432     -0.8332      -0.51432     -0.8332      0.12868      -0.082532    
4.04         0.13253      -0.089342    -0.53328     -0.81987     -0.53328     -0.81987     0.13253      -0.089342    
4.05         0.13609      -0.096349    -0.55185     -0.80608     -0.55185     -0.80608     0.13609      -0.096349    
4.06         0.13935      -0.10354     -0.57002     -0.79185     -0.57002     -0.79185     0.13935      -0.10354     
4.07         0.14232      -0.11091     -0.58778     -0.7772      -0.58778     -0.7772      0.14232      -0.11091     
4.08         0.14498      -0.11844     -0.60511     -0.76214     -0.60511     -0.76214     0.14498      -0.11844     
4.09         0.14733      -0.12612     -0.62202     -0.74668     -0.62202     -0.74668     0.14733      -0.12612     
4.1          0.14937      -0.13394     -0.63849     -0.73084     -0.63849     -0.73084     0.14937      -0.13394     
4.11         0.15109      -0.14189     -0.65451     -0.71463     -0.65451     -0.71463     0.15109      -0.14189     
4.12         0.15248      -0.14994     -0.67008     -0.69807     -0.67008     -0.69807     0.15248      -0.14994     
4.13         0.15354      -0.1581      -0.68518     -0.68117     -0.68518     -0.68117     0.15354      -0.1581      
4.14         0.15428      -0.16634     -0.69981     -0.66394     -0.69981     -0.66394     0.15428      -0.16634     
4.15         0.15468      -0.17466     -0.71397     -0.64641     -0.71397     -0.64641     0.15468      -0.17466     
4.16         0.15475      -0.18303     -0.72764     -0.62858     -0.72764     -0.62858     0.15475      -0.18303     
4.17         0.15448      -0.19146     -0.74083     -0.61047     -0.74083     -0.61047     0.15448      -0.19146     
4.18         0.15387      -0.19992     -0.75352     -0.59209     -0.75352     -0.59209     0.15387      -0.19992     
4.19         0.15293      -0.2084      -0.76572     -0.57347     -0.76572     -0.57347     0.15293      -0.2084      
4.2          0.15165      -0.2169      -0.77741     -0.55461     -0.77741     -0.55461     0.15165      -0.2169      
4.21         0.15003      -0.22539     -0.7886      -0.53553     -0.7886      -0.53553     0.15003      -0.22539     
4.22         0.14808      -0.23387     -0.79929     -0.51625     -0.79929     -0.51625     0.14808      -0.23387     
4.23         0.1458       -0.24232     -0.80947     -0.49678     -0.80947     -0.49678     0.1458       -0.24232     
4.24         0.14318      -0.25073     -0.81913     -0.47713     -0.81913     -0.47713     0.14318      -0.25073     
4.25         0.14024      -0.25909     -0.82829     -0.45732     -0.82829     -0.45732     0.14024      -0.25909     
4.26         0.13697      -0.26739     -0.83693     -0.43737     -0.83693     -0.43737     0.13697      -0.26739     
4.27         0.13337      -0.27561     -0.84506     -0.41728     -0.84506     -0.41728     0.13337      -0.27561     
4.28         0.12946      -0.28375     -0.85268     -0.39708     -0.85268     -0.39708     0.12946      -0.28375     
4.29         0.12523      -0.29179     -0.85978     -0.37677     -0.85978     -0.37677     0.12523      -0.29179     
4.3          0.12069      -0.29972     -0.86637     -0.35638     -0.86637     -0.35638     0.12069      -0.29972     
4.31         0.11584      -0.30754     -0.87245     -0.3359      -0.87245     -0.3359      0.11584      -0.30754     
4.32         0.11069      -0.31523     -0.87802     -0.31537     -0.87802     -0.31537     0.11069      -0.31523     
4.33         0.10525      -0.32277     -0.88309     -0.29479     -0.88309     -0.29479     0.10525      -0.32277     
4.34         0.099511     -0.33017     -0.88765     -0.27417     -0.88765     -0.27417     0.099511     -0.33017     
4.35         0.093492     -0.33742     -0.89171     -0.25353     -0.89171     -0.25353     0.093492     -0.33742     
4.36         0.087196     -0.34449     -0.89527     -0.23288     -0.89527     -0.23288     0.087196     -0.34449     
4.37         0.080628     -0.35139     -0.89833     -0.21223     -0.89833     -0.21223     0.080628     -0.35139     
4.38         0.073795     -0.3581      -0.9009      -0.19159     -0.9009      -0.19159     0.073795     -0.3581      
4.39         0.066705     -0.36462     -0.90299     -0.17098     -0.90299     -0.17098     0.066705     -0.36462     
4.4          0.059364     -0.37094     -0.90459     -0.15041     -0.90459     -0.15041     0.059364     -0.37094     
4.41         0.051781     -0.37705     -0.90571     -0.12989     -0.90571     -0.12989     0.051781     -0.37705     
4.42         0.043963     -0.38294     -0.90635     -0.10943     -0.90635     -0.10943     0.043963     -0.38294     
4.43         0.035917     -0.38861     -0.90653     -0.089047    -0.90653     -0.089047    0.035917     -0.38861     
4.44         0.027653     -0.39405     -0.90624     -0.068741    -0.90624     -0.068741    0.027653     -0.39405     
4.45         0.019177     -0.39925     -0.90549     -0.048528    -0.90549     -0.048528    0.019177     -0.39925     
4.46         0.010498     -0.40421     -0.90429     -0.028419    -0.90429     -0.028419    0.010498     -0.40421     
4.47         0.001625     -0.40892     -0.90263     -0.0084217   -0.90263     -0.0084217   0.001625     -0.40892     
4.48         -0.0074338   -0.41338     -0.90054     0.011453     -0.90054     0.011453     -0.0074338   -0.41338     
4.49         -0.01667     -0.41758     -0.89801     0.031196     -0.89801     0.031196     -0.01667     -0.41758     
4.5          -0.026074    -0.42151     -0.89505     0.050798     -0.89505     0.050798     -0.026074    -0.42151     
4.51         -0.035638    -0.42517     -0.89167     0.07025      -0.89167     0.07025      -0.035638    -0.42517     
4.52         -0.045352    -0.42856     -0.88787     0.089544     -0.88787     0.089544     -0.045352    -0.42856     
4.53         -0.055209    -0.43167     -0.88366     0.10867      -0.88366     0.10867      -0.055209    -0.43167     
4.54         -0.065197    -0.43451     -0.87905     0.12763      -0.87905     0.12763      -0.065197    -0.43451     
4.55         -0.07531     -0.43705     -0.87404     0.1464       -0.87404     0.1464       -0.07531     -0.43705     
4.56         -0.085537    -0.43932     -0.86864     0.16498      -0.86864     0.16498      -0.085537    -0.43932     
4.57         -0.09587     -0.44129     -0.86286     0.18336      -0.86286     0.18336      -0.09587     -0.44129     
4.58         -0.1063      -0.44297     -0.8567      0.20154      -0.8567      0.20154      -0.1063      -0.44297     
4.59         -0.11682     -0.44435     -0.85017     0.21951      -0.85017     0.21951      -0.11682     -0.44435     
4.6          -0.12741     -0.44544     -0.84329     0.23726      -0.84329     0.23726      -0.12741     -0.44544     
4.61         -0.13807     -0.44624     -0.83604     0.25479      -0.83604     0.25479      -0.13807     -0.44624     
4.62         -0.1488      -0.44673     -0.82846     0.27209      -0.82846     0.27209      -0.1488      -0.44673     
4.63         -0.15957     -0.44692     -0.82053     0.28916      -0.82053     0.28916      -0.15957     -0.44692     
4.64         -0.17039     -0.44682     -0.81227     0.30598      -0.81227     0.30598      -0.17039     -0.44682     
4.65         -0.18124     -0.44641     -0.80369     0.32256      -0.80369     0.32256      -0.18124     -0.44641     
4.66         -0.19212     -0.4457      -0.79479     0.33888      -0.79479     0.33888      -0.19212     -0.4457      
4.67         -0.20301     -0.44469     -0.78558     0.35495      -0.78558     0.35495      -0.20301     -0.44469     
4.68         -0.21391     -0.44338     -0.77607     0.37076      -0.77607     0.37076      -0.21391     -0.44338     
4.69         -0.22481     -0.44177     -0.76627     0.3863       -0.76627     0.3863       -0.22481     -0.44177     
4.7          -0.23569     -0.43986     -0.75618     0.40158      -0.75618     0.40158      -0.23569     -0.43986     
4.71         -0.24656     -0.43765     -0.74581     0.41658      -0.74581     0.41658      -0.24656     -0.43765     
4.72         -0.2574      -0.43515     -0.73517     0.4313       -0.73517     0.4313       -0.2574      -0.43515     
4.73         -0.26821     -0.43235     -0.72426     0.44574      -0.72426     0.44574      -0.26821     -0.43235     
4.74         -0.27897     -0.42925     -0.7131      0.4599       -0.7131      0.4599       -0.27897     -0.42925     
4.75         -0.28968     -0.42586     -0.70169     0.47377      -0.70169     0.47377      -0.28968     -0.42586     
4.76         -0.30033     -0.42219     -0.69003     0.48734      -0.69003     0.48734      -0.30033     -0.42219     
4.77         -0.31092     -0.41822     -0.67815     0.50063      -0.67815     0.50063      -0.31092     -0.41822     
4.78         -0.32143     -0.41398     -0.66603     0.51361      -0.66603     0.51361      -0.32143     -0.41398     
4.79         -0.33185     -0.40945     -0.6537      0.5263       -0.6537      0.5263       -0.33185     -0.40945     
4.8          -0.34219     -0.40464     -0.64116     0.53869      -0.64116     0.53869      -0.34219     -0.40464     
4.81         -0.35243     -0.39955     -0.62841     0.55077      -0.62841     0.55077      -0.35243     -0.39955     
4.82         -0.36257     -0.39419     -0.61546     0.56255      -0.61546     0.56255      -0.36257     -0.39419     
4.83         -0.37259     -0.38856     -0.60232     0.57402      -0.60232     0.57402      -0.37259     -0.38856     
4.84         -0.38249     -0.38266     -0.589       0.58518      -0.589       0.58518      -0.38249     -0.38266     
4.85         -0.39227     -0.37651     -0.5755      0.59602      -0.5755      0.59602      -0.39227     -0.37651     
4.86         -0.40192     -0.37009     -0.56184     0.60656      -0.56184     0.60656      -0.40192     -0.37009     
4.87         -0.41143     -0.36342     -0.54801     0.61678      -0.54801     0.61678      -0.41143     -0.36342     
4.88         -0.42079     -0.3565      -0.53403     0.62669      -0.53403     0.62669      -0.42079     -0.3565      
4.89         -0.43        -0.34933     -0.5199      0.63628      -0.5199      0.63628      -0.43        -0.34933     
4.9          -0.43906     -0.34192     -0.50563     0.64555      -0.50563     0.64555      -0.43906     -0.34192     
4.91         -0.44795     -0.33428     -0.49122     0.6545       -0.49122     0.6545       -0.44795     -0.33428     
4.92         -0.45667     -0.3264      -0.47669     0.66314      -0.47669     0.66314      -0.45667     -0.3264      
4.93         -0.46521     -0.31829     -0.46203     0.67145      -0.46203     0.67145      -0.46521     -0.31829     
4.94         -0.47358     -0.30997     -0.44727     0.67945      -0.44727     0.67945      -0.47358     -0.30997     
4.95         -0.48176     -0.30142     -0.43239     0.68713      -0.43239     0.68713      -0.48176     -0.30142     
4.96         -0.48975     -0.29266     -0.41742     0.69448      -0.41742     0.69448      -0.48975     -0.29266     
4.97         -0.49754     -0.2837      -0.40235     0.70152      -0.40235     0.70152      -0.49754     -0.2837      
4.98         -0.50514     -0.27453     -0.38719     0.70824      -0.38719     0.70824      -0.50514     -0.27453     
4.99         -0.51252     -0.26517     -0.37195     0.71463      -0.37195     0.71463      -0.51252     -0.26517     
5            -0.5197      -0.25561     -0.35663     0.72071      -0.35663     0.72071      -0.5197      -0.25561     
5.01         -0.52667     -0.24587     -0.34125     0.72646      -0.34125     0.72646      -0.52667     -0.24587     
5.02         -0.53341     -0.23595     -0.3258      0.7319       -0.3258      0.7319       -0.53341     -0.23595     
5.03         -0.53993     -0.22586     -0.3103      0.73702      -0.3103      0.73702      -0.53993     -0.22586     
5.04         -0.54623     -0.2156      -0.29474     0.74182      -0.29474     0.74182      -0.54623     -0.2156      
5.05         -0.55229     -0.20517     -0.27914     0.7463       -0.27914     0.7463       -0.55229     -0.20517     
5.06         -0.55812     -0.19459     -0.26351     0.75047      -0.26351     0.75047      -0.55812     -0.19459     
5.07         -0.56371     -0.18386     -0.24784     0.75432      -0.24784     0.75432      -0.56371     -0.18386     
5.08         -0.56906     -0.17298     -0.23214     0.75785      -0.23214     0.75785      -0.56906     -0.17298     
5.09         -0.57417     -0.16197     -0.21642     0.76107      -0.21642     0.76107      -0.57417     -0.16197     
5.1          -0.57903     -0.15082     -0.20069     0.76398      -0.20069     0.76398      -0.57903     -0.15082     
5.11         -0.58364     -0.13955     -0.18494     0.76658      -0.18494     0.76658      -0.58364     -0.13955     
5.12         -0.588       -0.12816     -0.1692      0.76887      -0.1692      0.76887      -0.588       -0.12816     
5.13         -0.5921      -0.11665     -0.15345     0.77085      -0.15345     0.77085      -0.5921      -0.11665     
5.14         -0.59595     -0.10504     -0.13771     0.77252      -0.13771     0.77252      -0.59595     -0.10504     
5.15         -0.59954     -0.093323    -0.12198     0.77389      -0.12198     0.77389      -0.59954     -0.093323    
5.16         -0.60286     -0.081514    -0.10627     0.77495      -0.10627     0.77495      -0.60286     -0.081514    
5.17         -0.60592     -0.069617    -0.090582    0.77571      -0.090582    0.77571      -0.60592     -0.069617    
5.18         -0.60872     -0.057638    -0.074922    0.77617      -0.074922    0.77617      -0.60872     -0.057638    
5.19         -0.61125     -0.045583    -0.059294    0.77633      -0.059294    0.77633      -0.61125     -0.045583    
5.2          -0.61351     -0.03346     -0.043705    0.77619      -0.043705    0.77619      -0.61351     -0.03346     
5.21         -0.6155      -0.021273    -0.028159    0.77576      -0.028159    0.77576      -0.6155      -0.021273    
5.22         -0.61722     -0.0090304   -0.012661    0.77503      -0.012661    0.77503      -0.61722     -0.0090304   
5.23         -0.61867     0.0032622    0.0027844    0.77401      0.0027844    0.77401      -0.61867     0.0032622    
5.24         -0.61984     0.015598     0.018172     0.77271      0.018172     0.77271      -0.61984     0.015598     
5.25         -0.62075     0.027971     0.033497     0.77111      0.033497     0.77111      -0.62075     0.027971     
5.26         -0.62138     0.040375     0.048755     0.76923      0.048755     0.76923      -0.62138     0.040375     
5.27         -0.62173     0.052803     0.063942     0.76707      0.063942     0.76707      -0.62173     0.052803     
5.28         -0.62181     0.065249     0.079052     0.76463      0.079052     0.76463      -0.62181     0.065249     
5.29         -0.62162     0.077706     0.094081     0.76191      0.094081     0.76191      -0.62162     0.077706     
5.3          -0.62115     0.090169     0.10903      0.75891      0.10903      0.75891      -0.62115     0.090169     
5.31         -0.62041     0.10263      0.12388      0.75565      0.12388      0.75565      -0.62041     0.10263      
5.32         -0.61939     0.11508      0.13864      0.75211      0.13864      0.75211      -0.61939     0.11508      
5.33         -0.6181      0.12752      0.1533       0.7483       0.1533       0.7483       -0.6181      0.12752      
5.34         -0.61654     0.13994      0.16786      0.74423      0.16786      0.74423      -0.61654     0.13994      
5.35         -0.6147      0.15234      0.18231      0.73989      0.18231      0.73989      -0.6147      0.15234      
5.36         -0.61259     0.1647       0.19666      0.73529      0.19666      0.73529      -0.61259     0.1647       
5.37         -0.61022     0.17702      0.21089      0.73044      0.21089      0.73044      -0.61022     0.17702      
5.38         -0.60757     0.1893       0.22499      0.72533      0.22499      0.72533      -0.60757     0.1893       
5.39         -0.60465     0.20153      0.23898      0.71997      0.23898      0.71997      -0.60465     0.20153      
5.4          -0.60147     0.2137       0.25284      0.71436      0.25284      0.71436      -0.60147     0.2137       
5.41         -0.59803     0.2258       0.26657      0.70851      0.26657      0.70851      -0.59803     0.2258       
5.42         -0.59432     0.23784      0.28017      0.70241      0.28017      0.70241      -0.59432     0.23784      
5.43         -0.59035     0.24981      0.29363      0.69607      0.29363      0.69607      -0.59035     0.24981      
5.44         -0.58611     0.26169      0.30695      0.68949      0.30695      0.68949      -0.58611     0.26169      
5.45         -0.58163     0.27349      0.32012      0.68268      0.32012      0.68268      -0.58163     0.27349      
5.46         -0.57688     0.28519      0.33315      0.67564      0.33315      0.67564      -0.57688     0.28519      
5.47         -0.57188     0.2968       0.34602      0.66837      0.34602      0.66837      -0.57188     0.2968       
5.48         -0.56664     0.3083       0.35874      0.66087      0.35874      0.66087      -0.56664     0.3083       
5.49         -0.56114     0.3197       0.3713       0.65315      0.3713       0.65315      -0.56114     0.3197       
5.5          -0.5554      0.33098      0.3837       0.64522      0.3837       0.64522      -0.5554      0.33098      
5.51         -0.54941     0.34214      0.39594      0.63707      0.39594      0.63707      -0.54941     0.34214      
5.52         -0.54318     0.35317      0.408        0.6287       0.408        0.6287       -0.54318     0.35317      
5.53         -0.53672     0.36408      0.4199       0.62013      0.4199       0.62013      -0.53672     0.36408      
5.54         -0.53002     0.37485      0.43162      0.61135      0.43162      0.61135      -0.53002     0.37485      
5.55         -0.52309     0.38548      0.44317      0.60237      0.44317      0.60237      -0.52309     0.38548      
5.56         -0.51594     0.39596      0.45454      0.59319      0.45454      0.59319      -0.51594     0.39596      
5.57         -0.50856     0.4063       0.46572      0.58381      0.46572      0.58381      -0.50856     0.4063       
5.58         -0.50095     0.41647      0.47672      0.57424      0.47672      0.57424      -0.50095     0.41647      
5.59         -0.49313     0.42649      0.48753      0.56449      0.48753      0.56449      -0.49313     0.42649      
5.6          -0.4851      0.43634      0.49815      0.55454      0.49815      0.55454      -0.4851      0.43634      
5.61         -0.47686     0.44602      0.50858      0.54442      0.50858      0.54442      -0.47686     0.44602      
5.62         -0.46841     0.45553      0.51881      0.53411      0.51881      0.53411      -0.46841     0.45553      
5.63         -0.45976     0.46486      0.52885      0.52363      0.52885      0.52363      -0.45976     0.46486      
5.64         -0.45091     0.474        0.53868      0.51298      0.53868      0.51298      -0.45091     0.474        
5.65         -0.44186     0.48296      0.54831      0.50216      0.54831      0.50216      -0.44186     0.48296      
