!freq-unit  param-type  data-format  keyword  impedance-ohms
# GHZ           S          RI           R         50
!-----------------------------------------------------------------------------
!Freq          ReS11        ImS11        ReS21        ImS21        ReS12        ImS12        ReS22        ImS22
4            0.11551      -0.063409    -0.45524     -0.87038     -0.45524     -0.87038     0.11551      -0.063409    
4.05         0.13609      -0.096349    -0.55185     -0.80608     -0.55185     -0.80608     0.13609      -0.096349    
4.1          0.14937      -0.13394     -0.63849     -0.73084     -0.63849     -0.73084     0.14937      -0.13394     
4.15         0.15468      -0.17466     -0.71397     -0.64641     -0.71397     -0.64641     0.15468      -0.17466     
4.2          0.15165      -0.2169      -0.77741     -0.55461     -0.77741     -0.55461     0.15165      -0.2169      
4.25         0.14024      -0.25909     -0.82829     -0.45732     -0.82829     -0.45732     0.14024      -0.25909     
4.3          0.12069      -0.29972     -0.86637     -0.35638     -0.86637     -0.35638     0.12069      -0.29972     
4.35         0.093492     -0.33742     -0.89171     -0.25353     -0.89171     -0.25353     0.093492     -0.33742     
4.4          0.059364     -0.37094     -0.90459     -0.15041     -0.90459     -0.15041     0.059364     -0.37094     
4.45         0.019177     -0.39925     -0.90549     -0.048528    -0.90549     -0.048528    0.019177     -0.39925     
4.5          -0.026074    -0.42151     -0.89505     0.050798     -0.89505     0.050798     -0.026074    -0.42151     
4.55         -0.07531     -0.43705     -0.87404     0.1464       -0.87404     0.1464       -0.07531     -0.43705     
4.6          -0.12741     -0.44544     -0.84329     0.23726      -0.84329     0.23726      -0.12741     -0.44544     
4.65         -0.18124     -0.44641     -0.80369     0.32256      -0.80369     0.32256      -0.18124     -0.44641     
4.7          -0.23569     -0.43986     -0.75618     0.40158      -0.75618     0.40158      -0.23569     -0.43986     
4.75         -0.28968     -0.42586     -0.70169     0.47377      -0.70169     0.47377      -0.28968     -0.42586     
4.8          -0.34219     -0.40464     -0.64116     0.53869      -0.64116     0.53869      -0.34219     -0.40464     
4.85         -0.39227     -0.37651     -0.5755      0.59602      -0.5755      0.59602      -0.39227     -0.37651     
4.9          -0.43906     -0.34192     -0.50563     0.64555      -0.50563     0.64555      -0.43906     -0.34192     
4.95         -0.48176     -0.30142     -0.43239     0.68713      -0.43239     0.68713      -0.48176     -0.30142     
5            -0.5197      -0.25561     -0.35663     0.72071      -0.35663     0.72071      -0.5197      -0.25561     
5.05         -0.55229     -0.20517     -0.27914     0.7463       -0.27914     0.7463       -0.55229     -0.20517     
5.1          -0.57903     -0.15082     -0.20069     0.76398      -0.20069     0.76398      -0.57903     -0.15082     
5.15         -0.59954     -0.093323    -0.12198     0.77389      -0.12198     0.77389      -0.59954     -0.093323    
5.2          -0.61351     -0.03346     -0.043705    0.77619      -0.043705    0.77619      -0.61351     -0.03346     
5.25         -0.62075     0.027971     0.033497     0.77111      0.033497     0.77111      -0.62075     0.027971     
5.3          -0.62115     0.090169     0.10903      0.75891      0.10903      0.75891      -0.62115     0.090169     
5.35         -0.6147      0.15234      0.18231      0.73989      0.18231      0.73989      -0.6147      0.15234      
5.4          -0.60147     0.2137       0.25284      0.71436      0.25284      0.71436      -0.60147     0.2137       
5.45         -0.58163     0.27349      0.32012      0.68268      0.32012      0.68268      -0.58163     0.27349      
5.5          -0.5554      0.33098      0.3837       0.64522      0.3837       0.64522      -0.5554      0.33098      
5.55         -0.52309     0.38548      0.44317      0.60237      0.44317      0.60237      -0.52309     0.38548      
5.6          -0.4851      0.43634      0.49815      0.55454      0.49815      0.55454      -0.4851      0.43634      
5.65         -0.44186     0.48296      0.54831      0.50216      0.54831      0.50216      -0.44186     0.48296      
5.7          -0.39389     0.52479      0.59333      0.44567      0.59333      0.44567      -0.39389     0.52479      
5.75         -0.34173     0.56134      0.63295      0.38551      0.63295      0.38551      -0.34173     0.56134      
5.8          -0.28599     0.59218      0.66692      0.32214      0.66692      0.32214      -0.28599     0.59218      
5.85         -0.22732     0.61695      0.69502      0.25602      0.69502      0.25602      -0.22732     0.61695      
5.9          -0.16641     0.63536      0.71709      0.18762      0.71709      0.18762      -0.16641     0.63536      
5.95         -0.10395     0.64719      0.73295      0.11741      0.73295      0.11741      -0.10395     0.64719      
6            -0.040688    0.65229      0.74249      0.045872     0.74249      0.045872     -0.040688    0.65229      
6.05         0.022632     0.6506       0.74558      -0.026516    0.74558      -0.026516    0.022632     0.6506       
6.1          0.085252     0.64212      0.74216      -0.099266    0.74216      -0.099266    0.085252     0.64212      
6.15         0.14641      0.62695      0.73214      -0.17188     0.73214      -0.17188     0.14641      0.62695      
6.2          0.20535      0.60525      0.7155       -0.24386     0.7155       -0.24386     0.20535      0.60525      
6.25         0.26132      0.57729      0.6922       -0.31469     0.6922       -0.31469     0.26132      0.57729      
6.3          0.3136       0.54339      0.66225      -0.38384     0.66225      -0.38384     0.3136       0.54339      
6.35         0.36147      0.50399      0.62567      -0.45076     0.62567      -0.45076     0.36147      0.50399      
6.4          0.40429      0.45959      0.5825       -0.51488     0.5825       -0.51488     0.40429      0.45959      
6.45         0.44141      0.4108       0.53282      -0.57562     0.53282      -0.57562     0.44141      0.4108       
6.5          0.47227      0.3583       0.47675      -0.63234     0.47675      -0.63234     0.47227      0.3583       
6.55         0.49638      0.30287      0.41444      -0.6844      0.41444      -0.6844      0.49638      0.30287      
6.6          0.5133       0.24536      0.34612      -0.7311      0.34612      -0.7311      0.5133       0.24536      
6.65         0.52272      0.18671      0.27205      -0.77172     0.27205      -0.77172     0.52272      0.18671      
6.7          0.52443      0.12795      0.19261      -0.8055      0.19261      -0.8055      0.52443      0.12795      
6.75         0.51834      0.070151     0.10824      -0.83166     0.10824      -0.83166     0.51834      0.070151     
6.8          0.50453      0.01446      0.019541     -0.84938     0.019541     -0.84938     0.50453      0.01446      
6.85         0.48326      -0.037951    -0.072784    -0.85785     -0.072784    -0.85785     0.48326      -0.037951    
6.9          0.45497      -0.085896    -0.16786     -0.85629     -0.16786     -0.85629     0.45497      -0.085896    
6.95         0.4203       -0.12821     -0.26464     -0.84393     -0.26464     -0.84393     0.4203       -0.12821     
7            0.38016      -0.1638      -0.36188     -0.82012     -0.36188     -0.82012     0.38016      -0.1638      
7.05         0.33565      -0.19167     -0.45815     -0.78432     -0.45815     -0.78432     0.33565      -0.19167     
7.1          0.28811      -0.21101     -0.55184     -0.73617     -0.55184     -0.73617     0.28811      -0.21101     
7.15         0.23911      -0.22122     -0.64114     -0.67556     -0.64114     -0.67556     0.23911      -0.22122     
7.2          0.19036      -0.222       -0.72414     -0.60267     -0.72414     -0.60267     0.19036      -0.222       
7.25         0.1437       -0.2134      -0.79883     -0.51805     -0.79883     -0.51805     0.1437       -0.2134      
7.3          0.10101      -0.19586     -0.86319     -0.42263     -0.86319     -0.42263     0.10101      -0.19586     
7.35         0.064096     -0.17024     -0.91533     -0.31777     -0.91533     -0.31777     0.064096     -0.17024     
7.4          0.034599     -0.13782     -0.95354     -0.20526     -0.95354     -0.20526     0.034599     -0.13782     
7.45         0.013883     -0.10025     -0.97643     -0.087241    -0.97643     -0.087241    0.013883     -0.10025     
7.5          0.0029265    -0.0595      -0.98302     0.033807     -0.98302     0.033807     0.0029265    -0.0595      
7.55         0.0022415    -0.017749    -0.97284     0.15521      -0.97284     0.15521      0.0022415    -0.017749    
7.6          0.011827     0.022744     -0.94596     0.27422      -0.94596     0.27422      0.011827     0.022744     
7.65         0.031158     0.059775     -0.90301     0.38815      -0.90301     0.38815      0.031158     0.059775     
7.7          0.059218     0.091328     -0.84512     0.49449      -0.84512     0.49449      0.059218     0.091328     
7.75         0.094573     0.1157       -0.77391     0.59108      -0.77391     0.59108      0.094573     0.1157       
7.8          0.13547      0.13156      -0.69131     0.67612      -0.69131     0.67612      0.13547      0.13156      
7.85         0.17997      0.13807      -0.59951     0.74831      -0.59951     0.74831      0.17997      0.13807      
7.9          0.22603      0.13482      -0.50078     0.8068       -0.50078     0.8068       0.22603      0.13482      
7.95         0.27167      0.12184      -0.39741     0.85121      -0.39741     0.85121      0.27167      0.12184      
8            0.31503      0.099584     -0.29158     0.88157      -0.29158     0.88157      0.31503      0.099584     
8.05         0.35446      0.068807     -0.18529     0.89825      -0.18529     0.89825      0.35446      0.068807     
8.1          0.38856      0.030536     -0.080333    0.90189      -0.080333    0.90189      0.38856      0.030536     
8.15         0.41621      -0.014023    0.021761     0.89335      0.021761     0.89335      0.41621      -0.014023    
8.2          0.43657      -0.063554    0.1197       0.87363      0.1197       0.87363      0.43657      -0.063554    
8.25         0.44908      -0.11669     0.21244      0.84378      0.21244      0.84378      0.44908      -0.11669     
8.3          0.45342      -0.17207     0.29916      0.80491      0.29916      0.80491      0.45342      -0.17207     
8.35         0.44952      -0.22838     0.37923      0.75809      0.37923      0.75809      0.44952      -0.22838     
8.4          0.43748      -0.28435     0.45219      0.70439      0.45219      0.70439      0.43748      -0.28435     
8.45         0.41759      -0.33882     0.51773      0.64482      0.51773      0.64482      0.41759      -0.33882     
8.5          0.39028      -0.39076     0.57564      0.58031      0.57564      0.58031      0.39028      -0.39076     
8.55         0.35607      -0.43919     0.62582      0.51175      0.62582      0.51175      0.35607      -0.43919     
8.6          0.31559      -0.48331     0.66823      0.43997      0.66823      0.43997      0.31559      -0.48331     
8.65         0.26955      -0.5224      0.70288      0.36572      0.70288      0.36572      0.26955      -0.5224      
8.7          0.21868      -0.55585     0.72983      0.28972      0.72983      0.28972      0.21868      -0.55585     
8.75         0.16379      -0.58318     0.74917      0.21263      0.74917      0.21263      0.16379      -0.58318     
8.8          0.10569      -0.60401     0.76101      0.13507      0.76101      0.13507      0.10569      -0.60401     
8.85         0.045201     -0.61806     0.76551      0.057635     0.76551      0.057635     0.045201     -0.61806     
8.9          -0.016831    -0.62514     0.76281      -0.019113    0.76281      -0.019113    -0.016831    -0.62514     
8.95         -0.079577    -0.62518     0.75309      -0.09463     0.75309      -0.09463     -0.079577    -0.62518     
9            -0.14221     -0.61817     0.73654      -0.16839     0.73654      -0.16839     -0.14221     -0.61817     
9.05         -0.20394     -0.60422     0.71337      -0.23989     0.71337      -0.23989     -0.20394     -0.60422     
9.1          -0.26397     -0.5835      0.68383      -0.30862     0.68383      -0.30862     -0.26397     -0.5835      
9.15         -0.32156     -0.55627     0.64817      -0.3741      0.64817      -0.3741      -0.32156     -0.55627     
9.2          -0.376       -0.52286     0.60669      -0.43586     0.60669      -0.43586     -0.376       -0.52286     
9.25         -0.42663     -0.48367     0.5597       -0.49342     0.5597       -0.49342     -0.42663     -0.48367     
9.3          -0.47282     -0.43918     0.50755      -0.54635     0.50755      -0.54635     -0.47282     -0.43918     
9.35         -0.51403     -0.38993     0.45063      -0.5942      0.45063      -0.5942      -0.51403     -0.38993     
9.4          -0.54974     -0.33649     0.38936      -0.63657     0.38936      -0.63657     -0.54974     -0.33649     
9.45         -0.57954     -0.27951     0.32421      -0.67306     0.32421      -0.67306     -0.57954     -0.27951     
9.5          -0.60305     -0.21967     0.25567      -0.70332     0.25567      -0.70332     -0.60305     -0.21967     
9.55         -0.62        -0.1577      0.18426      -0.72702     0.18426      -0.72702     -0.62        -0.1577      
9.6          -0.63019     -0.094331    0.11057      -0.74388     0.11057      -0.74388     -0.63019     -0.094331    
9.65         -0.63349     -0.030346    0.035196     -0.75364     0.035196     -0.75364     -0.63349     -0.030346    
9.7          -0.62986     0.033477     -0.041235    -0.75612     -0.041235    -0.75612     -0.62986     0.033477     
9.75         -0.61937     0.096353     -0.11806     -0.75116     -0.11806     -0.75116     -0.61937     0.096353     
9.8          -0.60215     0.1575       -0.1946      -0.73867     -0.1946      -0.73867     -0.60215     0.1575       
9.85         -0.57843     0.21616      -0.27015     -0.71862     -0.27015     -0.71862     -0.57843     0.21616      
9.9          -0.54852     0.27158      -0.34401     -0.69103     -0.34401     -0.69103     -0.54852     0.27158      
9.95         -0.51283     0.32306      -0.41545     -0.656       -0.41545     -0.656       -0.51283     0.32306      
10           -0.47184     0.36993      -0.48374     -0.61368     -0.48374     -0.61368     -0.47184     0.36993      
10.05        -0.42612     0.41158      -0.54816     -0.56427     -0.54816     -0.56427     -0.42612     0.41158      
10.1         -0.37631     0.44745      -0.608       -0.50808     -0.608       -0.50808     -0.37631     0.44745      
10.15        -0.32313     0.47707      -0.66255     -0.44544     -0.66255     -0.44544     -0.32313     0.47707      
10.2         -0.26734     0.50002      -0.71112     -0.37678     -0.71112     -0.37678     -0.26734     0.50002      
10.25        -0.2098      0.516        -0.75303     -0.30258     -0.75303     -0.30258     -0.2098      0.516        
10.3         -0.15138     0.52479      -0.78764     -0.22339     -0.78764     -0.22339     -0.15138     0.52479      
10.35        -0.093033    0.52628      -0.81433     -0.13984     -0.81433     -0.13984     -0.093033    0.52628      
10.4         -0.035713    0.52048      -0.83251     -0.05264     -0.83251     -0.05264     -0.035713    0.52048      
10.45        0.019593     0.50752      -0.84162     0.037445     -0.84162     0.037445     0.019593     0.50752      
10.5         0.07189      0.48768      -0.84117     0.12955      -0.84117     0.12955      0.07189      0.48768      
10.55        0.1202       0.46136      -0.8307      0.22273      -0.8307      0.22273      0.1202       0.46136      
10.6         0.16356      0.42913      -0.80985     0.31595      -0.80985     0.31595      0.16356      0.42913      
10.65        0.20107      0.39172      -0.77832     0.40809      -0.77832     0.40809      0.20107      0.39172      
10.7         0.23192      0.35         -0.73591     0.4979       -0.73591     0.4979       0.23192      0.35         
10.75        0.25538      0.30503      -0.68257     0.58408      -0.68257     0.58408      0.25538      0.30503      
10.8         0.2709       0.258        -0.61838     0.6652       -0.61838     0.6652       0.2709       0.258        
10.85        0.27809      0.21026      -0.54363     0.73979      -0.54363     0.73979      0.27809      0.21026      
10.9         0.27679      0.16326      -0.45882     0.80629      -0.45882     0.80629      0.27679      0.16326      
10.95        0.26709      0.11855      -0.36469     0.86313      -0.36469     0.86313      0.26709      0.11855      
11           0.2494       0.077691     -0.26229     0.90877      -0.26229     0.90877      0.2494       0.077691     
11.05        0.22444      0.042248     -0.15296     0.94173      -0.15296     0.94173      0.22444      0.042248     
11.1         0.19326      0.013666     -0.038375    0.96069      -0.038375    0.96069      0.19326      0.013666     
11.15        0.15728      -0.0067905   0.079505     0.96456      0.079505     0.96456      0.15728      -0.0067905   
11.2         0.11818      -0.018134    0.19842      0.95258      0.19842      0.95258      0.11818      -0.018134    
11.25        0.07792      -0.019737    0.31591      0.92436      0.31591      0.92436      0.07792      -0.019737    
11.3         0.038603     -0.011408    0.42937      0.88001      0.42937      0.88001      0.038603     -0.011408    
11.35        0.0023941    0.006561     0.53617      0.82014      0.53617      0.82014      0.0023941    0.006561     
11.4         -0.028621    0.033375     0.63381      0.74588      0.63381      0.74588      -0.028621    0.033375     
11.45        -0.052564    0.06776      0.72001      0.65887      0.72001      0.65887      -0.052564    0.06776      
11.5         -0.067888    0.10803      0.79286      0.5612       0.79286      0.5612       -0.067888    0.10803      
11.55        -0.07348     0.15217      0.85093      0.45528      0.85093      0.45528      -0.07348     0.15217      
11.6         -0.068724    0.198        0.8933       0.34373      0.8933       0.34373      -0.068724    0.198        
11.65        -0.053526    0.24326      0.91961      0.22923      0.91961      0.22923      -0.053526    0.24326      
11.7         -0.0283      0.28579      0.93004      0.1144       0.93004      0.1144       -0.0283      0.28579      
11.75        0.0060944    0.32362      0.92525      0.0016556    0.92525      0.0016556    0.0060944    0.32362      
11.8         0.04843      0.35509      0.9063       -0.10686     0.9063       -0.10686     0.04843      0.35509      
11.85        0.097212     0.37887      0.87453      -0.20936     0.87453      -0.20936     0.097212     0.37887      
11.9         0.15078      0.39403      0.83149      -0.30442     0.83149      -0.30442     0.15078      0.39403      
11.95        0.20742      0.40001      0.77883      -0.39099     0.77883      -0.39099     0.20742      0.40001      
12           0.2654       0.39661      0.71819      -0.46838     0.71819      -0.46838     0.2654       0.39661      
12.05        0.32312      0.38393      0.65118      -0.53619     0.65118      -0.53619     0.32312      0.38393      
12.1         0.37908      0.36235      0.57928      -0.5943      0.57928      -0.5943      0.37908      0.36235      
12.15        0.43195      0.33245      0.50386      -0.64279     0.50386      -0.64279     0.43195      0.33245      
12.2         0.48059      0.29498      0.42613      -0.68188     0.42613      -0.68188     0.48059      0.29498      
12.25        0.52404      0.2508       0.34715      -0.71193     0.34715      -0.71193     0.52404      0.2508       
