!freq-unit  param-type  data-format  keyword  impedance-ohms
# GHZ           S          RI           R         50
!-----------------------------------------------------------------------------
!Freq          ReS11        ImS11        ReS21        ImS21        ReS12        ImS12        ReS22        ImS22
0.5          -0.19391     -0.12751     0.48498      -0.84076     0.48498      -0.84076     -0.20777     -0.10326     
0.51         -0.19969     -0.12584     0.46708      -0.84972     0.46708      -0.84972     -0.21356     -0.10038     
0.52         -0.20544     -0.12399     0.44904      -0.85828     0.44904      -0.85828     -0.21928     -0.097294    
0.53         -0.21117     -0.12194     0.43085      -0.86644     0.43085      -0.86644     -0.22494     -0.093993    
0.54         -0.21686     -0.11971     0.41252      -0.87421     0.41252      -0.87421     -0.23052     -0.090483    
0.55         -0.2225      -0.11729     0.39408      -0.88157     0.39408      -0.88157     -0.23601     -0.086766    
0.56         -0.2281      -0.11468     0.37552      -0.88853     0.37552      -0.88853     -0.24142     -0.082845    
0.57         -0.23364     -0.11189     0.35685      -0.89509     0.35685      -0.89509     -0.24673     -0.078723    
0.58         -0.23913     -0.10892     0.33809      -0.90125     0.33809      -0.90125     -0.25194     -0.074402    
0.59         -0.24455     -0.10576     0.31924      -0.907       0.31924      -0.907       -0.25704     -0.069888    
0.6          -0.2499      -0.10244     0.30032      -0.91235     0.30032      -0.91235     -0.26202     -0.065183    
0.61         -0.25518     -0.098931    0.28132      -0.9173      0.28132      -0.9173      -0.26688     -0.060291    
0.62         -0.26037     -0.095255    0.26226      -0.92184     0.26226      -0.92184     -0.27162     -0.055216    
0.63         -0.26549     -0.091408    0.24316      -0.92598     0.24316      -0.92598     -0.27622     -0.049963    
0.64         -0.27051     -0.087395    0.22401      -0.92971     0.22401      -0.92971     -0.28068     -0.044536    
0.65         -0.27543     -0.083218    0.20483      -0.93305     0.20483      -0.93305     -0.285       -0.038939    
0.66         -0.28026     -0.078879    0.18562      -0.93598     0.18562      -0.93598     -0.28917     -0.033178    
0.67         -0.28499     -0.074383    0.16639      -0.93851     0.16639      -0.93851     -0.29318     -0.027257    
0.68         -0.2896      -0.069732    0.14716      -0.94064     0.14716      -0.94064     -0.29703     -0.02118     
0.69         -0.2941      -0.06493     0.12793      -0.94238     0.12793      -0.94238     -0.30072     -0.014955    
0.7          -0.29849     -0.059981    0.1087       -0.94372     0.1087       -0.94372     -0.30424     -0.0085846   
0.71         -0.30275     -0.054887    0.08949      -0.94467     0.08949      -0.94467     -0.30759     -0.0020754   
0.72         -0.30689     -0.049653    0.070305     -0.94523     0.070305     -0.94523     -0.31075     0.0045671    
0.73         -0.3109      -0.044283    0.051151     -0.9454      0.051151     -0.9454      -0.31374     0.011337     
0.74         -0.31478     -0.03878     0.032038     -0.94517     0.032038     -0.94517     -0.31654     0.01823      
0.75         -0.31853     -0.033149    0.012972     -0.94457     0.012972     -0.94457     -0.31915     0.025239     
0.76         -0.32213     -0.027393    -0.0060385   -0.94358     -0.0060385   -0.94358     -0.32156     0.032358     
0.77         -0.32559     -0.021517    -0.024987    -0.94222     -0.024987    -0.94222     -0.32378     0.039581     
0.78         -0.3289      -0.015524    -0.043865    -0.94047     -0.043865    -0.94047     -0.3258      0.046903     
0.79         -0.33207     -0.0094196   -0.062666    -0.93835     -0.062666    -0.93835     -0.32762     0.054316     
0.8          -0.33508     -0.0032075   -0.081383    -0.93587     -0.081383    -0.93587     -0.32923     0.061816     
0.81         -0.33794     0.0031077    -0.10001     -0.93301     -0.10001     -0.93301     -0.33064     0.069395     
0.82         -0.34065     0.0095217    -0.11854     -0.92979     -0.11854     -0.92979     -0.33183     0.077047     
0.83         -0.34319     0.01603      -0.13696     -0.92621     -0.13696     -0.92621     -0.33282     0.084767     
0.84         -0.34557     0.022628     -0.15527     -0.92227     -0.15527     -0.92227     -0.33359     0.092546     
0.85         -0.34778     0.029311     -0.17346     -0.91798     -0.17346     -0.91798     -0.33414     0.10038      
0.86         -0.34983     0.036075     -0.19153     -0.91333     -0.19153     -0.91333     -0.33448     0.10826      
0.87         -0.35172     0.042914     -0.20947     -0.90835     -0.20947     -0.90835     -0.3346      0.11618      
0.88         -0.35343     0.049824     -0.22727     -0.90302     -0.22727     -0.90302     -0.3345      0.12414      
0.89         -0.35497     0.056801     -0.24492     -0.89735     -0.24492     -0.89735     -0.33418     0.13213      
0.9          -0.35633     0.06384      -0.26243     -0.89134     -0.26243     -0.89134     -0.33364     0.14014      
0.91         -0.35753     0.070936     -0.27979     -0.88501     -0.27979     -0.88501     -0.33288     0.14816      
0.92         -0.35854     0.078084     -0.29698     -0.87835     -0.29698     -0.87835     -0.33189     0.15619      
0.93         -0.35938     0.085279     -0.31401     -0.87137     -0.31401     -0.87137     -0.33069     0.16422      
0.94         -0.36004     0.092517     -0.33086     -0.86407     -0.33086     -0.86407     -0.32926     0.17225      
0.95         -0.36052     0.099793     -0.34754     -0.85646     -0.34754     -0.85646     -0.32761     0.18027      
0.96         -0.36082     0.1071       -0.36404     -0.84855     -0.36404     -0.84855     -0.32574     0.18828      
0.97         -0.36094     0.11444      -0.38035     -0.84032     -0.38035     -0.84032     -0.32365     0.19625      
0.98         -0.36088     0.1218       -0.39646     -0.8318      -0.39646     -0.8318      -0.32134     0.2042       
0.99         -0.36064     0.12918      -0.41238     -0.82299     -0.41238     -0.82299     -0.31881     0.21212      
1            -0.36022     0.13657      -0.4281      -0.81388     -0.4281      -0.81388     -0.31607     0.21999      
1.01         -0.35961     0.14397      -0.44362     -0.80449     -0.44362     -0.80449     -0.3131      0.22781      
1.02         -0.35882     0.15138      -0.45892     -0.79482     -0.45892     -0.79482     -0.30992     0.23558      
1.03         -0.35786     0.15879      -0.474       -0.78488     -0.474       -0.78488     -0.30653     0.24329      
1.04         -0.35671     0.16619      -0.48887     -0.77466     -0.48887     -0.77466     -0.30293     0.25093      
1.05         -0.35537     0.17358      -0.50352     -0.76418     -0.50352     -0.76418     -0.29912     0.2585       
1.06         -0.35386     0.18096      -0.51793     -0.75344     -0.51793     -0.75344     -0.2951      0.266        
1.07         -0.35217     0.18832      -0.53212     -0.74245     -0.53212     -0.74245     -0.29088     0.2734       
1.08         -0.3503      0.19565      -0.54606     -0.7312      -0.54606     -0.7312      -0.28645     0.28072      
1.09         -0.34825     0.20296      -0.55977     -0.71971     -0.55977     -0.71971     -0.28182     0.28795      
1.1          -0.34602     0.21024      -0.57324     -0.70798     -0.57324     -0.70798     -0.277       0.29507      
1.11         -0.34362     0.21748      -0.58646     -0.69601     -0.58646     -0.69601     -0.27198     0.30209      
1.12         -0.34104     0.22467      -0.59943     -0.68382     -0.59943     -0.68382     -0.26677     0.30899      
1.13         -0.33828     0.23182      -0.61215     -0.67139     -0.61215     -0.67139     -0.26138     0.31578      
1.14         -0.33536     0.23893      -0.62461     -0.65875     -0.62461     -0.65875     -0.25579     0.32245      
1.15         -0.33226     0.24597      -0.63681     -0.6459      -0.63681     -0.6459      -0.25003     0.32899      
1.16         -0.32899     0.25296      -0.64875     -0.63284     -0.64875     -0.63284     -0.24409     0.3354       
1.17         -0.32555     0.25989      -0.66043     -0.61957     -0.66043     -0.61957     -0.23797     0.34168      
1.18         -0.32195     0.26674      -0.67183     -0.6061      -0.67183     -0.6061      -0.23169     0.34781      
1.19         -0.31818     0.27353      -0.68297     -0.59244     -0.68297     -0.59244     -0.22523     0.3538       
1.2          -0.31425     0.28025      -0.69383     -0.57859     -0.69383     -0.57859     -0.21862     0.35964      
1.21         -0.31015     0.28688      -0.70442     -0.56456     -0.70442     -0.56456     -0.21184     0.36532      
1.22         -0.3059      0.29343      -0.71472     -0.55036     -0.71472     -0.55036     -0.20492     0.37085      
1.23         -0.30149     0.29989      -0.72475     -0.53598     -0.72475     -0.53598     -0.19784     0.37621      
1.24         -0.29693     0.30627      -0.73449     -0.52143     -0.73449     -0.52143     -0.19062     0.38141      
1.25         -0.29222     0.31255      -0.74395     -0.50672     -0.74395     -0.50672     -0.18325     0.38643      
1.26         -0.28735     0.31873      -0.75312     -0.49186     -0.75312     -0.49186     -0.17575     0.39129      
1.27         -0.28234     0.32481      -0.76201     -0.47684     -0.76201     -0.47684     -0.16812     0.39596      
1.28         -0.27718     0.33079      -0.7706      -0.46168     -0.7706      -0.46168     -0.16036     0.40046      
1.29         -0.27188     0.33666      -0.77889     -0.44638     -0.77889     -0.44638     -0.15248     0.40477      
1.3          -0.26645     0.34241      -0.7869      -0.43094     -0.7869      -0.43094     -0.14448     0.40889      
1.31         -0.26087     0.34805      -0.7946      -0.41538     -0.7946      -0.41538     -0.13637     0.41282      
1.32         -0.25516     0.35357      -0.80201     -0.39969     -0.80201     -0.39969     -0.12815     0.41656      
1.33         -0.24932     0.35898      -0.80912     -0.38388     -0.80912     -0.38388     -0.11983     0.4201       
1.34         -0.24336     0.36425      -0.81593     -0.36796     -0.81593     -0.36796     -0.11142     0.42345      
1.35         -0.23727     0.3694       -0.82243     -0.35193     -0.82243     -0.35193     -0.10291     0.42659      
1.36         -0.23106     0.37442      -0.82864     -0.33579     -0.82864     -0.33579     -0.094319    0.42953      
1.37         -0.22472     0.37931      -0.83453     -0.31956     -0.83453     -0.31956     -0.085646    0.43227      
1.38         -0.21828     0.38406      -0.84013     -0.30324     -0.84013     -0.30324     -0.076897    0.4348       
1.39         -0.21172     0.38867      -0.84541     -0.28683     -0.84541     -0.28683     -0.068079    0.43711      
1.4          -0.20506     0.39314      -0.85039     -0.27033     -0.85039     -0.27033     -0.059196    0.43922      
1.41         -0.19829     0.39747      -0.85506     -0.25377     -0.85506     -0.25377     -0.050254    0.44111      
1.42         -0.19141     0.40165      -0.85942     -0.23713     -0.85942     -0.23713     -0.041259    0.44279      
1.43         -0.18444     0.40568      -0.86347     -0.22042     -0.86347     -0.22042     -0.032217    0.44425      
1.44         -0.17738     0.40956      -0.86721     -0.20365     -0.86721     -0.20365     -0.023132    0.4455       
1.45         -0.17023     0.41329      -0.87064     -0.18683     -0.87064     -0.18683     -0.014012    0.44653      
1.46         -0.16298     0.41686      -0.87375     -0.16996     -0.87375     -0.16996     -0.0048605   0.44734      
1.47         -0.15566     0.42027      -0.87656     -0.15304     -0.87656     -0.15304     0.0043158    0.44793      
1.48         -0.14825     0.42353      -0.87905     -0.13608     -0.87905     -0.13608     0.013511     0.4483       
1.49         -0.14077     0.42663      -0.88123     -0.11909     -0.88123     -0.11909     0.02272      0.44845      
1.5          -0.13322     0.42956      -0.88309     -0.10207     -0.88309     -0.10207     0.031937     0.44838      
1.51         -0.1256      0.43233      -0.88465     -0.085029    -0.88465     -0.085029    0.041156     0.44809      
1.52         -0.11792     0.43493      -0.88589     -0.067966    -0.88589     -0.067966    0.050372     0.44758      
1.53         -0.11017     0.43737      -0.88681     -0.05089     -0.88681     -0.05089     0.059578     0.44685      
1.54         -0.10237     0.43963      -0.88742     -0.033805    -0.88742     -0.033805    0.06877      0.44589      
1.55         -0.094517    0.44173      -0.88772     -0.016717    -0.88772     -0.016717    0.07794      0.44472      
1.56         -0.086615    0.44366      -0.88771     0.00036896   -0.88771     0.00036896   0.087085     0.44333      
1.57         -0.078669    0.44541      -0.88738     0.017448     -0.88738     0.017448     0.096197     0.44172      
1.58         -0.070683    0.44699      -0.88674     0.034514     -0.88674     0.034514     0.10527      0.43989      
1.59         -0.062661    0.44839      -0.88579     0.051563     -0.88579     0.051563     0.1143       0.43784      
1.6          -0.054607    0.44962      -0.88452     0.06859      -0.88452     0.06859      0.12329      0.43558      
1.61         -0.046525    0.45068      -0.88295     0.085588     -0.88295     0.085588     0.13221      0.4331       
1.62         -0.038419    0.45156      -0.88106     0.10255      -0.88106     0.10255      0.14108      0.43042      
1.63         -0.030294    0.45226      -0.87887     0.11948      -0.87887     0.11948      0.14989      0.42752      
1.64         -0.022154    0.45278      -0.87636     0.13637      -0.87636     0.13637      0.15862      0.42441      
1.65         -0.014002    0.45312      -0.87355     0.1532       -0.87355     0.1532       0.16728      0.42109      
1.66         -0.0058441   0.45329      -0.87042     0.16999      -0.87042     0.16999      0.17585      0.41757      
1.67         0.002317     0.45328      -0.86699     0.18671      -0.86699     0.18671      0.18434      0.41384      
1.68         0.010477     0.45309      -0.86326     0.20337      -0.86326     0.20337      0.19274      0.40991      
1.69         0.01863      0.45272      -0.85922     0.21997      -0.85922     0.21997      0.20104      0.40579      
1.7          0.026774     0.45217      -0.85487     0.23649      -0.85487     0.23649      0.20924      0.40146      
1.71         0.034904     0.45144      -0.85023     0.25293      -0.85023     0.25293      0.21733      0.39695      
1.72         0.043015     0.45054      -0.84528     0.26929      -0.84528     0.26929      0.2253       0.39224      
1.73         0.051104     0.44946      -0.84003     0.28556      -0.84003     0.28556      0.23317      0.38735      
1.74         0.059165     0.4482       -0.83448     0.30173      -0.83448     0.30173      0.2409       0.38227      
1.75         0.067196     0.44677      -0.82863     0.31781      -0.82863     0.31781      0.24852      0.377        
1.76         0.075192     0.44516      -0.82248     0.33379      -0.82248     0.33379      0.256        0.37156      
1.77         0.083148     0.44337      -0.81605     0.34965      -0.81605     0.34965      0.26334      0.36595      
1.78         0.09106      0.44141      -0.80931     0.36541      -0.80931     0.36541      0.27055      0.36016      
1.79         0.098925     0.43928      -0.80229     0.38104      -0.80229     0.38104      0.27761      0.3542       
1.8          0.10674      0.43697      -0.79498     0.39655      -0.79498     0.39655      0.28452      0.34808      
1.81         0.11449      0.4345       -0.78737     0.41194      -0.78737     0.41194      0.29128      0.3418       
1.82         0.12219      0.43185      -0.77948     0.42719      -0.77948     0.42719      0.29787      0.33537      
1.83         0.12982      0.42904      -0.77131     0.4423       -0.77131     0.4423       0.30431      0.32878      
1.84         0.13739      0.42606      -0.76285     0.45727      -0.76285     0.45727      0.31058      0.32204      
1.85         0.14488      0.42291      -0.75412     0.47209      -0.75412     0.47209      0.31669      0.31516      
1.86         0.15229      0.4196       -0.7451      0.48676      -0.7451      0.48676      0.32262      0.30814      
1.87         0.15963      0.41613      -0.73581     0.50127      -0.73581     0.50127      0.32837      0.30099      
1.88         0.16688      0.4125       -0.72625     0.51562      -0.72625     0.51562      0.33394      0.29371      
1.89         0.17404      0.40871      -0.71641     0.5298       -0.71641     0.5298       0.33933      0.2863       
1.9          0.18111      0.40477      -0.7063      0.54382      -0.7063      0.54382      0.34453      0.27877      
1.91         0.18809      0.40067      -0.69593     0.55765      -0.69593     0.55765      0.34954      0.27112      
1.92         0.19496      0.39642      -0.68529     0.5713       -0.68529     0.5713       0.35436      0.26336      
1.93         0.20174      0.39202      -0.67439     0.58477      -0.67439     0.58477      0.35898      0.2555       
1.94         0.2084       0.38747      -0.66323     0.59804      -0.66323     0.59804      0.36341      0.24754      
1.95         0.21496      0.38278      -0.65181     0.61112      -0.65181     0.61112      0.36763      0.23948      
1.96         0.2214       0.37795      -0.64014     0.624        -0.64014     0.624        0.37164      0.23133      
1.97         0.22772      0.37297      -0.62822     0.63668      -0.62822     0.63668      0.37545      0.2231       
1.98         0.23392      0.36786      -0.61605     0.64914      -0.61605     0.64914      0.37906      0.21479      
1.99         0.23999      0.36262      -0.60364     0.66139      -0.60364     0.66139      0.38245      0.20641      
2            0.24594      0.35725      -0.59099     0.67342      -0.59099     0.67342      0.38563      0.19795      
2.01         0.25176      0.35175      -0.57809     0.68523      -0.57809     0.68523      0.38859      0.18944      
2.02         0.25744      0.34613      -0.56496     0.69681      -0.56496     0.69681      0.39134      0.18086      
2.03         0.26298      0.34038      -0.5516      0.70816      -0.5516      0.70816      0.39387      0.17224      
2.04         0.26839      0.33452      -0.53801     0.71926      -0.53801     0.71926      0.39618      0.16357      
2.05         0.27364      0.32854      -0.5242      0.73013      -0.5242      0.73013      0.39827      0.15487      
2.06         0.27875      0.32245      -0.51016     0.74075      -0.51016     0.74075      0.40014      0.14613      
2.07         0.28372      0.31626      -0.49591     0.75112      -0.49591     0.75112      0.40178      0.13736      
2.08         0.28852      0.30996      -0.48144     0.76123      -0.48144     0.76123      0.4032       0.12857      
2.09         0.29318      0.30356      -0.46676     0.77109      -0.46676     0.77109      0.4044       0.11977      
2.1          0.29767      0.29707      -0.45188     0.78067      -0.45188     0.78067      0.40538      0.11096      
2.11         0.30201      0.29048      -0.4368      0.78999      -0.4368      0.78999      0.40613      0.10214      
2.12         0.30618      0.28381      -0.42151     0.79904      -0.42151     0.79904      0.40665      0.093328     
2.13         0.31018      0.27705      -0.40604     0.80781      -0.40604     0.80781      0.40695      0.084525     
2.14         0.31402      0.27021      -0.39037     0.8163       -0.39037     0.8163       0.40703      0.075738     
2.15         0.31768      0.26329      -0.37452     0.8245       -0.37452     0.8245       0.40688      0.066972     
