!freq-unit  param-type  data-format  keyword  impedance-ohms
# GHZ           S          RI           R         50
!-----------------------------------------------------------------------------
!Freq          ReS11        ImS11        ReS21        ImS21        ReS12        ImS12        ReS22        ImS22
0.5          -0.23236     0.0067026    0.11897      -0.96233     0.11897      -0.96233     -0.22409     -0.062352    
0.51         -0.23593     0.014303     0.091293     -0.96437     0.091293     -0.96437     -0.2294      -0.057569    
0.52         -0.2392      0.022129     0.063608     -0.9656      0.063608     -0.9656      -0.23456     -0.052554    
0.53         -0.24218     0.030169     0.035944     -0.96604     0.035944     -0.96604     -0.23958     -0.04731     
0.54         -0.24485     0.038411     0.0083237    -0.96567     0.0083237    -0.96567     -0.24445     -0.041843    
0.55         -0.2472      0.046842     -0.01923     -0.96451     -0.01923     -0.96451     -0.24915     -0.036158    
0.56         -0.24922     0.055447     -0.046693    -0.96256     -0.046693    -0.96256     -0.25369     -0.030262    
0.57         -0.25091     0.064215     -0.074043    -0.95982     -0.074043    -0.95982     -0.25804     -0.024161    
0.58         -0.25225     0.07313      -0.10126     -0.95631     -0.10126     -0.95631     -0.26221     -0.017861    
0.59         -0.25325     0.082178     -0.12832     -0.95202     -0.12832     -0.95202     -0.26619     -0.011369    
0.6          -0.25389     0.091346     -0.1552      -0.94697     -0.1552      -0.94697     -0.26997     -0.0046917   
0.61         -0.25416     0.10062      -0.18187     -0.94115     -0.18187     -0.94115     -0.27354     0.0021637    
0.62         -0.25407     0.10998      -0.20833     -0.93459     -0.20833     -0.93459     -0.2769      0.0091899    
0.63         -0.25361     0.11941      -0.23454     -0.92729     -0.23454     -0.92729     -0.28004     0.016379     
0.64         -0.25277     0.1289       -0.26049     -0.91925     -0.26049     -0.91925     -0.28295     0.023724     
0.65         -0.25155     0.13844      -0.28616     -0.91049     -0.28616     -0.91049     -0.28564     0.031216     
0.66         -0.24994     0.148        -0.31152     -0.90102     -0.31152     -0.90102     -0.28809     0.038848     
0.67         -0.24796     0.15757      -0.33656     -0.89085     -0.33656     -0.89085     -0.29029     0.046612     
0.68         -0.24559     0.16714      -0.36126     -0.87999     -0.36126     -0.87999     -0.29226     0.054498     
0.69         -0.24283     0.17669      -0.3856      -0.86846     -0.3856      -0.86846     -0.29397     0.062498     
0.7          -0.23968     0.18621      -0.40956     -0.85625     -0.40956     -0.85625     -0.29543     0.070605     
0.71         -0.23615     0.19567      -0.43312     -0.8434      -0.43312     -0.8434      -0.29663     0.078808     
0.72         -0.23224     0.20506      -0.45627     -0.82991     -0.45627     -0.82991     -0.29757     0.0871       
0.73         -0.22794     0.21437      -0.47899     -0.81579     -0.47899     -0.81579     -0.29825     0.095471     
0.74         -0.22326     0.22358      -0.50127     -0.80106     -0.50127     -0.80106     -0.29866     0.10391      
0.75         -0.2182      0.23268      -0.52308     -0.78573     -0.52308     -0.78573     -0.2988      0.11242      
0.76         -0.21278     0.24165      -0.54441     -0.76982     -0.54441     -0.76982     -0.29867     0.12097      
0.77         -0.20698     0.25047      -0.56526     -0.75335     -0.56526     -0.75335     -0.29826     0.12957      
0.78         -0.20082     0.25913      -0.58559     -0.73632     -0.58559     -0.73632     -0.29758     0.1382       
0.79         -0.1943      0.26762      -0.60541     -0.71876     -0.60541     -0.71876     -0.29663     0.14686      
0.8          -0.18743     0.27592      -0.62469     -0.70068     -0.62469     -0.70068     -0.2954      0.15553      
0.81         -0.18021     0.28401      -0.64343     -0.6821      -0.64343     -0.6821      -0.29388     0.16421      
0.82         -0.17266     0.29189      -0.66161     -0.66303     -0.66161     -0.66303     -0.2921      0.17289      
0.83         -0.16477     0.29954      -0.67921     -0.6435      -0.67921     -0.6435      -0.29003     0.18155      
0.84         -0.15657     0.30694      -0.69624     -0.62351     -0.69624     -0.62351     -0.28768     0.1902       
0.85         -0.14805     0.31409      -0.71267     -0.60309     -0.71267     -0.60309     -0.28506     0.19881      
0.86         -0.13922     0.32097      -0.7285      -0.58225     -0.7285      -0.58225     -0.28216     0.20739      
0.87         -0.13011     0.32756      -0.74371     -0.56101     -0.74371     -0.56101     -0.27898     0.21591      
0.88         -0.12071     0.33386      -0.75831     -0.5394      -0.75831     -0.5394      -0.27553     0.22438      
0.89         -0.11103     0.33986      -0.77227     -0.51742     -0.77227     -0.51742     -0.27181     0.23278      
0.9          -0.1011      0.34554      -0.7856      -0.4951      -0.7856      -0.4951      -0.26782     0.24111      
0.91         -0.090914    0.3509       -0.79828     -0.47245     -0.79828     -0.47245     -0.26356     0.24935      
0.92         -0.080491    0.35592      -0.81031     -0.4495      -0.81031     -0.4495      -0.25903     0.25751      
0.93         -0.069843    0.36059      -0.82168     -0.42626     -0.82168     -0.42626     -0.25424     0.26556      
0.94         -0.058982    0.36491      -0.83238     -0.40275     -0.83238     -0.40275     -0.24919     0.2735       
0.95         -0.047921    0.36886      -0.84241     -0.37899     -0.84241     -0.37899     -0.24388     0.28132      
0.96         -0.036674    0.37244      -0.85177     -0.355       -0.85177     -0.355       -0.23832     0.28902      
0.97         -0.025254    0.37565      -0.86044     -0.3308      -0.86044     -0.3308      -0.23252     0.29658      
0.98         -0.013675    0.37847      -0.86844     -0.3064      -0.86844     -0.3064      -0.22646     0.304        
0.99         -0.0019509   0.38089      -0.87574     -0.28184     -0.87574     -0.28184     -0.22017     0.31127      
1            0.0099032    0.38292      -0.88236     -0.25712     -0.88236     -0.25712     -0.21364     0.31839      
1.01         0.021873     0.38454      -0.88828     -0.23226     -0.88828     -0.23226     -0.20687     0.32534      
1.02         0.033944     0.38575      -0.89351     -0.20729     -0.89351     -0.20729     -0.19989     0.33212      
1.03         0.0461       0.38655      -0.89804     -0.18222     -0.89804     -0.18222     -0.19268     0.33871      
1.04         0.058328     0.38693      -0.90188     -0.15707     -0.90188     -0.15707     -0.18525     0.34513      
1.05         0.070611     0.3869       -0.90502     -0.13186     -0.90502     -0.13186     -0.17761     0.35134      
1.06         0.082935     0.38644      -0.90747     -0.10661     -0.90747     -0.10661     -0.16977     0.35736      
1.07         0.095283     0.38555      -0.90922     -0.081346    -0.90922     -0.081346    -0.16173     0.36318      
1.08         0.10764      0.38425      -0.91027     -0.056074    -0.91027     -0.056074    -0.1535      0.36878      
1.09         0.11999      0.38251      -0.91064     -0.030819    -0.91064     -0.030819    -0.14509     0.37416      
1.1          0.13232      0.38035      -0.91031     -0.0055976   -0.91031     -0.0055976   -0.13649     0.37932      
1.11         0.14461      0.37776      -0.9093      0.019571     -0.9093      0.019571     -0.12772     0.38425      
1.12         0.15686      0.37474      -0.9076      0.044669     -0.9076      0.044669     -0.11879     0.38894      
1.13         0.16903      0.3713       -0.90523     0.069678     -0.90523     0.069678     -0.1097      0.39339      
1.14         0.18112      0.36744      -0.90217     0.094579     -0.90217     0.094579     -0.10045     0.3976       
1.15         0.19311      0.36316      -0.89845     0.11936      -0.89845     0.11936      -0.091063    0.40155      
1.16         0.20498      0.35846      -0.89405     0.14399      -0.89405     0.14399      -0.081539    0.40526      
1.17         0.21673      0.35335      -0.889       0.16847      -0.889       0.16847      -0.071886    0.4087       
1.18         0.22833      0.34783      -0.88329     0.19277      -0.88329     0.19277      -0.062112    0.41188      
1.19         0.23978      0.34191      -0.87693     0.21687      -0.87693     0.21687      -0.052224    0.41479      
1.2          0.25105      0.33559      -0.86992     0.24077      -0.86992     0.24077      -0.042231    0.41743      
1.21         0.26213      0.32888      -0.86228     0.26444      -0.86228     0.26444      -0.032141    0.4198       
1.22         0.27302      0.32178      -0.85401     0.28786      -0.85401     0.28786      -0.021962    0.42189      
1.23         0.28369      0.3143       -0.84512     0.31103      -0.84512     0.31103      -0.011703    0.4237       
1.24         0.29412      0.30645      -0.83562     0.33392      -0.83562     0.33392      -0.0013706   0.42523      
1.25         0.30432      0.29824      -0.82551     0.35652      -0.82551     0.35652      0.0090256    0.42648      
1.26         0.31426      0.28967      -0.81481     0.37882      -0.81481     0.37882      0.019477     0.42744      
1.27         0.32394      0.28075      -0.80352     0.4008       -0.80352     0.4008       0.029976     0.42811      
1.28         0.33333      0.2715       -0.79166     0.42244      -0.79166     0.42244      0.040513     0.42849      
1.29         0.34243      0.26191      -0.77923     0.44373      -0.77923     0.44373      0.051081     0.42857      
1.3          0.35123      0.25201      -0.76624     0.46466      -0.76624     0.46466      0.061669     0.42837      
1.31         0.35971      0.24181      -0.7527      0.48521      -0.7527      0.48521      0.07227      0.42787      
1.32         0.36786      0.2313       -0.73864     0.50537      -0.73864     0.50537      0.082874     0.42708      
1.33         0.37568      0.22051      -0.72404     0.52512      -0.72404     0.52512      0.093474     0.42599      
1.34         0.38315      0.20945      -0.70894     0.54446      -0.70894     0.54446      0.10406      0.42461      
1.35         0.39027      0.19813      -0.69333     0.56337      -0.69333     0.56337      0.11462      0.42294      
1.36         0.39702      0.18655      -0.67724     0.58184      -0.67724     0.58184      0.12516      0.42097      
1.37         0.40339      0.17474      -0.66067     0.59985      -0.66067     0.59985      0.13565      0.41871      
1.38         0.40938      0.16271      -0.64364     0.6174       -0.64364     0.6174       0.14609      0.41616      
1.39         0.41498      0.15047      -0.62615     0.63447      -0.62615     0.63447      0.15648      0.41332      
1.4          0.42018      0.13803      -0.60823     0.65105      -0.60823     0.65105      0.1668       0.41018      
1.41         0.42498      0.12541      -0.58988     0.66714      -0.58988     0.66714      0.17705      0.40677      
1.42         0.42936      0.11262      -0.57113     0.68272      -0.57113     0.68272      0.18721      0.40306      
1.43         0.43333      0.099669     -0.55197     0.69778      -0.55197     0.69778      0.19729      0.39908      
1.44         0.43687      0.086583     -0.53243     0.71232      -0.53243     0.71232      0.20726      0.39481      
1.45         0.43998      0.073371     -0.51253     0.72631      -0.51253     0.72631      0.21713      0.39027      
1.46         0.44266      0.060049     -0.49226     0.73977      -0.49226     0.73977      0.22688      0.38546      
1.47         0.44491      0.04663      -0.47166     0.75267      -0.47166     0.75267      0.2365       0.38037      
1.48         0.44671      0.033131     -0.45073     0.76501      -0.45073     0.76501      0.246        0.37502      
1.49         0.44808      0.019567     -0.42949     0.77677      -0.42949     0.77677      0.25535      0.3694       
1.5          0.44899      0.005952     -0.40795     0.78797      -0.40795     0.78797      0.26456      0.36352      
1.51         0.44947      -0.0076976   -0.38613     0.79858      -0.38613     0.79858      0.27361      0.35739      
1.52         0.44949      -0.021367    -0.36405     0.80859      -0.36405     0.80859      0.2825       0.35101      
1.53         0.44906      -0.03504     -0.34172     0.81802      -0.34172     0.81802      0.29121      0.34438      
1.54         0.44819      -0.048702    -0.31915     0.82684      -0.31915     0.82684      0.29975      0.33751      
1.55         0.44686      -0.062336    -0.29636     0.83505      -0.29636     0.83505      0.30811      0.33041      
1.56         0.44509      -0.075929    -0.27336     0.84265      -0.27336     0.84265      0.31627      0.32307      
1.57         0.44288      -0.089464    -0.25018     0.84964      -0.25018     0.84964      0.32423      0.31551      
1.58         0.44022      -0.10293     -0.22683     0.856        -0.22683     0.856        0.33199      0.30773      
1.59         0.43711      -0.1163      -0.20332     0.86174      -0.20332     0.86174      0.33954      0.29974      
1.6          0.43357      -0.12957     -0.17967     0.86685      -0.17967     0.86685      0.34686      0.29154      
1.61         0.4296       -0.14272     -0.15589     0.87132      -0.15589     0.87132      0.35397      0.28314      
1.62         0.42519      -0.15574     -0.13201     0.87517      -0.13201     0.87517      0.36084      0.27455      
1.63         0.42036      -0.16861     -0.10803     0.87837      -0.10803     0.87837      0.36748      0.26577      
1.64         0.41511      -0.18131     -0.083981    0.88094      -0.083981    0.88094      0.37388      0.25681      
1.65         0.40944      -0.19384     -0.05987     0.88286      -0.05987     0.88286      0.38003      0.24768      
1.66         0.40337      -0.20618     -0.035717    0.88414      -0.035717    0.88414      0.38592      0.23838      
1.67         0.39689      -0.21831     -0.011536    0.88478      -0.011536    0.88478      0.39157      0.22893      
1.68         0.39001      -0.23022     0.012655     0.88478      0.012655     0.88478      0.39695      0.21932      
1.69         0.38275      -0.2419      0.03684      0.88413      0.03684      0.88413      0.40206      0.20957      
1.7          0.37511      -0.25333     0.061004     0.88284      0.061004     0.88284      0.4069       0.19969      
1.71         0.3671       -0.2645      0.085129     0.8809       0.085129     0.8809       0.41147      0.18968      
1.72         0.35873      -0.2754      0.1092       0.87832      0.1092       0.87832      0.41577      0.17955      
1.73         0.35001      -0.28602     0.1332       0.87511      0.1332       0.87511      0.41978      0.16931      
1.74         0.34094      -0.29633     0.15711      0.87125      0.15711      0.87125      0.4235       0.15896      
1.75         0.33155      -0.30635     0.18092      0.86676      0.18092      0.86676      0.42694      0.14853      
1.76         0.32183      -0.31604     0.20461      0.86163      0.20461      0.86163      0.43009      0.138        
1.77         0.3118       -0.3254      0.22816      0.85587      0.22816      0.85587      0.43295      0.1274       
1.78         0.30148      -0.33442     0.25156      0.84948      0.25156      0.84948      0.43551      0.11674      
1.79         0.29087      -0.34308     0.2748       0.84247      0.2748       0.84247      0.43777      0.10601      
1.8          0.27998      -0.35139     0.29785      0.83483      0.29785      0.83483      0.43974      0.095237     
1.81         0.26884      -0.35933     0.3207       0.82659      0.3207       0.82659      0.44141      0.08442      
1.82         0.25744      -0.36689     0.34333      0.81772      0.34333      0.81772      0.44277      0.073571     
1.83         0.24581      -0.37406     0.36574      0.80826      0.36574      0.80826      0.44384      0.062698     
1.84         0.23396      -0.38083     0.38789      0.79819      0.38789      0.79819      0.4446       0.051811     
1.85         0.22191      -0.3872      0.40979      0.78752      0.40979      0.78752      0.44506      0.040918     
1.86         0.20966      -0.39316     0.43141      0.77627      0.43141      0.77627      0.44521      0.03003      
1.87         0.19723      -0.39871     0.45273      0.76443      0.45273      0.76443      0.44507      0.019154     
1.88         0.18464      -0.40383     0.47375      0.75202      0.47375      0.75202      0.44462      0.0083007    
1.89         0.1719       -0.40852     0.49444      0.73904      0.49444      0.73904      0.44387      -0.0025218   
1.9          0.15902      -0.41278     0.5148       0.7255       0.5148       0.7255       0.44282      -0.013304    
1.91         0.14603      -0.41661     0.5348       0.71141      0.5348       0.71141      0.44147      -0.024037    
1.92         0.13294      -0.41999     0.55443      0.69677      0.55443      0.69677      0.43982      -0.034712    
1.93         0.11975      -0.42293     0.57369      0.68159      0.57369      0.68159      0.43788      -0.04532     
1.94         0.1065       -0.42542     0.59254      0.66589      0.59254      0.66589      0.43565      -0.055852    
1.95         0.093187     -0.42746     0.61099      0.64967      0.61099      0.64967      0.43313      -0.066299    
1.96         0.079836     -0.42906     0.62902      0.63295      0.62902      0.63295      0.43032      -0.076653    
1.97         0.066462     -0.43019     0.6466       0.61573      0.6466       0.61573      0.42722      -0.086904    
1.98         0.05308      -0.43088     0.66374      0.59802      0.66374      0.59802      0.42385      -0.097045    
1.99         0.039706     -0.43112     0.68041      0.57983      0.68041      0.57983      0.42019      -0.10707     
2            0.026356     -0.4309      0.6966       0.56118      0.6966       0.56118      0.41627      -0.11696     
2.01         0.013047     -0.43024     0.7123       0.54208      0.7123       0.54208      0.41207      -0.12672     
2.02         -0.00020556  -0.42912     0.7275       0.52254      0.7275       0.52254      0.40761      -0.13633     
2.03         -0.013386    -0.42756     0.74219      0.50256      0.74219      0.50256      0.40289      -0.14579     
2.04         -0.026478    -0.42556     0.75634      0.48217      0.75634      0.48217      0.39791      -0.15509     
2.05         -0.039465    -0.42312     0.76996      0.46138      0.76996      0.46138      0.39268      -0.16423     
2.06         -0.052333    -0.42024     0.78303      0.4402       0.78303      0.4402       0.38721      -0.17318     
2.07         -0.065065    -0.41694     0.79553      0.41864      0.79553      0.41864      0.3815       -0.18196     
2.08         -0.077647    -0.41321     0.80746      0.39672      0.80746      0.39672      0.37555      -0.19055     
2.09         -0.090063    -0.40906     0.81881      0.37445      0.81881      0.37445      0.36938      -0.19893     
2.1          -0.1023      -0.4045      0.82956      0.35184      0.82956      0.35184      0.36299      -0.20712     
2.11         -0.11434     -0.39954     0.8397       0.32892      0.8397       0.32892      0.35638      -0.21509     
2.12         -0.12617     -0.39417     0.84924      0.3057       0.84924      0.3057       0.34957      -0.22285     
2.13         -0.13777     -0.38842     0.85814      0.28218      0.85814      0.28218      0.34256      -0.23039     
2.14         -0.14914     -0.38229     0.86642      0.2584       0.86642      0.2584       0.33535      -0.23769     
2.15         -0.16025     -0.3758      0.87405      0.23436      0.87405      0.23436      0.32796      -0.24476     
