!freq-unit  param-type  data-format  keyword  impedance-ohms
# GHZ           S          RI           R         50
!-----------------------------------------------------------------------------
!Freq          ReS11        ImS11        ReS21        ImS21        ReS12        ImS12        ReS22        ImS22
0.5          -0.33851     -0.11412     0.23139      -0.90217     0.23139      -0.90217     -0.35175     -0.061678    
0.51         -0.34639     -0.10767     0.20797      -0.90564     0.20797      -0.90564     -0.35873     -0.053013    
0.52         -0.35407     -0.10092     0.18457      -0.90849     0.18457      -0.90849     -0.36541     -0.044025    
0.53         -0.36155     -0.093854    0.16121      -0.91072     0.16121      -0.91072     -0.37179     -0.034728    
0.54         -0.36881     -0.086495    0.1379       -0.91233     0.1379       -0.91233     -0.37785     -0.025134    
0.55         -0.37584     -0.078849    0.11465      -0.91335     0.11465      -0.91335     -0.38359     -0.015256    
0.56         -0.38264     -0.070925    0.091486     -0.91377     0.091486     -0.91377     -0.38899     -0.0051078   
0.57         -0.38919     -0.062732    0.068418     -0.91359     0.068418     -0.91359     -0.39404     0.0052968    
0.58         -0.39549     -0.05428     0.045461     -0.91283     0.045461     -0.91283     -0.39874     0.015944     
0.59         -0.40153     -0.045579    0.02263      -0.9115      0.02263      -0.9115      -0.40307     0.026819     
0.6          -0.40729     -0.036638    -6.0296e-05  -0.9096      -6.0296e-05  -0.9096      -0.40703     0.037908     
0.61         -0.41279     -0.02747     -0.022598    -0.90714     -0.022598    -0.90714     -0.41062     0.049197     
0.62         -0.418       -0.018082    -0.044969    -0.90413     -0.044969    -0.90413     -0.41381     0.060669     
0.63         -0.42291     -0.0084876   -0.067162    -0.90057     -0.067162    -0.90057     -0.41662     0.072312     
0.64         -0.42754     0.0013042    -0.089163    -0.89649     -0.089163    -0.89649     -0.41903     0.084109     
0.65         -0.43186     0.011282     -0.11096     -0.89188     -0.11096     -0.89188     -0.42103     0.096045     
0.66         -0.43588     0.021436     -0.13255     -0.88675     -0.13255     -0.88675     -0.42263     0.10811      
0.67         -0.43958     0.031753     -0.15391     -0.88113     -0.15391     -0.88113     -0.42383     0.12028      
0.68         -0.44297     0.042225     -0.17503     -0.875       -0.17503     -0.875       -0.42461     0.13254      
0.69         -0.44604     0.052838     -0.19591     -0.86839     -0.19591     -0.86839     -0.42497     0.14489      
0.7          -0.44879     0.063584     -0.21653     -0.8613      -0.21653     -0.8613      -0.42492     0.15729      
0.71         -0.45122     0.074449     -0.23689     -0.85375     -0.23689     -0.85375     -0.42445     0.16975      
0.72         -0.45331     0.085424     -0.25698     -0.84575     -0.25698     -0.84575     -0.42357     0.18224      
0.73         -0.45508     0.096498     -0.27678     -0.83729     -0.27678     -0.83729     -0.42226     0.19475      
0.74         -0.45651     0.10766      -0.29629     -0.82841     -0.29629     -0.82841     -0.42054     0.20727      
0.75         -0.45761     0.1189       -0.3155      -0.8191      -0.3155      -0.8191      -0.4184      0.21977      
0.76         -0.45837     0.1302       -0.33441     -0.80937     -0.33441     -0.80937     -0.41585     0.23225      
0.77         -0.45879     0.14156      -0.35301     -0.79924     -0.35301     -0.79924     -0.41288     0.24469      
0.78         -0.45888     0.15296      -0.37128     -0.78871     -0.37128     -0.78871     -0.40949     0.25708      
0.79         -0.45864     0.16439      -0.38923     -0.7778      -0.38923     -0.7778      -0.4057      0.26941      
0.8          -0.45805     0.17585      -0.40685     -0.76652     -0.40685     -0.76652     -0.40151     0.28165      
0.81         -0.45713     0.18732      -0.42412     -0.75488     -0.42412     -0.75488     -0.39691     0.29379      
0.82         -0.45587     0.19879      -0.44106     -0.74288     -0.44106     -0.74288     -0.39191     0.30583      
0.83         -0.45428     0.21026      -0.45764     -0.73054     -0.45764     -0.73054     -0.38652     0.31775      
0.84         -0.45236     0.2217       -0.47387     -0.71787     -0.47387     -0.71787     -0.38074     0.32954      
0.85         -0.4501      0.23312      -0.48975     -0.70487     -0.48975     -0.70487     -0.37458     0.34118      
0.86         -0.44752     0.2445       -0.50525     -0.69157     -0.50525     -0.69157     -0.36804     0.35266      
0.87         -0.4446      0.25583      -0.5204      -0.67796     -0.5204      -0.67796     -0.36113     0.36397      
0.88         -0.44136     0.2671       -0.53517     -0.66407     -0.53517     -0.66407     -0.35385     0.3751       
0.89         -0.4378      0.27831      -0.54956     -0.64989     -0.54956     -0.64989     -0.34621     0.38603      
0.9          -0.43392     0.28944      -0.56358     -0.63543     -0.56358     -0.63543     -0.33822     0.39676      
0.91         -0.42973     0.30048      -0.57722     -0.62072     -0.57722     -0.62072     -0.32989     0.40728      
0.92         -0.42522     0.31143      -0.59047     -0.60576     -0.59047     -0.60576     -0.32122     0.41756      
0.93         -0.4204      0.32228      -0.60333     -0.59055     -0.60333     -0.59055     -0.31222     0.42761      
0.94         -0.41527     0.33301      -0.61581     -0.57511     -0.61581     -0.57511     -0.3029      0.43742      
0.95         -0.40985     0.34362      -0.62789     -0.55945     -0.62789     -0.55945     -0.29327     0.44696      
0.96         -0.40413     0.35411      -0.63959     -0.54358     -0.63959     -0.54358     -0.28334     0.45624      
0.97         -0.39811     0.36446      -0.65088     -0.5275      -0.65088     -0.5275      -0.27311     0.46525      
0.98         -0.39181     0.37466      -0.66178     -0.51123     -0.66178     -0.51123     -0.26259     0.47397      
0.99         -0.38522     0.38471      -0.67228     -0.49477     -0.67228     -0.49477     -0.2518      0.4824       
1            -0.37836     0.3946       -0.68238     -0.47813     -0.68238     -0.47813     -0.24074     0.49053      
1.01         -0.37122     0.40433      -0.69208     -0.46133     -0.69208     -0.46133     -0.22943     0.49835      
1.02         -0.36382     0.41387      -0.70138     -0.44437     -0.70138     -0.44437     -0.21787     0.50586      
1.03         -0.35615     0.42324      -0.71027     -0.42726     -0.71027     -0.42726     -0.20607     0.51304      
1.04         -0.34823     0.43242      -0.71877     -0.41001     -0.71877     -0.41001     -0.19404     0.51989      
1.05         -0.34006     0.4414       -0.72685     -0.39263     -0.72685     -0.39263     -0.1818      0.52641      
1.06         -0.33164     0.45018      -0.73454     -0.37513     -0.73454     -0.37513     -0.16936     0.53259      
1.07         -0.32299     0.45875      -0.74182     -0.35751     -0.74182     -0.35751     -0.15671     0.53842      
1.08         -0.3141      0.46711      -0.74869     -0.33979     -0.74869     -0.33979     -0.14389     0.5439       
1.09         -0.30499     0.47525      -0.75517     -0.32197     -0.75517     -0.32197     -0.13089     0.54902      
1.1          -0.29565     0.48317      -0.76123     -0.30406     -0.76123     -0.30406     -0.11773     0.55377      
1.11         -0.28611     0.49085      -0.7669      -0.28607     -0.7669      -0.28607     -0.10442     0.55817      
1.12         -0.27635     0.49829      -0.77216     -0.268       -0.77216     -0.268       -0.09097     0.56219      
1.13         -0.2664      0.5055       -0.77701     -0.24987     -0.77701     -0.24987     -0.07739     0.56583      
1.14         -0.25626     0.51246      -0.78147     -0.23168     -0.78147     -0.23168     -0.063694    0.5691       
1.15         -0.24593     0.51916      -0.78552     -0.21345     -0.78552     -0.21345     -0.049891    0.57199      
1.16         -0.23542     0.52562      -0.78918     -0.19517     -0.78918     -0.19517     -0.035994    0.57449      
1.17         -0.22473     0.53181      -0.79243     -0.17686     -0.79243     -0.17686     -0.022014    0.57661      
1.18         -0.21389     0.53774      -0.79529     -0.15852     -0.79529     -0.15852     -0.0079618   0.57834      
1.19         -0.20288     0.5434       -0.79774     -0.14016     -0.79774     -0.14016     0.0061503    0.57969      
1.2          -0.19173     0.54878      -0.79981     -0.1218      -0.79981     -0.1218      0.020311     0.58064      
1.21         -0.18044     0.5539       -0.80147     -0.10342     -0.80147     -0.10342     0.034509     0.5812       
1.22         -0.169       0.55873      -0.80275     -0.085056    -0.80275     -0.085056    0.048733     0.58137      
1.23         -0.15745     0.56328      -0.80363     -0.066697    -0.80363     -0.066697    0.062972     0.58115      
1.24         -0.14577     0.56755      -0.80412     -0.048356    -0.80412     -0.048356    0.077213     0.58053      
1.25         -0.13397     0.57153      -0.80422     -0.03004     -0.80422     -0.03004     0.091446     0.57953      
1.26         -0.12208     0.57522      -0.80394     -0.011756    -0.80394     -0.011756    0.10566      0.57813      
1.27         -0.11008     0.57862      -0.80327     0.0064904    -0.80327     0.0064904    0.11984      0.57634      
1.28         -0.098       0.58173      -0.80222     0.024691     -0.80222     0.024691     0.13398      0.57416      
1.29         -0.085834    0.58453      -0.80079     0.04284      -0.80079     0.04284      0.14807      0.5716       
1.3          -0.073594    0.58704      -0.79897     0.06093      -0.79897     0.06093      0.16209      0.56865      
1.31         -0.061288    0.58925      -0.79678     0.078954     -0.79678     0.078954     0.17604      0.56531      
1.32         -0.048923    0.59116      -0.79422     0.096907     -0.79422     0.096907     0.1899       0.5616       
1.33         -0.036507    0.59277      -0.79128     0.11478      -0.79128     0.11478      0.20366      0.55751      
1.34         -0.024048    0.59407      -0.78797     0.13257      -0.78797     0.13257      0.21732      0.55304      
1.35         -0.011554    0.59506      -0.78429     0.15027      -0.78429     0.15027      0.23086      0.5482       
1.36         0.00096729   0.59575      -0.78025     0.16787      -0.78025     0.16787      0.24427      0.54299      
1.37         0.013508     0.59614      -0.77584     0.18536      -0.77584     0.18536      0.25754      0.53742      
1.38         0.026061     0.59622      -0.77108     0.20275      -0.77108     0.20275      0.27065      0.53149      
1.39         0.038617     0.59599      -0.76595     0.22002      -0.76595     0.22002      0.28361      0.5252       
1.4          0.051169     0.59546      -0.76047     0.23716      -0.76047     0.23716      0.2964       0.51856      
1.41         0.06371      0.59462      -0.75463     0.25418      -0.75463     0.25418      0.30901      0.51158      
1.42         0.076231     0.59348      -0.74845     0.27107      -0.74845     0.27107      0.32144      0.50425      
1.43         0.088724     0.59203      -0.74191     0.28781      -0.74191     0.28781      0.33366      0.49659      
1.44         0.10118      0.59028      -0.73504     0.3044       -0.73504     0.3044       0.34567      0.48861      
1.45         0.1136       0.58822      -0.72782     0.32085      -0.72782     0.32085      0.35747      0.4803       
1.46         0.12596      0.58586      -0.72026     0.33713      -0.72026     0.33713      0.36904      0.47167      
1.47         0.13827      0.58321      -0.71236     0.35325      -0.71236     0.35325      0.38037      0.46273      
1.48         0.15051      0.58025      -0.70413     0.36921      -0.70413     0.36921      0.39146      0.45349      
1.49         0.16268      0.57699      -0.69557     0.38498      -0.69557     0.38498      0.4023       0.44395      
1.5          0.17476      0.57344      -0.68669     0.40057      -0.68669     0.40057      0.41288      0.43412      
1.51         0.18676      0.5696       -0.67748     0.41598      -0.67748     0.41598      0.42318      0.42401      
1.52         0.19866      0.56547      -0.66795     0.4312       -0.66795     0.4312       0.43321      0.41363      
1.53         0.21046      0.56104      -0.6581      0.44621      -0.6581      0.44621      0.44296      0.40298      
1.54         0.22214      0.55634      -0.64794     0.46102      -0.64794     0.46102      0.45241      0.39207      
1.55         0.23371      0.55134      -0.63747     0.47562      -0.63747     0.47562      0.46157      0.38092      
1.56         0.24515      0.54607      -0.62669     0.49001      -0.62669     0.49001      0.47041      0.36952      
1.57         0.25646      0.54052      -0.61561     0.50418      -0.61561     0.50418      0.47895      0.35789      
1.58         0.26763      0.5347       -0.60423     0.51812      -0.60423     0.51812      0.48716      0.34603      
1.59         0.27865      0.5286       -0.59255     0.53183      -0.59255     0.53183      0.49505      0.33396      
1.6          0.28952      0.52224      -0.58058     0.5453       -0.58058     0.5453       0.50261      0.32169      
1.61         0.30023      0.51562      -0.56832     0.55853      -0.56832     0.55853      0.50982      0.30921      
1.62         0.31077      0.50874      -0.55578     0.57151      -0.55578     0.57151      0.5167       0.29656      
1.63         0.32113      0.5016       -0.54296     0.58424      -0.54296     0.58424      0.52322      0.28372      
1.64         0.33132      0.49421      -0.52986     0.5967       -0.52986     0.5967       0.52939      0.27072      
1.65         0.34131      0.48658      -0.51648     0.60891      -0.51648     0.60891      0.5352       0.25757      
1.66         0.35111      0.4787       -0.50284     0.62085      -0.50284     0.62085      0.54065      0.24426      
1.67         0.36071      0.47059      -0.48894     0.63251      -0.48894     0.63251      0.54573      0.23082      
1.68         0.37011      0.46225      -0.47477     0.64389      -0.47477     0.64389      0.55043      0.21726      
1.69         0.37929      0.45368      -0.46035     0.65499      -0.46035     0.65499      0.55477      0.20358      
1.7          0.38825      0.44489      -0.44567     0.66579      -0.44567     0.66579      0.55872      0.18979      
1.71         0.39698      0.43588      -0.43075     0.6763       -0.43075     0.6763       0.56229      0.17591      
1.72         0.40548      0.42666      -0.41559     0.68651      -0.41559     0.68651      0.56547      0.16195      
1.73         0.41375      0.41725      -0.40019     0.69642      -0.40019     0.69642      0.56827      0.14792      
1.74         0.42177      0.40763      -0.38456     0.70601      -0.38456     0.70601      0.57067      0.13383      
1.75         0.42955      0.39782      -0.36869     0.71529      -0.36869     0.71529      0.57269      0.11969      
1.76         0.43707      0.38782      -0.35261     0.72424      -0.35261     0.72424      0.57431      0.10552      
1.77         0.44433      0.37765      -0.33631     0.73287      -0.33631     0.73287      0.57553      0.091314     
1.78         0.45133      0.36731      -0.31979     0.74117      -0.31979     0.74117      0.57636      0.077096     
1.79         0.45806      0.3568       -0.30307     0.74913      -0.30307     0.74913      0.5768       0.062876     
1.8          0.46451      0.34613      -0.28614     0.75674      -0.28614     0.75674      0.57683      0.048665     
1.81         0.47069      0.33531      -0.26902     0.76401      -0.26902     0.76401      0.57647      0.034475     
1.82         0.47658      0.32434      -0.25171     0.77093      -0.25171     0.77093      0.57571      0.020316     
1.83         0.48219      0.31324      -0.23421     0.77749      -0.23421     0.77749      0.57456      0.006202     
1.84         0.4875       0.30201      -0.21653     0.78369      -0.21653     0.78369      0.57301      -0.0078565   
1.85         0.49252      0.29066      -0.19868     0.78952      -0.19868     0.78952      0.57107      -0.021847    
1.86         0.49724      0.27919      -0.18065     0.79498      -0.18065     0.79498      0.56873      -0.035759    
1.87         0.50166      0.26762      -0.16247     0.80006      -0.16247     0.80006      0.566        -0.049579    
1.88         0.50577      0.25595      -0.14414     0.80476      -0.14414     0.80476      0.56289      -0.063296    
1.89         0.50957      0.24419      -0.12565     0.80907      -0.12565     0.80907      0.55939      -0.076899    
1.9          0.51306      0.23235      -0.10702     0.81299      -0.10702     0.81299      0.55551      -0.090375    
1.91         0.51623      0.22044      -0.08826     0.81651      -0.08826     0.81651      0.55125      -0.10371     
1.92         0.51909      0.20847      -0.069368    0.81963      -0.069368    0.81963      0.54661      -0.1169      
1.93         0.52162      0.19644      -0.050356    0.82235      -0.050356    0.82235      0.54161      -0.12993     
1.94         0.52383      0.18436      -0.031229    0.82465      -0.031229    0.82465      0.53624      -0.14278     
1.95         0.52572      0.17225      -0.011996    0.82654      -0.011996    0.82654      0.5305       -0.15545     
1.96         0.52728      0.16011      0.0073367    0.82801      0.0073367    0.82801      0.52441      -0.16792     
1.97         0.52851      0.14795      0.026761     0.82905      0.026761     0.82905      0.51798      -0.18018     
1.98         0.52941      0.13578      0.046268     0.82967      0.046268     0.82967      0.51119      -0.19223     
1.99         0.52999      0.12361      0.06585      0.82985      0.06585      0.82985      0.50407      -0.20405     
2            0.53023      0.11145      0.0855       0.82959      0.0855       0.82959      0.49661      -0.21562     
2.01         0.53014      0.099316     0.10521      0.82889      0.10521      0.82889      0.48884      -0.22695     
2.02         0.52971      0.087206     0.12497      0.82775      0.12497      0.82775      0.48074      -0.23801     
2.03         0.52896      0.075134     0.14477      0.82615      0.14477      0.82615      0.47234      -0.2488      
2.04         0.52787      0.063112     0.1646       0.8241       0.1646       0.8241       0.46363      -0.25931     
2.05         0.52646      0.051148     0.18445      0.8216       0.18445      0.8216       0.45464      -0.26953     
2.06         0.52471      0.039253     0.20432      0.81863      0.20432      0.81863      0.44536      -0.27944     
2.07         0.52263      0.027437     0.22419      0.81519      0.22419      0.81519      0.43581      -0.28904     
2.08         0.52023      0.01571      0.24405      0.81129      0.24405      0.81129      0.42599      -0.29832     
2.09         0.5175       0.0040812    0.2639       0.80692      0.2639       0.80692      0.41592      -0.30727     
2.1          0.51445      -0.0074381   0.28372      0.80207      0.28372      0.80207      0.4056       -0.31588     
2.11         0.51108      -0.018838    0.30351      0.79674      0.30351      0.79674      0.39506      -0.32414     
2.12         0.50738      -0.030109    0.32325      0.79093      0.32325      0.79093      0.38429      -0.33205     
2.13         0.50338      -0.04124     0.34292      0.78464      0.34292      0.78464      0.37331      -0.33959     
2.14         0.49906      -0.052221    0.36253      0.77786      0.36253      0.77786      0.36214      -0.34676     
2.15         0.49443      -0.063042    0.38206      0.77059      0.38206      0.77059      0.35078      -0.35355     
