!freq-unit  param-type  data-format  keyword  impedance-ohms
# GHZ           S          RI           R         50
!-----------------------------------------------------------------------------
!Freq          ReS11        ImS11        ReS21        ImS21        ReS12        ImS12        ReS22        ImS22
0.5          -0.26371     -0.16771     0.38367      -0.86648     0.38367      -0.86648     -0.30153     -0.081414    
0.51         -0.27129     -0.16527     0.3635       -0.87325     0.3635       -0.87325     -0.3085      -0.074926    
0.52         -0.27883     -0.16259     0.34325      -0.87953     0.34325      -0.87953     -0.31529     -0.068133    
0.53         -0.2863      -0.15966     0.32293      -0.88532     0.32293      -0.88532     -0.32186     -0.061044    
0.54         -0.29372     -0.15648     0.30255      -0.89062     0.30255      -0.89062     -0.32823     -0.053666    
0.55         -0.30106     -0.15307     0.28212      -0.89543     0.28212      -0.89543     -0.33436     -0.046008    
0.56         -0.30832     -0.14942     0.26166      -0.89975     0.26166      -0.89975     -0.34027     -0.038078    
0.57         -0.3155      -0.14554     0.24117      -0.90359     0.24117      -0.90359     -0.34592     -0.029885    
0.58         -0.32258     -0.14142     0.22067      -0.90696     0.22067      -0.90696     -0.35133     -0.021439    
0.59         -0.32957     -0.13708     0.20017      -0.90984     0.20017      -0.90984     -0.35647     -0.012748    
0.6          -0.33645     -0.13252     0.17969      -0.91225     0.17969      -0.91225     -0.36133     -0.0038241   
0.61         -0.34322     -0.12774     0.15922      -0.91419     0.15922      -0.91419     -0.36592     0.0053242    
0.62         -0.34987     -0.12275     0.1388       -0.91566     0.1388       -0.91566     -0.37022     0.014686     
0.63         -0.35639     -0.11754     0.11841      -0.91667     0.11841      -0.91667     -0.37422     0.024251     
0.64         -0.36279     -0.11213     0.09808      -0.91722     0.09808      -0.91722     -0.37792     0.034008     
0.65         -0.36906     -0.10652     0.077815     -0.91731     0.077815     -0.91731     -0.38132     0.043947     
0.66         -0.37518     -0.10071     0.057626     -0.91695     0.057626     -0.91695     -0.38439     0.054056     
0.67         -0.38116     -0.094716    0.037522     -0.91615     0.037522     -0.91615     -0.38715     0.064324     
0.68         -0.38699     -0.088531    0.017512     -0.9149      0.017512     -0.9149      -0.38958     0.074739     
0.69         -0.39266     -0.082165    -0.002394    -0.91322     -0.002394    -0.91322     -0.39168     0.085291     
0.7          -0.39818     -0.075623    -0.022187    -0.91111     -0.022187    -0.91111     -0.39345     0.095967     
0.71         -0.40353     -0.06891     -0.041857    -0.90858     -0.041857    -0.90858     -0.39488     0.10676      
0.72         -0.40871     -0.06203     -0.061397    -0.90562     -0.061397    -0.90562     -0.39596     0.11765      
0.73         -0.41373     -0.05499     -0.080798    -0.90225     -0.080798    -0.90225     -0.3967      0.12863      
0.74         -0.41856     -0.047795    -0.10005     -0.89848     -0.10005     -0.89848     -0.39709     0.13968      
0.75         -0.42322     -0.04045     -0.11915     -0.8943      -0.11915     -0.8943      -0.39714     0.15081      
0.76         -0.42769     -0.032961    -0.13808     -0.88972     -0.13808     -0.88972     -0.39683     0.16198      
0.77         -0.43198     -0.025333    -0.15685     -0.88476     -0.15685     -0.88476     -0.39616     0.1732       
0.78         -0.43608     -0.017572    -0.17544     -0.87941     -0.17544     -0.87941     -0.39514     0.18445      
0.79         -0.43999     -0.0096833   -0.19384     -0.87369     -0.19384     -0.87369     -0.39377     0.19572      
0.8          -0.4437      -0.0016727   -0.21205     -0.86759     -0.21205     -0.86759     -0.39204     0.20699      
0.81         -0.44722     0.0064541    -0.23006     -0.86113     -0.23006     -0.86113     -0.38996     0.21826      
0.82         -0.45053     0.014691     -0.24787     -0.85432     -0.24787     -0.85432     -0.38752     0.22951      
0.83         -0.45365     0.023034     -0.26546     -0.84715     -0.26546     -0.84715     -0.38473     0.24074      
0.84         -0.45656     0.031475     -0.28284     -0.83964     -0.28284     -0.83964     -0.38159     0.25192      
0.85         -0.45926     0.04001      -0.3         -0.83179     -0.3         -0.83179     -0.37809     0.26305      
0.86         -0.46176     0.048632     -0.31693     -0.82361     -0.31693     -0.82361     -0.37425     0.27412      
0.87         -0.46405     0.057337     -0.33363     -0.81511     -0.33363     -0.81511     -0.37006     0.28512      
0.88         -0.46613     0.066118     -0.35009     -0.80629     -0.35009     -0.80629     -0.36553     0.29604      
0.89         -0.46799     0.07497      -0.3663      -0.79716     -0.3663      -0.79716     -0.36066     0.30685      
0.9          -0.46965     0.083887     -0.38227     -0.78773     -0.38227     -0.78773     -0.35545     0.31757      
0.91         -0.47109     0.092863     -0.39798     -0.77801     -0.39798     -0.77801     -0.3499      0.32816      
0.92         -0.47231     0.10189      -0.41344     -0.76799     -0.41344     -0.76799     -0.34403     0.33863      
0.93         -0.47332     0.11097      -0.42863     -0.75769     -0.42863     -0.75769     -0.33783     0.34897      
0.94         -0.47412     0.12009      -0.44356     -0.74712     -0.44356     -0.74712     -0.33131     0.35915      
0.95         -0.47469     0.12925      -0.45822     -0.73628     -0.45822     -0.73628     -0.32448     0.36918      
0.96         -0.47506     0.13844      -0.47261     -0.72518     -0.47261     -0.72518     -0.31734     0.37905      
0.97         -0.4752      0.14765      -0.48672     -0.71382     -0.48672     -0.71382     -0.30989     0.38874      
0.98         -0.47513     0.15689      -0.50056     -0.70222     -0.50056     -0.70222     -0.30214     0.39824      
0.99         -0.47485     0.16614      -0.51411     -0.69037     -0.51411     -0.69037     -0.2941      0.40755      
1            -0.47434     0.1754       -0.52737     -0.67829     -0.52737     -0.67829     -0.28577     0.41666      
1.01         -0.47362     0.18467      -0.54035     -0.66599     -0.54035     -0.66599     -0.27716     0.42556      
1.02         -0.47269     0.19394      -0.55304     -0.65347     -0.55304     -0.65347     -0.26827     0.43424      
1.03         -0.47155     0.2032       -0.56543     -0.64073     -0.56543     -0.64073     -0.25912     0.4427       
1.04         -0.47019     0.21245      -0.57753     -0.62779     -0.57753     -0.62779     -0.24971     0.45091      
1.05         -0.46861     0.22168      -0.58933     -0.61465     -0.58933     -0.61465     -0.24004     0.45889      
1.06         -0.46683     0.2309       -0.60083     -0.60131     -0.60083     -0.60131     -0.23013     0.46662      
1.07         -0.46483     0.24008      -0.61203     -0.58779     -0.61203     -0.58779     -0.21998     0.47409      
1.08         -0.46263     0.24924      -0.62292     -0.57409     -0.62292     -0.57409     -0.2096      0.4813       
1.09         -0.46021     0.25836      -0.63351     -0.56022     -0.63351     -0.56022     -0.199       0.48823      
1.1          -0.45759     0.26744      -0.64379     -0.54618     -0.64379     -0.54618     -0.18819     0.4949       
1.11         -0.45477     0.27648      -0.65377     -0.53198     -0.65377     -0.53198     -0.17717     0.50128      
1.12         -0.45174     0.28546      -0.66343     -0.51763     -0.66343     -0.51763     -0.16595     0.50737      
1.13         -0.44851     0.2944       -0.67279     -0.50314     -0.67279     -0.50314     -0.15454     0.51317      
1.14         -0.44508     0.30327      -0.68183     -0.4885      -0.68183     -0.4885      -0.14295     0.51867      
1.15         -0.44145     0.31208      -0.69056     -0.47373     -0.69056     -0.47373     -0.1312      0.52387      
1.16         -0.43763     0.32082      -0.69898     -0.45883     -0.69898     -0.45883     -0.11927     0.52876      
1.17         -0.43361     0.32949      -0.70709     -0.44381     -0.70709     -0.44381     -0.1072      0.53334      
1.18         -0.42939     0.33809      -0.71488     -0.42868     -0.71488     -0.42868     -0.094979    0.5376       
1.19         -0.42499     0.3466       -0.72235     -0.41343     -0.72235     -0.41343     -0.082624    0.54154      
1.2          -0.4204      0.35503      -0.72951     -0.39809     -0.72951     -0.39809     -0.070142    0.54516      
1.21         -0.41562     0.36337      -0.73635     -0.38264     -0.73635     -0.38264     -0.057544    0.54845      
1.22         -0.41066     0.37162      -0.74288     -0.36711     -0.74288     -0.36711     -0.044839    0.55142      
1.23         -0.40552     0.37977      -0.74909     -0.35149     -0.74909     -0.35149     -0.032035    0.55405      
1.24         -0.4002      0.38783      -0.75499     -0.3358      -0.75499     -0.3358      -0.019142    0.55634      
1.25         -0.39471     0.39577      -0.76056     -0.32003     -0.76056     -0.32003     -0.0061704   0.5583       
1.26         -0.38904     0.40362      -0.76583     -0.30419     -0.76583     -0.30419     0.0068712    0.55991      
1.27         -0.3832      0.41134      -0.77078     -0.28829     -0.77078     -0.28829     0.019973     0.56119      
1.28         -0.3772      0.41896      -0.77541     -0.27234     -0.77541     -0.27234     0.033126     0.56213      
1.29         -0.37103     0.42646      -0.77972     -0.25634     -0.77972     -0.25634     0.046319     0.56272      
1.3          -0.36469     0.43383      -0.78373     -0.24029     -0.78373     -0.24029     0.059545     0.56296      
1.31         -0.3582      0.44108      -0.78742     -0.2242      -0.78742     -0.2242      0.072792     0.56287      
1.32         -0.35155     0.4482       -0.79079     -0.20808     -0.79079     -0.20808     0.086052     0.56242      
1.33         -0.34475     0.45519      -0.79385     -0.19194     -0.79385     -0.19194     0.099315     0.56164      
1.34         -0.3378      0.46205      -0.7966      -0.17577     -0.7966      -0.17577     0.11257      0.5605       
1.35         -0.33071     0.46877      -0.79904     -0.15958     -0.79904     -0.15958     0.12581      0.55902      
1.36         -0.32346     0.47535      -0.80117     -0.14338     -0.80117     -0.14338     0.13903      0.5572       
1.37         -0.31608     0.48178      -0.80299     -0.12718     -0.80299     -0.12718     0.15221      0.55504      
1.38         -0.30856     0.48807      -0.8045      -0.11097     -0.8045      -0.11097     0.16535      0.55253      
1.39         -0.30091     0.49421      -0.80571     -0.094765    -0.80571     -0.094765    0.17843      0.54969      
1.4          -0.29313     0.5002       -0.80661     -0.07857     -0.80661     -0.07857     0.19145      0.5465       
1.41         -0.28522     0.50604      -0.8072      -0.06239     -0.8072      -0.06239     0.2044       0.54298      
1.42         -0.27719     0.51172      -0.80749     -0.046228    -0.80749     -0.046228    0.21727      0.53913      
1.43         -0.26903     0.51723      -0.80748     -0.030089    -0.80748     -0.030089    0.23005      0.53494      
1.44         -0.26076     0.52259      -0.80716     -0.013979    -0.80716     -0.013979    0.24273      0.53042      
1.45         -0.25238     0.52779      -0.80655     0.0020969    -0.80655     0.0020969    0.25531      0.52558      
1.46         -0.24389     0.53282      -0.80564     0.018135     -0.80564     0.018135     0.26777      0.52041      
1.47         -0.23529     0.53768      -0.80443     0.03413      -0.80443     0.03413      0.2801       0.51492      
1.48         -0.22659     0.54237      -0.80292     0.050078     -0.80292     0.050078     0.29231      0.50912      
1.49         -0.21779     0.54689      -0.80113     0.065973     -0.80113     0.065973     0.30437      0.503        
1.5          -0.2089      0.55123      -0.79904     0.081811     -0.79904     0.081811     0.31628      0.49658      
1.51         -0.19991     0.5554       -0.79666     0.097588     -0.79666     0.097588     0.32803      0.48985      
1.52         -0.19084     0.55939      -0.79399     0.1133       -0.79399     0.1133       0.33962      0.48282      
1.53         -0.18168     0.5632       -0.79103     0.12894      -0.79103     0.12894      0.35103      0.47549      
1.54         -0.17245     0.56684      -0.78779     0.14451      -0.78779     0.14451      0.36227      0.46788      
1.55         -0.16314     0.57029      -0.78427     0.15999      -0.78427     0.15999      0.37331      0.45997      
1.56         -0.15375     0.57355      -0.78046     0.17539      -0.78046     0.17539      0.38416      0.45179      
1.57         -0.1443      0.57663      -0.77637     0.19071      -0.77637     0.19071      0.39481      0.44333      
1.58         -0.13478     0.57953      -0.77201     0.20593      -0.77201     0.20593      0.40524      0.4346       
1.59         -0.12521     0.58223      -0.76737     0.22106      -0.76737     0.22106      0.41546      0.42561      
1.6          -0.11557     0.58475      -0.76246     0.23608      -0.76246     0.23608      0.42545      0.41636      
1.61         -0.10589     0.58708      -0.75727     0.25101      -0.75727     0.25101      0.43521      0.40685      
1.62         -0.09615     0.58921      -0.75182     0.26582      -0.75182     0.26582      0.44473      0.39711      
1.63         -0.08637     0.59116      -0.7461      0.28052      -0.7461      0.28052      0.45401      0.38712      
1.64         -0.07655     0.59291      -0.74011     0.2951       -0.74011     0.2951       0.46304      0.37689      
1.65         -0.066692    0.59447      -0.73387     0.30956      -0.73387     0.30956      0.47181      0.36644      
1.66         -0.056802    0.59583      -0.72736     0.3239       -0.72736     0.3239       0.48032      0.35578      
1.67         -0.046884    0.597        -0.72059     0.3381       -0.72059     0.3381       0.48856      0.34489      
1.68         -0.03694     0.59797      -0.71356     0.35218      -0.71356     0.35218      0.49653      0.33381      
1.69         -0.026976    0.59875      -0.70628     0.36612      -0.70628     0.36612      0.50422      0.32252      
1.7          -0.016996    0.59933      -0.69875     0.37991      -0.69875     0.37991      0.51163      0.31104      
1.71         -0.0070029   0.59972      -0.69097     0.39357      -0.69097     0.39357      0.51875      0.29938      
1.72         0.0029985    0.5999       -0.68295     0.40707      -0.68295     0.40707      0.52557      0.28755      
1.73         0.013004     0.59989      -0.67468     0.42043      -0.67468     0.42043      0.5321       0.27554      
1.74         0.02301      0.59968      -0.66616     0.43362      -0.66616     0.43362      0.53833      0.26338      
1.75         0.033013     0.59928      -0.65741     0.44666      -0.65741     0.44666      0.54424      0.25106      
1.76         0.043007     0.59868      -0.64842     0.45954      -0.64842     0.45954      0.54985      0.2386       
1.77         0.052989     0.59788      -0.6392      0.47225      -0.6392      0.47225      0.55515      0.226        
1.78         0.062956     0.59688      -0.62975     0.48479      -0.62975     0.48479      0.56013      0.21328      
1.79         0.072902     0.59569      -0.62006     0.49715      -0.62006     0.49715      0.56478      0.20043      
1.8          0.082824     0.5943       -0.61016     0.50934      -0.61016     0.50934      0.56912      0.18748      
1.81         0.092717     0.59271      -0.60002     0.52135      -0.60002     0.52135      0.57313      0.17442      
1.82         0.10258      0.59093      -0.58967     0.53317      -0.58967     0.53317      0.5768       0.16126      
1.83         0.1124       0.58896      -0.5791      0.54481      -0.5791      0.54481      0.58015      0.14802      
1.84         0.12219      0.58679      -0.56831     0.55625      -0.56831     0.55625      0.58317      0.13471      
1.85         0.13193      0.58442      -0.55731     0.5675       -0.55731     0.5675       0.58584      0.12132      
1.86         0.14162      0.58187      -0.5461      0.57856      -0.5461      0.57856      0.58818      0.10788      
1.87         0.15126      0.57912      -0.53469     0.58941      -0.53469     0.58941      0.59019      0.094385     
1.88         0.16084      0.57618      -0.52307     0.60005      -0.52307     0.60005      0.59185      0.080849     
1.89         0.17036      0.57305      -0.51125     0.61049      -0.51125     0.61049      0.59317      0.06728      
1.9          0.17981      0.56973      -0.49923     0.62071      -0.49923     0.62071      0.59415      0.053687     
1.91         0.1892       0.56623      -0.48702     0.63073      -0.48702     0.63073      0.59478      0.040079     
1.92         0.19851      0.56254      -0.47461     0.64052      -0.47461     0.64052      0.59508      0.026465     
1.93         0.20775      0.55866      -0.46202     0.65009      -0.46202     0.65009      0.59503      0.012855     
1.94         0.21691      0.5546       -0.44925     0.65944      -0.44925     0.65944      0.59463      -0.0007434   
1.95         0.22598      0.55036      -0.43629     0.66856      -0.43629     0.66856      0.5939       -0.014321    
1.96         0.23496      0.54594      -0.42315     0.67744      -0.42315     0.67744      0.59282      -0.027868    
1.97         0.24385      0.54134      -0.40983     0.6861       -0.40983     0.6861       0.5914       -0.041375    
1.98         0.25265      0.53656      -0.39635     0.69451      -0.39635     0.69451      0.58964      -0.054835    
1.99         0.26134      0.53161      -0.38269     0.70269      -0.38269     0.70269      0.58754      -0.068237    
2            0.26993      0.52649      -0.36887     0.71062      -0.36887     0.71062      0.5851       -0.081573    
2.01         0.27841      0.52119      -0.35489     0.7183       -0.35489     0.7183       0.58233      -0.094834    
2.02         0.28678      0.51573      -0.34075     0.72574      -0.34075     0.72574      0.57922      -0.10801     
2.03         0.29504      0.51009      -0.32646     0.73292      -0.32646     0.73292      0.57579      -0.12109     
2.04         0.30317      0.5043       -0.31201     0.73984      -0.31201     0.73984      0.57202      -0.13408     
2.05         0.31118      0.49834      -0.29742     0.74651      -0.29742     0.74651      0.56792      -0.14695     
2.06         0.31907      0.49222      -0.28268     0.75291      -0.28268     0.75291      0.5635       -0.1597      
2.07         0.32682      0.48595      -0.2678      0.75905      -0.2678      0.75905      0.55876      -0.17232     
2.08         0.33445      0.47952      -0.25279     0.76492      -0.25279     0.76492      0.5537       -0.18481     
2.09         0.34193      0.47294      -0.23765     0.77052      -0.23765     0.77052      0.54833      -0.19715     
2.1          0.34927      0.46621      -0.22237     0.77584      -0.22237     0.77584      0.54265      -0.20934     
2.11         0.35647      0.45933      -0.20697     0.78089      -0.20697     0.78089      0.53666      -0.22136     
2.12         0.36352      0.45231      -0.19145     0.78566      -0.19145     0.78566      0.53037      -0.23322     
2.13         0.37042      0.44515      -0.17582     0.79014      -0.17582     0.79014      0.52378      -0.2449      
2.14         0.37717      0.43785      -0.16007     0.79434      -0.16007     0.79434      0.5169       -0.25639     
2.15         0.38375      0.43042      -0.14422     0.79825      -0.14422     0.79825      0.50974      -0.26768     
