!freq-unit  param-type  data-format  keyword  impedance-ohms
# GHZ           S          RI           R         50
!-----------------------------------------------------------------------------
!Freq          ReS11        ImS11        ReS21        ImS21        ReS12        ImS12        ReS22        ImS22
0.5          -0.28605     -0.12617     0.38381      -0.86692     0.38381      -0.86692     -0.28605     -0.12617     
0.51         -0.29356     -0.12172     0.36363      -0.87369     0.36363      -0.87369     -0.29356     -0.12172     
0.52         -0.30096     -0.11697     0.34337      -0.87997     0.34337      -0.87997     -0.30096     -0.11697     
0.53         -0.30824     -0.11195     0.32304      -0.88577     0.32304      -0.88577     -0.30824     -0.11195     
0.54         -0.31538     -0.10666     0.30265      -0.89107     0.30265      -0.89107     -0.31538     -0.10666     
0.55         -0.32239     -0.1011      0.28221      -0.89588     0.28221      -0.89588     -0.32239     -0.1011      
0.56         -0.32925     -0.095271    0.26174      -0.90021     0.26174      -0.90021     -0.32925     -0.095271    
0.57         -0.33595     -0.089188    0.24124      -0.90406     0.24124      -0.90406     -0.33595     -0.089188    
0.58         -0.34248     -0.082853    0.22074      -0.90742     0.22074      -0.90742     -0.34248     -0.082853    
0.59         -0.34884     -0.076273    0.20023      -0.91031     0.20023      -0.91031     -0.34884     -0.076273    
0.6          -0.35502     -0.069454    0.17973      -0.91272     0.17973      -0.91272     -0.35502     -0.069454    
0.61         -0.36101     -0.062402    0.15926      -0.91466     0.15926      -0.91466     -0.36101     -0.062402    
0.62         -0.36681     -0.055125    0.13882      -0.91614     0.13882      -0.91614     -0.36681     -0.055125    
0.63         -0.3724      -0.047629    0.11842      -0.91714     0.11842      -0.91714     -0.3724      -0.047629    
0.64         -0.37778     -0.039922    0.098084     -0.91769     0.098084     -0.91769     -0.37778     -0.039922    
0.65         -0.38295     -0.03201     0.077809     -0.91779     0.077809     -0.91779     -0.38295     -0.03201     
0.66         -0.38789     -0.023902    0.057609     -0.91743     0.057609     -0.91743     -0.38789     -0.023902    
0.67         -0.3926      -0.015604    0.037495     -0.91663     0.037495     -0.91663     -0.3926      -0.015604    
0.68         -0.39709     -0.0071244   0.017475     -0.91538     0.017475     -0.91538     -0.39709     -0.0071244   
0.69         -0.40133     0.0015286    -0.0024403   -0.9137      -0.0024403   -0.9137      -0.40133     0.0015286    
0.7          -0.40533     0.010347     -0.022243    -0.91159     -0.022243    -0.91159     -0.40533     0.010347     
0.71         -0.40908     0.019324     -0.041923    -0.90906     -0.041923    -0.90906     -0.40908     0.019324     
0.72         -0.41259     0.02845      -0.061473    -0.9061      -0.061473    -0.9061      -0.41259     0.02845      
0.73         -0.41583     0.037717     -0.080883    -0.90273     -0.080883    -0.90273     -0.41583     0.037717     
0.74         -0.41881     0.047117     -0.10015     -0.89895     -0.10015     -0.89895     -0.41881     0.047117     
0.75         -0.42153     0.056643     -0.11925     -0.89477     -0.11925     -0.89477     -0.42153     0.056643     
0.76         -0.42399     0.066284     -0.1382      -0.8902      -0.1382      -0.8902      -0.42399     0.066284     
0.77         -0.42617     0.076034     -0.15697     -0.88523     -0.15697     -0.88523     -0.42617     0.076034     
0.78         -0.42808     0.085883     -0.17557     -0.87988     -0.17557     -0.87988     -0.42808     0.085883     
0.79         -0.42972     0.095824     -0.19398     -0.87416     -0.19398     -0.87416     -0.42972     0.095824     
0.8          -0.43108     0.10585      -0.2122      -0.86806     -0.2122      -0.86806     -0.43108     0.10585      
0.81         -0.43216     0.11594      -0.23022     -0.8616      -0.23022     -0.8616      -0.43216     0.11594      
0.82         -0.43296     0.12611      -0.24804     -0.85478     -0.24804     -0.85478     -0.43296     0.12611      
0.83         -0.43348     0.13633      -0.26564     -0.84761     -0.26564     -0.84761     -0.43348     0.13633      
0.84         -0.43371     0.1466       -0.28303     -0.8401      -0.28303     -0.8401      -0.43371     0.1466       
0.85         -0.43367     0.15691      -0.3002      -0.83225     -0.3002      -0.83225     -0.43367     0.15691      
0.86         -0.43334     0.16725      -0.31714     -0.82407     -0.31714     -0.82407     -0.43334     0.16725      
0.87         -0.43272     0.17761      -0.33384     -0.81556     -0.33384     -0.81556     -0.43272     0.17761      
0.88         -0.43182     0.18799      -0.35031     -0.80674     -0.35031     -0.80674     -0.43182     0.18799      
0.89         -0.43064     0.19838      -0.36653     -0.79761     -0.36653     -0.79761     -0.43064     0.19838      
0.9          -0.42917     0.20877      -0.38251     -0.78817     -0.38251     -0.78817     -0.42917     0.20877      
0.91         -0.42742     0.21915      -0.39823     -0.77844     -0.39823     -0.77844     -0.42742     0.21915      
0.92         -0.42538     0.22951      -0.41369     -0.76842     -0.41369     -0.76842     -0.42538     0.22951      
0.93         -0.42307     0.23985      -0.4289      -0.75812     -0.4289      -0.75812     -0.42307     0.23985      
0.94         -0.42047     0.25015      -0.44384     -0.74755     -0.44384     -0.74755     -0.42047     0.25015      
0.95         -0.4176      0.26042      -0.45851     -0.7367      -0.45851     -0.7367      -0.4176      0.26042      
0.96         -0.41445     0.27063      -0.4729      -0.72559     -0.4729      -0.72559     -0.41445     0.27063      
0.97         -0.41103     0.28079      -0.48702     -0.71423     -0.48702     -0.71423     -0.41103     0.28079      
0.98         -0.40733     0.29089      -0.50087     -0.70263     -0.50087     -0.70263     -0.40733     0.29089      
0.99         -0.40336     0.30091      -0.51442     -0.69078     -0.51442     -0.69078     -0.40336     0.30091      
1            -0.39912     0.31086      -0.5277      -0.6787      -0.5277      -0.6787      -0.39912     0.31086      
1.01         -0.39462     0.32072      -0.54068     -0.66639     -0.54068     -0.66639     -0.39462     0.32072      
1.02         -0.38986     0.33049      -0.55338     -0.65386     -0.55338     -0.65386     -0.38986     0.33049      
1.03         -0.38483     0.34016      -0.56578     -0.64112     -0.56578     -0.64112     -0.38483     0.34016      
1.04         -0.37955     0.34973      -0.57789     -0.62817     -0.57789     -0.62817     -0.37955     0.34973      
1.05         -0.37402     0.35918      -0.5897      -0.61502     -0.5897      -0.61502     -0.37402     0.35918      
1.06         -0.36823     0.36851      -0.60121     -0.60168     -0.60121     -0.60168     -0.36823     0.36851      
1.07         -0.3622      0.37772      -0.61241     -0.58816     -0.61241     -0.58816     -0.3622      0.37772      
1.08         -0.35593     0.3868       -0.62332     -0.57445     -0.62332     -0.57445     -0.35593     0.3868       
1.09         -0.34942     0.39573      -0.63391     -0.56057     -0.63391     -0.56057     -0.34942     0.39573      
1.1          -0.34268     0.40453      -0.64421     -0.54653     -0.64421     -0.54653     -0.34268     0.40453      
1.11         -0.3357      0.41317      -0.65419     -0.53232     -0.65419     -0.53232     -0.3357      0.41317      
1.12         -0.3285      0.42166      -0.66386     -0.51797     -0.66386     -0.51797     -0.3285      0.42166      
1.13         -0.32108     0.42998      -0.67323     -0.50346     -0.67323     -0.50346     -0.32108     0.42998      
1.14         -0.31344     0.43814      -0.68228     -0.48882     -0.68228     -0.48882     -0.31344     0.43814      
1.15         -0.30559     0.44613      -0.69102     -0.47404     -0.69102     -0.47404     -0.30559     0.44613      
1.16         -0.29753     0.45393      -0.69944     -0.45913     -0.69944     -0.45913     -0.29753     0.45393      
1.17         -0.28927     0.46156      -0.70756     -0.4441      -0.70756     -0.4441      -0.28927     0.46156      
1.18         -0.28081     0.469        -0.71535     -0.42896     -0.71535     -0.42896     -0.28081     0.469        
1.19         -0.27216     0.47624      -0.72284     -0.41371     -0.72284     -0.41371     -0.27216     0.47624      
1.2          -0.26333     0.48329      -0.73        -0.39835     -0.73        -0.39835     -0.26333     0.48329      
1.21         -0.25431     0.49014      -0.73685     -0.3829      -0.73685     -0.3829      -0.25431     0.49014      
1.22         -0.24511     0.49678      -0.74339     -0.36736     -0.74339     -0.36736     -0.24511     0.49678      
1.23         -0.23574     0.50321      -0.74961     -0.35173     -0.74961     -0.35173     -0.23574     0.50321      
1.24         -0.22621     0.50943      -0.75551     -0.33603     -0.75551     -0.33603     -0.22621     0.50943      
1.25         -0.21652     0.51543      -0.76109     -0.32025     -0.76109     -0.32025     -0.21652     0.51543      
1.26         -0.20667     0.52121      -0.76636     -0.3044      -0.76636     -0.3044      -0.20667     0.52121      
1.27         -0.19668     0.52676      -0.77132     -0.28849     -0.77132     -0.28849     -0.19668     0.52676      
1.28         -0.18654     0.53209      -0.77596     -0.27253     -0.77596     -0.27253     -0.18654     0.53209      
1.29         -0.17627     0.53718      -0.78028     -0.25651     -0.78028     -0.25651     -0.17627     0.53718      
1.3          -0.16586     0.54204      -0.78429     -0.24045     -0.78429     -0.24045     -0.16586     0.54204      
1.31         -0.15533     0.54666      -0.78798     -0.22436     -0.78798     -0.22436     -0.15533     0.54666      
1.32         -0.14468     0.55104      -0.79136     -0.20822     -0.79136     -0.20822     -0.14468     0.55104      
1.33         -0.13392     0.55518      -0.79443     -0.19206     -0.79443     -0.19206     -0.13392     0.55518      
1.34         -0.12305     0.55907      -0.79718     -0.17588     -0.79718     -0.17588     -0.12305     0.55907      
1.35         -0.11208     0.56272      -0.79963     -0.15968     -0.79963     -0.15968     -0.11208     0.56272      
1.36         -0.10102     0.56611      -0.80176     -0.14347     -0.80176     -0.14347     -0.10102     0.56611      
1.37         -0.089868    0.56925      -0.80359     -0.12725     -0.80359     -0.12725     -0.089868    0.56925      
1.38         -0.078634    0.57214      -0.8051      -0.11103     -0.8051      -0.11103     -0.078634    0.57214      
1.39         -0.067324    0.57477      -0.80631     -0.094813    -0.80631     -0.094813    -0.067324    0.57477      
1.4          -0.055945    0.57714      -0.80721     -0.078604    -0.80721     -0.078604    -0.055945    0.57714      
1.41         -0.044502    0.57926      -0.8078      -0.062409    -0.8078      -0.062409    -0.044502    0.57926      
1.42         -0.033003    0.58111      -0.8081      -0.046233    -0.8081      -0.046233    -0.033003    0.58111      
1.43         -0.021453    0.58271      -0.80808     -0.03008     -0.80808     -0.03008     -0.021453    0.58271      
1.44         -0.0098585   0.58404      -0.80777     -0.013956    -0.80777     -0.013956    -0.0098585   0.58404      
1.45         0.0017737    0.5851       -0.80716     0.0021352    -0.80716     0.0021352    0.0017737    0.5851       
1.46         0.013437     0.58591      -0.80625     0.018188     -0.80625     0.018188     0.013437     0.58591      
1.47         0.025126     0.58645      -0.80504     0.034198     -0.80504     0.034198     0.025126     0.58645      
1.48         0.036834     0.58672      -0.80353     0.050161     -0.80353     0.050161     0.036834     0.58672      
1.49         0.048555     0.58674      -0.80173     0.066071     -0.80173     0.066071     0.048555     0.58674      
1.5          0.060282     0.58648      -0.79964     0.081924     -0.79964     0.081924     0.060282     0.58648      
1.51         0.072008     0.58596      -0.79726     0.097716     -0.79726     0.097716     0.072008     0.58596      
1.52         0.083729     0.58518      -0.79458     0.11344      -0.79458     0.11344      0.083729     0.58518      
1.53         0.095437     0.58413      -0.79163     0.1291       -0.79163     0.1291       0.095437     0.58413      
1.54         0.10713      0.58282      -0.78838     0.14468      -0.78838     0.14468      0.10713      0.58282      
1.55         0.11879      0.58124      -0.78485     0.16018      -0.78485     0.16018      0.11879      0.58124      
1.56         0.13042      0.5794       -0.78104     0.1756       -0.78104     0.1756       0.13042      0.5794       
1.57         0.14202      0.5773       -0.77695     0.19093      -0.77695     0.19093      0.14202      0.5773       
1.58         0.15357      0.57494      -0.77258     0.20616      -0.77258     0.20616      0.15357      0.57494      
1.59         0.16507      0.57232      -0.76793     0.2213       -0.76793     0.2213       0.16507      0.57232      
1.6          0.17652      0.56944      -0.76301     0.23634      -0.76301     0.23634      0.17652      0.56944      
1.61         0.1879       0.5663       -0.75782     0.25128      -0.75782     0.25128      0.1879       0.5663       
1.62         0.19922      0.56291      -0.75236     0.2661       -0.75236     0.2661       0.19922      0.56291      
1.63         0.21046      0.55927      -0.74663     0.28081      -0.74663     0.28081      0.21046      0.55927      
1.64         0.22162      0.55537      -0.74064     0.29541      -0.74064     0.29541      0.22162      0.55537      
1.65         0.2327       0.55122      -0.73438     0.30988      -0.73438     0.30988      0.2327       0.55122      
1.66         0.24368      0.54683      -0.72786     0.32423      -0.72786     0.32423      0.24368      0.54683      
1.67         0.25457      0.54219      -0.72108     0.33845      -0.72108     0.33845      0.25457      0.54219      
1.68         0.26535      0.53731      -0.71404     0.35254      -0.71404     0.35254      0.26535      0.53731      
1.69         0.27603      0.53218      -0.70675     0.36649      -0.70675     0.36649      0.27603      0.53218      
1.7          0.28659      0.52682      -0.69921     0.38029      -0.69921     0.38029      0.28659      0.52682      
1.71         0.29704      0.52122      -0.69142     0.39396      -0.69142     0.39396      0.29704      0.52122      
1.72         0.30735      0.5154       -0.68338     0.40747      -0.68338     0.40747      0.30735      0.5154       
1.73         0.31754      0.50934      -0.6751      0.42083      -0.6751      0.42083      0.31754      0.50934      
1.74         0.32759      0.50305      -0.66657     0.43404      -0.66657     0.43404      0.32759      0.50305      
1.75         0.3375       0.49654      -0.65781     0.44709      -0.65781     0.44709      0.3375       0.49654      
1.76         0.34726      0.48981      -0.64881     0.45997      -0.64881     0.45997      0.34726      0.48981      
1.77         0.35687      0.48287      -0.63957     0.47269      -0.63957     0.47269      0.35687      0.48287      
1.78         0.36632      0.47571      -0.6301      0.48523      -0.6301      0.48523      0.36632      0.47571      
1.79         0.37562      0.46835      -0.6204      0.4976       -0.6204      0.4976       0.37562      0.46835      
1.8          0.38474      0.46077      -0.61048     0.5098       -0.61048     0.5098       0.38474      0.46077      
1.81         0.39369      0.453        -0.60033     0.52181      -0.60033     0.52181      0.39369      0.453        
1.82         0.40247      0.44503      -0.58997     0.53364      -0.58997     0.53364      0.40247      0.44503      
1.83         0.41107      0.43686      -0.57938     0.54527      -0.57938     0.54527      0.41107      0.43686      
1.84         0.41948      0.42851      -0.56858     0.55672      -0.56858     0.55672      0.41948      0.42851      
1.85         0.4277       0.41997      -0.55756     0.56797      -0.55756     0.56797      0.4277       0.41997      
1.86         0.43573      0.41125      -0.54634     0.57903      -0.54634     0.57903      0.43573      0.41125      
1.87         0.44356      0.40235      -0.53491     0.58988      -0.53491     0.58988      0.44356      0.40235      
1.88         0.45118      0.39328      -0.52328     0.60052      -0.52328     0.60052      0.45118      0.39328      
1.89         0.4586       0.38405      -0.51144     0.61096      -0.51144     0.61096      0.4586       0.38405      
1.9          0.46581      0.37465      -0.49941     0.62118      -0.49941     0.62118      0.46581      0.37465      
1.91         0.47281      0.3651       -0.48719     0.63119      -0.48719     0.63119      0.47281      0.3651       
1.92         0.47958      0.3554       -0.47477     0.64098      -0.47477     0.64098      0.47958      0.3554       
1.93         0.48613      0.34555      -0.46216     0.65055      -0.46216     0.65055      0.48613      0.34555      
1.94         0.49246      0.33555      -0.44937     0.65989      -0.44937     0.65989      0.49246      0.33555      
1.95         0.49856      0.32542      -0.4364      0.669        -0.4364      0.669        0.49856      0.32542      
1.96         0.50443      0.31516      -0.42325     0.67789      -0.42325     0.67789      0.50443      0.31516      
1.97         0.51006      0.30477      -0.40993     0.68653      -0.40993     0.68653      0.51006      0.30477      
1.98         0.51545      0.29427      -0.39643     0.69494      -0.39643     0.69494      0.51545      0.29427      
1.99         0.5206       0.28365      -0.38277     0.70311      -0.38277     0.70311      0.5206       0.28365      
2            0.5255       0.27292      -0.36894     0.71104      -0.36894     0.71104      0.5255       0.27292      
2.01         0.53016      0.26208      -0.35495     0.71871      -0.35495     0.71871      0.53016      0.26208      
2.02         0.53457      0.25115      -0.3408      0.72614      -0.3408      0.72614      0.53457      0.25115      
2.03         0.53872      0.24013      -0.32649     0.73331      -0.32649     0.73331      0.53872      0.24013      
2.04         0.54262      0.22902      -0.31204     0.74023      -0.31204     0.74023      0.54262      0.22902      
2.05         0.54627      0.21784      -0.29744     0.74688      -0.29744     0.74688      0.54627      0.21784      
2.06         0.54965      0.20658      -0.2827      0.75328      -0.2827      0.75328      0.54965      0.20658      
2.07         0.55277      0.19525      -0.26782     0.7594       -0.26782     0.7594       0.55277      0.19525      
2.08         0.55563      0.18387      -0.2528      0.76526      -0.2528      0.76526      0.55563      0.18387      
2.09         0.55822      0.17243      -0.23765     0.77085      -0.23765     0.77085      0.55822      0.17243      
2.1          0.56055      0.16094      -0.22237     0.77616      -0.22237     0.77616      0.56055      0.16094      
2.11         0.56261      0.14941      -0.20697     0.7812       -0.20697     0.7812       0.56261      0.14941      
2.12         0.5644       0.13784      -0.19145     0.78596      -0.19145     0.78596      0.5644       0.13784      
2.13         0.56593      0.12625      -0.17582     0.79043      -0.17582     0.79043      0.56593      0.12625      
2.14         0.56718      0.11463      -0.16007     0.79462      -0.16007     0.79462      0.56718      0.11463      
2.15         0.56816      0.103        -0.14422     0.79851      -0.14422     0.79851      0.56816      0.103        
