!freq-unit  param-type  data-format  keyword  impedance-ohms
# GHZ           S          RI           R         50
!-----------------------------------------------------------------------------
!Freq          ReS11        ImS11        ReS21        ImS21        ReS12        ImS12        ReS22        ImS22
0.5          -0.34792     -0.12253     0.29343      -0.87931     0.29343      -0.87931     -0.35212     -0.10977     
0.51         -0.35601     -0.11608     0.27176      -0.88387     0.27176      -0.88387     -0.36005     -0.10277     
0.52         -0.36391     -0.10933     0.25008      -0.88788     0.25008      -0.88788     -0.36776     -0.095455    
0.53         -0.37159     -0.10226     0.22841      -0.89135     0.22841      -0.89135     -0.37523     -0.087825    
0.54         -0.37905     -0.094895    0.20677      -0.89428     0.20677      -0.89428     -0.38247     -0.079894    
0.55         -0.38629     -0.087241    0.18517      -0.89667     0.18517      -0.89667     -0.38945     -0.071673    
0.56         -0.39329     -0.079308    0.16362      -0.89853     0.16362      -0.89853     -0.39617     -0.063172    
0.57         -0.40004     -0.071105    0.14213      -0.89986     0.14213      -0.89986     -0.40262     -0.054401    
0.58         -0.40654     -0.062642    0.12072      -0.90068     0.12072      -0.90068     -0.40879     -0.045372    
0.59         -0.41277     -0.053929    0.099401     -0.90099     0.099401     -0.90099     -0.41468     -0.036094    
0.6          -0.41874     -0.044977    0.078181     -0.9008      0.078181     -0.9008      -0.42027     -0.026581    
0.61         -0.42442     -0.035795    0.057073     -0.90012     0.057073     -0.90012     -0.42556     -0.016842    
0.62         -0.42983     -0.026395    0.036086     -0.89894     0.036086     -0.89894     -0.43054     -0.0068902   
0.63         -0.43494     -0.016787    0.015233     -0.89728     0.015233     -0.89728     -0.43521     0.0032639    
0.64         -0.43975     -0.0069811   -0.0054772   -0.89515     -0.0054772   -0.89515     -0.43956     0.013608     
0.65         -0.44427     0.0030107    -0.026035    -0.89256     -0.026035    -0.89256     -0.44359     0.024131     
0.66         -0.44848     0.013178     -0.04643     -0.88951     -0.04643     -0.88951     -0.44728     0.03482      
0.67         -0.45238     0.02351      -0.066655    -0.88601     -0.066655    -0.88601     -0.45064     0.045665     
0.68         -0.45596     0.033995     -0.0867      -0.88206     -0.0867      -0.88206     -0.45367     0.056652     
0.69         -0.45923     0.044623     -0.10656     -0.87769     -0.10656     -0.87769     -0.45635     0.06777      
0.7          -0.46218     0.055383     -0.12622     -0.87289     -0.12622     -0.87289     -0.45869     0.079007     
0.71         -0.4648      0.066263     -0.14568     -0.86767     -0.14568     -0.86767     -0.46068     0.090352     
0.72         -0.46709     0.077253     -0.16492     -0.86205     -0.16492     -0.86205     -0.46232     0.10179      
0.73         -0.46906     0.088341     -0.18395     -0.85602     -0.18395     -0.85602     -0.46361     0.11332      
0.74         -0.4707      0.099518     -0.20276     -0.8496      -0.20276     -0.8496      -0.46455     0.12491      
0.75         -0.472       0.11077      -0.22133     -0.8428      -0.22133     -0.8428      -0.46514     0.13657      
0.76         -0.47297     0.12209      -0.23967     -0.83563     -0.23967     -0.83563     -0.46538     0.14827      
0.77         -0.47361     0.13347      -0.25777     -0.82809     -0.25777     -0.82809     -0.46526     0.16001      
0.78         -0.47391     0.14489      -0.27561     -0.82019     -0.27561     -0.82019     -0.46479     0.17178      
0.79         -0.47388     0.15634      -0.29321     -0.81194     -0.29321     -0.81194     -0.46396     0.18356      
0.8          -0.47352     0.16782      -0.31055     -0.80335     -0.31055     -0.80335     -0.46278     0.19535      
0.81         -0.47282     0.17932      -0.32762     -0.79442     -0.32762     -0.79442     -0.46126     0.20713      
0.82         -0.47179     0.19081      -0.34443     -0.78517     -0.34443     -0.78517     -0.45938     0.21889      
0.83         -0.47043     0.2023       -0.36096     -0.77561     -0.36096     -0.77561     -0.45715     0.23062      
0.84         -0.46874     0.21378      -0.37722     -0.76573     -0.37722     -0.76573     -0.45458     0.24231      
0.85         -0.46672     0.22523      -0.3932      -0.75556     -0.3932      -0.75556     -0.45167     0.25395      
0.86         -0.46437     0.23664      -0.4089      -0.74508     -0.4089      -0.74508     -0.44841     0.26553      
0.87         -0.4617      0.24801      -0.42431     -0.73433     -0.42431     -0.73433     -0.44482     0.27704      
0.88         -0.45871     0.25932      -0.43943     -0.7233      -0.43943     -0.7233      -0.4409      0.28847      
0.89         -0.4554      0.27057      -0.45426     -0.71199     -0.45426     -0.71199     -0.43664     0.29981      
0.9          -0.45178     0.28175      -0.4688      -0.70043     -0.4688      -0.70043     -0.43205     0.31105      
0.91         -0.44784     0.29284      -0.48303     -0.68861     -0.48303     -0.68861     -0.42715     0.32218      
0.92         -0.4436      0.30385      -0.49697     -0.67654     -0.49697     -0.67654     -0.42192     0.3332       
0.93         -0.43904     0.31476      -0.51061     -0.66424     -0.51061     -0.66424     -0.41638     0.34408      
0.94         -0.43419     0.32556      -0.52394     -0.6517      -0.52394     -0.6517      -0.41053     0.35483      
0.95         -0.42904     0.33624      -0.53696     -0.63894     -0.53696     -0.63894     -0.40438     0.36544      
0.96         -0.4236      0.3468       -0.54968     -0.62595     -0.54968     -0.62595     -0.39792     0.37589      
0.97         -0.41786     0.35723      -0.56208     -0.61276     -0.56208     -0.61276     -0.39117     0.38618      
0.98         -0.41185     0.36752      -0.57417     -0.59936     -0.57417     -0.59936     -0.38414     0.3963       
0.99         -0.40555     0.37766      -0.58596     -0.58577     -0.58596     -0.58577     -0.37681     0.40625      
1            -0.39897     0.38765      -0.59742     -0.57199     -0.59742     -0.57199     -0.36922     0.41601      
1.01         -0.39213     0.39748      -0.60857     -0.55802     -0.60857     -0.55802     -0.36135     0.42557      
1.02         -0.38503     0.40714      -0.61941     -0.54388     -0.61941     -0.54388     -0.35321     0.43494      
1.03         -0.37766     0.41662      -0.62992     -0.52956     -0.62992     -0.52956     -0.34481     0.4441       
1.04         -0.37004     0.42593      -0.64012     -0.51508     -0.64012     -0.51508     -0.33617     0.45305      
1.05         -0.36217     0.43504      -0.65        -0.50045     -0.65        -0.50045     -0.32727     0.46178      
1.06         -0.35406     0.44396      -0.65956     -0.48566     -0.65956     -0.48566     -0.31814     0.47029      
1.07         -0.34571     0.45268      -0.6688      -0.47073     -0.6688      -0.47073     -0.30877     0.47856      
1.08         -0.33713     0.4612       -0.67772     -0.45566     -0.67772     -0.45566     -0.29918     0.48659      
1.09         -0.32833     0.4695       -0.68631     -0.44045     -0.68631     -0.44045     -0.28937     0.49438      
1.1          -0.3193      0.47758      -0.69458     -0.42512     -0.69458     -0.42512     -0.27934     0.50192      
1.11         -0.31007     0.48545      -0.70253     -0.40967     -0.70253     -0.40967     -0.26912     0.50921      
1.12         -0.30063     0.49308      -0.71016     -0.3941      -0.71016     -0.3941      -0.25869     0.51624      
1.13         -0.29099     0.50048      -0.71746     -0.37843     -0.71746     -0.37843     -0.24808     0.523        
1.14         -0.28116     0.50764      -0.72444     -0.36265     -0.72444     -0.36265     -0.23728     0.52949      
1.15         -0.27114     0.51457      -0.7311      -0.34677     -0.7311      -0.34677     -0.22631     0.53571      
1.16         -0.26094     0.52124      -0.73744     -0.3308      -0.73744     -0.3308      -0.21518     0.54166      
1.17         -0.25057     0.52766      -0.74345     -0.31475     -0.74345     -0.31475     -0.20388     0.54732      
1.18         -0.24003     0.53383      -0.74913     -0.29861     -0.74913     -0.29861     -0.19243     0.55269      
1.19         -0.22934     0.53974      -0.7545      -0.28239     -0.7545      -0.28239     -0.18084     0.55778      
1.2          -0.21849     0.54538      -0.75954     -0.26611     -0.75954     -0.26611     -0.16912     0.56258      
1.21         -0.2075      0.55076      -0.76425     -0.24976     -0.76425     -0.24976     -0.15726     0.56707      
1.22         -0.19637     0.55587      -0.76865     -0.23335     -0.76865     -0.23335     -0.14529     0.57127      
1.23         -0.18511     0.56071      -0.77272     -0.21688     -0.77272     -0.21688     -0.13321     0.57517      
1.24         -0.17373     0.56527      -0.77647     -0.20037     -0.77647     -0.20037     -0.12102     0.57877      
1.25         -0.16223     0.56955      -0.77989     -0.18381     -0.77989     -0.18381     -0.10874     0.58206      
1.26         -0.15062     0.57356      -0.783       -0.16721     -0.783       -0.16721     -0.096374    0.58504      
1.27         -0.13891     0.57727      -0.78578     -0.15057     -0.78578     -0.15057     -0.083928    0.58771      
1.28         -0.12711     0.5807       -0.78824     -0.13391     -0.78824     -0.13391     -0.071412    0.59007      
1.29         -0.11522     0.58385      -0.79038     -0.11722     -0.79038     -0.11722     -0.058834    0.59211      
1.3          -0.10325     0.5867       -0.7922      -0.10051     -0.7922      -0.10051     -0.046202    0.59384      
1.31         -0.091208    0.58926      -0.79369     -0.08378     -0.79369     -0.08378     -0.033526    0.59526      
1.32         -0.079104    0.59153      -0.79487     -0.067044    -0.79487     -0.067044    -0.020812    0.59635      
1.33         -0.066943    0.59351      -0.79573     -0.050302    -0.79573     -0.050302    -0.0080704   0.59713      
1.34         -0.054734    0.59519      -0.79627     -0.033559    -0.79627     -0.033559    0.0046918    0.59759      
1.35         -0.042483    0.59657      -0.7965      -0.016819    -0.7965      -0.016819    0.017466     0.59774      
1.36         -0.030198    0.59765      -0.7964      -8.8253e-05  -0.7964      -8.8253e-05  0.030244     0.59756      
1.37         -0.017887    0.59843      -0.79599     0.01663      -0.79599     0.01663      0.043017     0.59707      
1.38         -0.0055573   0.59892      -0.79526     0.03333      -0.79526     0.03333      0.055776     0.59626      
1.39         0.0067833    0.59911      -0.79421     0.050008     -0.79421     0.050008     0.068515     0.59513      
1.4          0.019127     0.59899      -0.79285     0.066658     -0.79285     0.066658     0.081224     0.59368      
1.41         0.031467     0.59858      -0.79117     0.083277     -0.79117     0.083277     0.093895     0.59192      
1.42         0.043795     0.59787      -0.78917     0.09986      -0.78917     0.09986      0.10652      0.58984      
1.43         0.056104     0.59686      -0.78687     0.1164       -0.78687     0.1164       0.11909      0.58745      
1.44         0.068386     0.59555      -0.78425     0.1329       -0.78425     0.1329       0.1316       0.58475      
1.45         0.080633     0.59394      -0.78131     0.14934      -0.78131     0.14934      0.14404      0.58174      
1.46         0.092838     0.59204      -0.77807     0.16574      -0.77807     0.16574      0.15639      0.57841      
1.47         0.10499      0.58984      -0.77451     0.18207      -0.77451     0.18207      0.16867      0.57479      
1.48         0.11709      0.58734      -0.77064     0.19834      -0.77064     0.19834      0.18084      0.57085      
1.49         0.12913      0.58456      -0.76647     0.21453      -0.76647     0.21453      0.19292      0.56662      
1.5          0.14109      0.58148      -0.76198     0.23066      -0.76198     0.23066      0.20488      0.56208      
1.51         0.15297      0.57811      -0.75718     0.24671      -0.75718     0.24671      0.21673      0.55725      
1.52         0.16476      0.57445      -0.75208     0.26267      -0.75208     0.26267      0.22845      0.55213      
1.53         0.17646      0.57051      -0.74666     0.27855      -0.74666     0.27855      0.24003      0.54671      
1.54         0.18806      0.56628      -0.74095     0.29434      -0.74095     0.29434      0.25148      0.54101      
1.55         0.19955      0.56178      -0.73492     0.31003      -0.73492     0.31003      0.26277      0.53503      
1.56         0.21093      0.55699      -0.72859     0.32562      -0.72859     0.32562      0.27391      0.52877      
1.57         0.22218      0.55193      -0.72196     0.3411       -0.72196     0.3411       0.28488      0.52223      
1.58         0.2333       0.54659      -0.71502     0.35647      -0.71502     0.35647      0.29568      0.51542      
1.59         0.24428      0.54099      -0.70779     0.37172      -0.70779     0.37172      0.30631      0.50834      
1.6          0.25511      0.53512      -0.70025     0.38686      -0.70025     0.38686      0.31674      0.501        
1.61         0.2658       0.52899      -0.69241     0.40187      -0.69241     0.40187      0.32699      0.4934       
1.62         0.27632      0.5226       -0.68427     0.41674      -0.68427     0.41674      0.33703      0.48555      
1.63         0.28668      0.51595      -0.67583     0.43149      -0.67583     0.43149      0.34687      0.47745      
1.64         0.29687      0.50905      -0.6671      0.44609      -0.6671      0.44609      0.35649      0.46911      
1.65         0.30688      0.5019       -0.65807     0.46054      -0.65807     0.46054      0.36589      0.46054      
1.66         0.3167       0.49452      -0.64874     0.47485      -0.64874     0.47485      0.37507      0.45173      
1.67         0.32633      0.48689      -0.63912     0.489        -0.63912     0.489        0.38401      0.4427       
1.68         0.33576      0.47903      -0.62921     0.50299      -0.62921     0.50299      0.39271      0.43344      
1.69         0.34498      0.47094      -0.61901     0.51681      -0.61901     0.51681      0.40116      0.42398      
1.7          0.354        0.46263      -0.60852     0.53046      -0.60852     0.53046      0.40937      0.4143       
1.71         0.36279      0.4541       -0.59774     0.54393      -0.59774     0.54393      0.41731      0.40443      
1.72         0.37136      0.44536      -0.58667     0.55722      -0.58667     0.55722      0.42499      0.39436      
1.73         0.3797       0.43641      -0.57532     0.57032      -0.57532     0.57032      0.43241      0.38411      
1.74         0.38781      0.42726      -0.56368     0.58323      -0.56368     0.58323      0.43954      0.37367      
1.75         0.39567      0.41791      -0.55176     0.59594      -0.55176     0.59594      0.4464       0.36307      
1.76         0.40328      0.40837      -0.53957     0.60845      -0.53957     0.60845      0.45297      0.3523       
1.77         0.41064      0.39865      -0.52709     0.62075      -0.52709     0.62075      0.45925      0.34137      
1.78         0.41774      0.38876      -0.51434     0.63283      -0.51434     0.63283      0.46523      0.33029      
1.79         0.42458      0.37869      -0.50131     0.64468      -0.50131     0.64468      0.47092      0.31907      
1.8          0.43115      0.36847      -0.48801     0.65631      -0.48801     0.65631      0.4763       0.30772      
1.81         0.43745      0.35808      -0.47444     0.66771      -0.47444     0.66771      0.48137      0.29625      
1.82         0.44346      0.34755      -0.4606      0.67887      -0.4606      0.67887      0.48612      0.28465      
1.83         0.44919      0.33688      -0.4465      0.68978      -0.4465      0.68978      0.49056      0.27295      
1.84         0.45463      0.32607      -0.43214     0.70044      -0.43214     0.70044      0.49468      0.26115      
1.85         0.45978      0.31514      -0.41751     0.71084      -0.41751     0.71084      0.49848      0.24926      
1.86         0.46464      0.30409      -0.40263     0.72097      -0.40263     0.72097      0.50194      0.23728      
1.87         0.46919      0.29292      -0.38749     0.73084      -0.38749     0.73084      0.50508      0.22524      
1.88         0.47344      0.28166      -0.3721      0.74043      -0.3721      0.74043      0.50788      0.21313      
1.89         0.47737      0.2703       -0.35646     0.74973      -0.35646     0.74973      0.51035      0.20097      
1.9          0.481        0.25886      -0.34058     0.75875      -0.34058     0.75875      0.51248      0.18877      
1.91         0.48431      0.24734      -0.32446     0.76747      -0.32446     0.76747      0.51426      0.17653      
1.92         0.4873       0.23576      -0.3081      0.77588      -0.3081      0.77588      0.51571      0.16427      
1.93         0.48997      0.22411      -0.2915      0.78399      -0.2915      0.78399      0.51681      0.15199      
1.94         0.49232      0.21242      -0.27467     0.79177      -0.27467     0.79177      0.51757      0.13971      
1.95         0.49434      0.20068      -0.25762     0.79924      -0.25762     0.79924      0.51798      0.12744      
1.96         0.49603      0.18892      -0.24035     0.80637      -0.24035     0.80637      0.51804      0.11518      
1.97         0.49739      0.17713      -0.22286     0.81317      -0.22286     0.81317      0.51776      0.10296      
1.98         0.49842      0.16534      -0.20516     0.81963      -0.20516     0.81963      0.51713      0.090766     
1.99         0.49911      0.15354      -0.18725     0.82573      -0.18725     0.82573      0.51615      0.078625     
2            0.49947      0.14175      -0.16913     0.83147      -0.16913     0.83147      0.51482      0.066544     
2.01         0.4995       0.12998      -0.15082     0.83685      -0.15082     0.83685      0.51315      0.054532     
2.02         0.49919      0.11824      -0.13232     0.84186      -0.13232     0.84186      0.51114      0.042603     
2.03         0.49854      0.10654      -0.11364     0.84649      -0.11364     0.84649      0.50878      0.030765     
2.04         0.49756      0.094887     -0.094771    0.85073      -0.094771    0.85073      0.50608      0.019031     
2.05         0.49624      0.083296     -0.075732    0.85458      -0.075732    0.85458      0.50304      0.0074105    
2.06         0.49459      0.071775     -0.056527    0.85803      -0.056527    0.85803      0.49966      -0.0040841   
2.07         0.4926       0.060336     -0.037163    0.86107      -0.037163    0.86107      0.49595      -0.015442    
2.08         0.49028      0.04899      -0.017646    0.86369      -0.017646    0.86369      0.49191      -0.026653    
2.09         0.48763      0.037746     0.0020153    0.8659       0.0020153    0.8659       0.48755      -0.037704    
2.1          0.48466      0.026617     0.021814     0.86767      0.021814     0.86767      0.48286      -0.048586    
2.11         0.48135      0.015613     0.041742     0.86902      0.041742     0.86902      0.47785      -0.059287    
2.12         0.47772      0.0047452    0.061791     0.86991      0.061791     0.86991      0.47253      -0.069796    
2.13         0.47378      -0.0059757   0.081952     0.87036      0.081952     0.87036      0.4669       -0.080102    
2.14         0.46951      -0.016539    0.10222      0.87036      0.10222      0.87036      0.46097      -0.090194    
2.15         0.46494      -0.026932    0.12257      0.86989      0.12257      0.86989      0.45475      -0.10006     
