!freq-unit  param-type  data-format  keyword  impedance-ohms
# GHZ           S          RI           R         50
!-----------------------------------------------------------------------------
!Freq          ReS11        ImS11        ReS21        ImS21        ReS12        ImS12        ReS22        ImS22
0.5          -0.33428     -0.10746     0.2994       -0.88452     0.2994       -0.88452     -0.33124     -0.11655     
0.51         -0.34203     -0.10091     0.27756      -0.88941     0.27756      -0.88941     -0.33911     -0.1104      
0.52         -0.34958     -0.094042    0.2557       -0.89374     0.2557       -0.89374     -0.34679     -0.10393     
0.53         -0.35693     -0.086869    0.23383      -0.89752     0.23383      -0.89752     -0.35428     -0.09717     
0.54         -0.36405     -0.079399    0.21197      -0.90075     0.21197      -0.90075     -0.36157     -0.090111    
0.55         -0.37094     -0.07164     0.19013      -0.90343     0.19013      -0.90343     -0.36864     -0.082764    
0.56         -0.37759     -0.063603    0.16833      -0.90558     0.16833      -0.90558     -0.37549     -0.075139    
0.57         -0.38399     -0.055296    0.14658      -0.90719     0.14658      -0.90719     -0.3821      -0.067245    
0.58         -0.39014     -0.046729    0.12488      -0.90827     0.12488      -0.90827     -0.38848     -0.05909     
0.59         -0.39601     -0.037913    0.10326      -0.90883     0.10326      -0.90883     -0.39461     -0.050685    
0.6          -0.40162     -0.028857    0.081727     -0.90887     0.081727     -0.90887     -0.40048     -0.042038    
0.61         -0.40694     -0.019573    0.060291     -0.9084      0.060291     -0.9084      -0.40609     -0.03316     
0.62         -0.41197     -0.01007     0.038966     -0.90743     0.038966     -0.90743     -0.41142     -0.024061    
0.63         -0.41671     -0.00035965  0.017761     -0.90596     0.017761     -0.90596     -0.41648     -0.01475     
0.64         -0.42115     0.0095472    -0.0033113   -0.904       -0.0033113   -0.904       -0.42125     -0.0052377   
0.65         -0.42528     0.01964      -0.024241    -0.90156     -0.024241    -0.90156     -0.42574     0.0044656    
0.66         -0.4291      0.029907     -0.045018    -0.89864     -0.045018    -0.89864     -0.42993     0.014349     
0.67         -0.4326      0.040337     -0.065632    -0.89526     -0.065632    -0.89526     -0.43382     0.024403     
0.68         -0.43578     0.05092      -0.086074    -0.89141     -0.086074    -0.89141     -0.43741     0.034617     
0.69         -0.43864     0.061643     -0.10633     -0.88712     -0.10633     -0.88712     -0.44069     0.044979     
0.7          -0.44116     0.072496     -0.1264      -0.88238     -0.1264      -0.88238     -0.44365     0.05548      
0.71         -0.44335     0.083467     -0.14627     -0.8772      -0.14627     -0.8772      -0.4463      0.066108     
0.72         -0.44521     0.094545     -0.16594     -0.8716      -0.16594     -0.8716      -0.44863     0.076853     
0.73         -0.44673     0.10572      -0.18539     -0.86558     -0.18539     -0.86558     -0.45065     0.087705     
0.74         -0.44791     0.11698      -0.20461     -0.85914     -0.20461     -0.85914     -0.45233     0.098652     
0.75         -0.44875     0.12831      -0.22361     -0.8523      -0.22361     -0.8523      -0.45369     0.10968      
0.76         -0.44924     0.1397       -0.24237     -0.84507     -0.24237     -0.84507     -0.45473     0.12079      
0.77         -0.4494      0.15114      -0.26088     -0.83745     -0.26088     -0.83745     -0.45543     0.13196      
0.78         -0.4492      0.16262      -0.27914     -0.82945     -0.27914     -0.82945     -0.45581     0.14319      
0.79         -0.44867     0.17414      -0.29715     -0.82109     -0.29715     -0.82109     -0.45586     0.15445      
0.8          -0.44779     0.18566      -0.3149      -0.81236     -0.3149      -0.81236     -0.45557     0.16575      
0.81         -0.44657     0.1972       -0.33237     -0.80328     -0.33237     -0.80328     -0.45496     0.17707      
0.82         -0.445       0.20873      -0.34958     -0.79385     -0.34958     -0.79385     -0.45402     0.18841      
0.83         -0.44309     0.22025      -0.3665      -0.78409     -0.3665      -0.78409     -0.45275     0.19974      
0.84         -0.44084     0.23174      -0.38314     -0.77401     -0.38314     -0.77401     -0.45115     0.21107      
0.85         -0.43826     0.24319      -0.3995      -0.7636      -0.3995      -0.7636      -0.44922     0.22238      
0.86         -0.43533     0.2546       -0.41556     -0.75288     -0.41556     -0.75288     -0.44697     0.23367      
0.87         -0.43208     0.26596      -0.43133     -0.74186     -0.43133     -0.74186     -0.44439     0.24491      
0.88         -0.42849     0.27725      -0.44679     -0.73055     -0.44679     -0.73055     -0.4415      0.25611      
0.89         -0.42457     0.28846      -0.46195     -0.71895     -0.46195     -0.71895     -0.43828     0.26725      
0.9          -0.42033     0.29959      -0.47681     -0.70707     -0.47681     -0.70707     -0.43475     0.27833      
0.91         -0.41577     0.31062      -0.49135     -0.69492     -0.49135     -0.69492     -0.4309      0.28933      
0.92         -0.41089     0.32155      -0.50558     -0.68251     -0.50558     -0.68251     -0.42675     0.30025      
0.93         -0.40569     0.33236      -0.51949     -0.66985     -0.51949     -0.66985     -0.42229     0.31108      
0.94         -0.40018     0.34306      -0.53308     -0.65694     -0.53308     -0.65694     -0.41752     0.32181      
0.95         -0.39437     0.35362      -0.54635     -0.6438      -0.54635     -0.6438      -0.41245     0.33243      
0.96         -0.38826     0.36405      -0.5593      -0.63042     -0.5593      -0.63042     -0.40709     0.34293      
0.97         -0.38185     0.37432      -0.57191     -0.61682     -0.57191     -0.61682     -0.40144     0.3533       
0.98         -0.37515     0.38444      -0.5842      -0.60301     -0.5842      -0.60301     -0.39549     0.36355      
0.99         -0.36816     0.3944       -0.59616     -0.58899     -0.59616     -0.58899     -0.38927     0.37365      
1            -0.36089     0.40418      -0.60779     -0.57478     -0.60779     -0.57478     -0.38277     0.3836       
1.01         -0.35335     0.41379      -0.61908     -0.56037     -0.61908     -0.56037     -0.37599     0.3934       
1.02         -0.34554     0.4232       -0.63004     -0.54577     -0.63004     -0.54577     -0.36894     0.40303      
1.03         -0.33746     0.43243      -0.64066     -0.531       -0.64066     -0.531       -0.36163     0.41249      
1.04         -0.32913     0.44145      -0.65094     -0.51606     -0.65094     -0.51606     -0.35407     0.42178      
1.05         -0.32054     0.45027      -0.66088     -0.50096     -0.66088     -0.50096     -0.34625     0.43088      
1.06         -0.31171     0.45887      -0.67049     -0.4857      -0.67049     -0.4857      -0.33818     0.43979      
1.07         -0.30264     0.46725      -0.67975     -0.4703      -0.67975     -0.4703      -0.32987     0.4485       
1.08         -0.29334     0.4754       -0.68867     -0.45475     -0.68867     -0.45475     -0.32133     0.45701      
1.09         -0.28381     0.48332      -0.69725     -0.43907     -0.69725     -0.43907     -0.31256     0.46531      
1.1          -0.27406     0.491        -0.70548     -0.42326     -0.70548     -0.42326     -0.30356     0.47339      
1.11         -0.26411     0.49844      -0.71337     -0.40733     -0.71337     -0.40733     -0.29435     0.48126      
1.12         -0.25395     0.50563      -0.72092     -0.39129     -0.72092     -0.39129     -0.28493     0.4889       
1.13         -0.24359     0.51256      -0.72813     -0.37514     -0.72813     -0.37514     -0.2753      0.49631      
1.14         -0.23304     0.51923      -0.73499     -0.35889     -0.73499     -0.35889     -0.26548     0.50348      
1.15         -0.22231     0.52564      -0.7415      -0.34254     -0.7415      -0.34254     -0.25547     0.51041      
1.16         -0.21141     0.53178      -0.74768     -0.32611     -0.74768     -0.32611     -0.24527     0.5171       
1.17         -0.20033     0.53765      -0.75351     -0.30959     -0.75351     -0.30959     -0.23489     0.52354      
1.18         -0.1891      0.54324      -0.75899     -0.293       -0.75899     -0.293       -0.22435     0.52972      
1.19         -0.17772     0.54855      -0.76413     -0.27634     -0.76413     -0.27634     -0.21364     0.53564      
1.2          -0.16619     0.55357      -0.76893     -0.25962     -0.76893     -0.25962     -0.20277     0.5413       
1.21         -0.15452     0.55831      -0.77339     -0.24284     -0.77339     -0.24284     -0.19176     0.5467       
1.22         -0.14273     0.56275      -0.7775      -0.22601     -0.7775      -0.22601     -0.1806      0.55183      
1.23         -0.13082     0.5669       -0.78127     -0.20914     -0.78127     -0.20914     -0.16931     0.55668      
1.24         -0.11879     0.57076      -0.78471     -0.19222     -0.78471     -0.19222     -0.15789     0.56126      
1.25         -0.10666     0.57431      -0.7878      -0.17527     -0.7878      -0.17527     -0.14635     0.56556      
1.26         -0.094429    0.57756      -0.79055     -0.1583      -0.79055     -0.1583      -0.1347      0.56958      
1.27         -0.082112    0.58051      -0.79296     -0.1413      -0.79296     -0.1413      -0.12294     0.57332      
1.28         -0.069715    0.58315      -0.79503     -0.12429     -0.79503     -0.12429     -0.11108     0.57676      
1.29         -0.057245    0.58549      -0.79677     -0.10727     -0.79677     -0.10727     -0.099139    0.57993      
1.3          -0.044711    0.58751      -0.79817     -0.090242    -0.79817     -0.090242    -0.08711     0.5828       
1.31         -0.032121    0.58922      -0.79923     -0.073216    -0.79923     -0.073216    -0.075006    0.58537      
1.32         -0.019484    0.59063      -0.79996     -0.056195    -0.79996     -0.056195    -0.062834    0.58766      
1.33         -0.0068067   0.59171      -0.80036     -0.039187    -0.80036     -0.039187    -0.050601    0.58965      
1.34         0.005902     0.59249      -0.80042     -0.022196    -0.80042     -0.022196    -0.038316    0.59134      
1.35         0.018634     0.59295      -0.80016     -0.0052266   -0.80016     -0.0052266   -0.025986    0.59274      
1.36         0.031381     0.5931       -0.79956     0.011715     -0.79956     0.011715     -0.013619    0.59383      
1.37         0.044135     0.59293      -0.79863     0.028623     -0.79863     0.028623     -0.0012215   0.59463      
1.38         0.056887     0.59245      -0.79738     0.045493     -0.79738     0.045493     0.011198     0.59513      
1.39         0.069631     0.59165      -0.7958      0.06232      -0.7958      0.06232      0.023632     0.59533      
1.4          0.082357     0.59054      -0.79389     0.079098     -0.79389     0.079098     0.036073     0.59523      
1.41         0.095057     0.58912      -0.79167     0.095823     -0.79167     0.095823     0.048514     0.59483      
1.42         0.10772      0.58738      -0.78911     0.11249      -0.78911     0.11249      0.060946     0.59412      
1.43         0.12035      0.58533      -0.78624     0.12909      -0.78624     0.12909      0.073363     0.59312      
1.44         0.13292      0.58298      -0.78305     0.14562      -0.78305     0.14562      0.085756     0.59182      
1.45         0.14544      0.58031      -0.77954     0.16208      -0.77954     0.16208      0.098119     0.59023      
1.46         0.15789      0.57734      -0.77571     0.17846      -0.77571     0.17846      0.11044      0.58833      
1.47         0.17027      0.57406      -0.77157     0.19476      -0.77157     0.19476      0.12272      0.58614      
1.48         0.18257      0.57048      -0.76712     0.21097      -0.76712     0.21097      0.13495      0.58365      
1.49         0.19478      0.5666       -0.76235     0.22709      -0.76235     0.22709      0.14711      0.58087      
1.5          0.20689      0.56242      -0.75728     0.2431       -0.75728     0.2431       0.15921      0.5778       
1.51         0.2189       0.55795      -0.75189     0.25902      -0.75189     0.25902      0.17123      0.57444      
1.52         0.23079      0.55318      -0.7462      0.27482      -0.7462      0.27482      0.18317      0.57079      
1.53         0.24257      0.54812      -0.74021     0.29051      -0.74021     0.29051      0.19502      0.56686      
1.54         0.25422      0.54277      -0.73391     0.30609      -0.73391     0.30609      0.20677      0.56264      
1.55         0.26574      0.53714      -0.72731     0.32154      -0.72731     0.32154      0.21841      0.55814      
1.56         0.27711      0.53123      -0.72041     0.33687      -0.72041     0.33687      0.22995      0.55336      
1.57         0.28833      0.52504      -0.71322     0.35206      -0.71322     0.35206      0.24137      0.5483       
1.58         0.2994       0.51858      -0.70573     0.36712      -0.70573     0.36712      0.25266      0.54297      
1.59         0.31031      0.51186      -0.69794     0.38203      -0.69794     0.38203      0.26382      0.53737      
1.6          0.32105      0.50486      -0.68987     0.3968       -0.68987     0.3968       0.27484      0.53151      
1.61         0.33161      0.49761      -0.6815      0.41142      -0.6815      0.41142      0.28571      0.52538      
1.62         0.34198      0.4901       -0.67285     0.42588      -0.67285     0.42588      0.29644      0.519        
1.63         0.35217      0.48233      -0.66391     0.44018      -0.66391     0.44018      0.307        0.51235      
1.64         0.36216      0.47433      -0.65469     0.45432      -0.65469     0.45432      0.3174       0.50546      
1.65         0.37195      0.46608      -0.64519     0.46829      -0.64519     0.46829      0.32762      0.49832      
1.66         0.38152      0.45759      -0.63541     0.48208      -0.63541     0.48208      0.33767      0.49093      
1.67         0.39088      0.44887      -0.62535     0.49569      -0.62535     0.49569      0.34753      0.48331      
1.68         0.40002      0.43993      -0.61502     0.50912      -0.61502     0.50912      0.3572       0.47545      
1.69         0.40894      0.43077      -0.60442     0.52236      -0.60442     0.52236      0.36667      0.46736      
1.7          0.41761      0.42139      -0.59355     0.5354       -0.59355     0.5354       0.37595      0.45905      
1.71         0.42605      0.41181      -0.58242     0.54825      -0.58242     0.54825      0.38501      0.45051      
1.72         0.43425      0.40202      -0.57101     0.5609       -0.57101     0.5609       0.39385      0.44176      
1.73         0.44219      0.39204      -0.55935     0.57333      -0.55935     0.57333      0.40248      0.43281      
1.74         0.44988      0.38187      -0.54743     0.58556      -0.54743     0.58556      0.41088      0.42365      
1.75         0.45731      0.37151      -0.53526     0.59756      -0.53526     0.59756      0.41905      0.41429      
1.76         0.46447      0.36098      -0.52283     0.60935      -0.52283     0.60935      0.42698      0.40474      
1.77         0.47136      0.35028      -0.51015     0.6209       -0.51015     0.6209       0.43467      0.395        
1.78         0.47798      0.33942      -0.49722     0.63223      -0.49722     0.63223      0.44211      0.38508      
1.79         0.48431      0.3284       -0.48405     0.64332      -0.48405     0.64332      0.4493       0.37499      
1.8          0.49036      0.31724      -0.47064     0.65416      -0.47064     0.65416      0.45624      0.36473      
1.81         0.49613      0.30593      -0.45698     0.66476      -0.45698     0.66476      0.46291      0.35431      
1.82         0.5016       0.29449      -0.4431      0.67511      -0.4431      0.67511      0.46932      0.34373      
1.83         0.50677      0.28293      -0.42898     0.6852       -0.42898     0.6852       0.47545      0.33301      
1.84         0.51164      0.27125      -0.41463     0.69503      -0.41463     0.69503      0.48131      0.32215      
1.85         0.51621      0.25946      -0.40006     0.7046       -0.40006     0.7046       0.48689      0.31115      
1.86         0.52047      0.24757      -0.38527     0.71389      -0.38527     0.71389      0.49219      0.30002      
1.87         0.52443      0.23558      -0.37026     0.72291      -0.37026     0.72291      0.49721      0.28878      
1.88         0.52807      0.22351      -0.35503     0.73165      -0.35503     0.73165      0.50193      0.27743      
1.89         0.53139      0.21137      -0.3396      0.7401       -0.3396      0.7401       0.50636      0.26597      
1.9          0.53439      0.19915      -0.32396     0.74826      -0.32396     0.74826      0.51049      0.25441      
1.91         0.53708      0.18688      -0.30811     0.75612      -0.30811     0.75612      0.51432      0.24277      
1.92         0.53944      0.17455      -0.29207     0.76369      -0.29207     0.76369      0.51785      0.23104      
1.93         0.54148      0.16219      -0.27584     0.77095      -0.27584     0.77095      0.52107      0.21924      
1.94         0.54319      0.14979      -0.25941     0.77789      -0.25941     0.77789      0.52399      0.20738      
1.95         0.54457      0.13736      -0.2428      0.78452      -0.2428      0.78452      0.5266       0.19546      
1.96         0.54562      0.12492      -0.22601     0.79083      -0.22601     0.79083      0.52889      0.18349      
1.97         0.54635      0.11248      -0.20904     0.79681      -0.20904     0.79681      0.53087      0.17149      
1.98         0.54674      0.10004      -0.1919      0.80247      -0.1919      0.80247      0.53253      0.15945      
1.99         0.5468       0.087609     -0.17459     0.80778      -0.17459     0.80778      0.53388      0.14739      
2            0.54653      0.075203     -0.15713     0.81276      -0.15713     0.81276      0.5349       0.13532      
2.01         0.54593      0.062829     -0.1395      0.81738      -0.1395      0.81738      0.53561      0.12324      
2.02         0.54499      0.050496     -0.12173     0.82166      -0.12173     0.82166      0.53599      0.11117      
2.03         0.54373      0.038214     -0.10381     0.82558      -0.10381     0.82558      0.53606      0.099113     
2.04         0.54214      0.025992     -0.085755    0.82914      -0.085755    0.82914      0.5358       0.087078     
2.05         0.54021      0.01384      -0.067564    0.83233      -0.067564    0.83233      0.53522      0.075074     
2.06         0.53796      0.0017672    -0.049246    0.83515      -0.049246    0.83515      0.53433      0.063112     
2.07         0.53539      -0.010216    -0.030807    0.83759      -0.030807    0.83759      0.5331       0.0512       
2.08         0.53249      -0.0221      -0.012253    0.83966      -0.012253    0.83966      0.53156      0.039348     
2.09         0.52926      -0.033875    0.0064099    0.84133      0.0064099    0.84133      0.5297       0.027566     
2.1          0.52572      -0.045531    0.025174     0.84262      0.025174     0.84262      0.52753      0.015862     
2.11         0.52187      -0.057059    0.044033     0.84351      0.044033     0.84351      0.52503      0.0042462    
2.12         0.5177       -0.068449    0.062979     0.844        0.062979     0.844        0.52222      -0.0072715   
2.13         0.51322      -0.079691    0.082005     0.84408      0.082005     0.84408      0.5191       -0.018682    
2.14         0.50843      -0.090775    0.1011       0.84376      0.1011       0.84376      0.51567      -0.029975    
2.15         0.50334      -0.10169     0.12027      0.84302      0.12027      0.84302      0.51193      -0.041142    
