!freq-unit  param-type  data-format  keyword  impedance-ohms
# GHZ           S          RI           R         50
!-----------------------------------------------------------------------------
!Freq          ReS11        ImS11        ReS21        ImS21        ReS12        ImS12        ReS22        ImS22
0.5          -0.45274     -0.14306     0.26585      -0.83627     0.26585      -0.83627     -0.45274     -0.14306     
0.51         -0.46241     -0.13439     0.2453       -0.83867     0.2453       -0.83867     -0.46241     -0.13439     
0.52         -0.4718      -0.12535     0.22485      -0.84055     0.22485      -0.84055     -0.4718      -0.12535     
0.53         -0.48089     -0.11597     0.20453      -0.84191     0.20453      -0.84191     -0.48089     -0.11597     
0.54         -0.48967     -0.10625     0.18434      -0.84278     0.18434      -0.84278     -0.48967     -0.10625     
0.55         -0.49814     -0.096216    0.16429      -0.84314     0.16429      -0.84314     -0.49814     -0.096216    
0.56         -0.50629     -0.085872    0.1444       -0.84303     0.1444       -0.84303     -0.50629     -0.085872    
0.57         -0.5141      -0.075236    0.12467      -0.84244     0.12467      -0.84244     -0.5141      -0.075236    
0.58         -0.52158     -0.06432     0.10512      -0.8414      0.10512      -0.8414      -0.52158     -0.06432     
0.59         -0.52871     -0.053138    0.085755     -0.8399      0.085755     -0.8399      -0.52871     -0.053138    
0.6          -0.53549     -0.041705    0.066582     -0.83797     0.066582     -0.83797     -0.53549     -0.041705    
0.61         -0.54191     -0.030034    0.04761      -0.83561     0.04761      -0.83561     -0.54191     -0.030034    
0.62         -0.54797     -0.018139    0.028847     -0.83284     0.028847     -0.83284     -0.54797     -0.018139    
0.63         -0.55366     -0.0060333   0.010301     -0.82966     0.010301     -0.82966     -0.55366     -0.0060333   
0.64         -0.55899     0.0062689    -0.0080215   -0.82609     -0.0080215   -0.82609     -0.55899     0.0062689    
0.65         -0.56393     0.018754     -0.026115    -0.82213     -0.026115    -0.82213     -0.56393     0.018754     
0.66         -0.56851     0.03141      -0.043973    -0.81781     -0.043973    -0.81781     -0.56851     0.03141      
0.67         -0.5727      0.044222     -0.061591    -0.81312     -0.061591    -0.81312     -0.5727      0.044222     
0.68         -0.57651     0.057177     -0.078963    -0.80809     -0.078963    -0.80809     -0.57651     0.057177     
0.69         -0.57994     0.070263     -0.096086    -0.80271     -0.096086    -0.80271     -0.57994     0.070263     
0.7          -0.58298     0.083466     -0.11295     -0.79701     -0.11295     -0.79701     -0.58298     0.083466     
0.71         -0.58564     0.096774     -0.12956     -0.79098     -0.12956     -0.79098     -0.58564     0.096774     
0.72         -0.58792     0.11017      -0.14591     -0.78465     -0.14591     -0.78465     -0.58792     0.11017      
0.73         -0.5898      0.12366      -0.162       -0.77803     -0.162       -0.77803     -0.5898      0.12366      
0.74         -0.59131     0.1372       -0.17782     -0.77111     -0.17782     -0.77111     -0.59131     0.1372       
0.75         -0.59243     0.15081      -0.19336     -0.76391     -0.19336     -0.76391     -0.59243     0.15081      
0.76         -0.59317     0.16446      -0.20864     -0.75645     -0.20864     -0.75645     -0.59317     0.16446      
0.77         -0.59353     0.17814      -0.22364     -0.74873     -0.22364     -0.74873     -0.59353     0.17814      
0.78         -0.59351     0.19185      -0.23837     -0.74076     -0.23837     -0.74076     -0.59351     0.19185      
0.79         -0.59311     0.20556      -0.25282     -0.73254     -0.25282     -0.73254     -0.59311     0.20556      
0.8          -0.59233     0.21928      -0.267       -0.7241      -0.267       -0.7241      -0.59233     0.21928      
0.81         -0.59119     0.23298      -0.28089     -0.71543     -0.28089     -0.71543     -0.59119     0.23298      
0.82         -0.58967     0.24667      -0.29451     -0.70654     -0.29451     -0.70654     -0.58967     0.24667      
0.83         -0.58779     0.26032      -0.30784     -0.69745     -0.30784     -0.69745     -0.58779     0.26032      
0.84         -0.58554     0.27393      -0.3209      -0.68816     -0.3209      -0.68816     -0.58554     0.27393      
0.85         -0.58294     0.28749      -0.33368     -0.67868     -0.33368     -0.67868     -0.58294     0.28749      
0.86         -0.57997     0.30099      -0.34617     -0.66902     -0.34617     -0.66902     -0.57997     0.30099      
0.87         -0.57666     0.31442      -0.35839     -0.65918     -0.35839     -0.65918     -0.57666     0.31442      
0.88         -0.573       0.32778      -0.37033     -0.64918     -0.37033     -0.64918     -0.573       0.32778      
0.89         -0.56899     0.34104      -0.38199     -0.63901     -0.38199     -0.63901     -0.56899     0.34104      
0.9          -0.56465     0.35421      -0.39337     -0.62869     -0.39337     -0.62869     -0.56465     0.35421      
0.91         -0.55997     0.36728      -0.40447     -0.61823     -0.40447     -0.61823     -0.55997     0.36728      
0.92         -0.55496     0.38023      -0.4153      -0.60762     -0.4153      -0.60762     -0.55496     0.38023      
0.93         -0.54963     0.39307      -0.42585     -0.59689     -0.42585     -0.59689     -0.54963     0.39307      
0.94         -0.54397     0.40578      -0.43613     -0.58602     -0.43613     -0.58602     -0.54397     0.40578      
0.95         -0.538       0.41835      -0.44614     -0.57504     -0.44614     -0.57504     -0.538       0.41835      
0.96         -0.53172     0.43078      -0.45587     -0.56394     -0.45587     -0.56394     -0.53172     0.43078      
0.97         -0.52513     0.44306      -0.46533     -0.55274     -0.46533     -0.55274     -0.52513     0.44306      
0.98         -0.51825     0.45519      -0.47452     -0.54143     -0.47452     -0.54143     -0.51825     0.45519      
0.99         -0.51107     0.46715      -0.48345     -0.53002     -0.48345     -0.53002     -0.51107     0.46715      
1            -0.5036      0.47894      -0.49211     -0.51853     -0.49211     -0.51853     -0.5036      0.47894      
1.01         -0.49585     0.49056      -0.5005      -0.50695     -0.5005      -0.50695     -0.49585     0.49056      
1.02         -0.48783     0.502        -0.50864     -0.49529     -0.50864     -0.49529     -0.48783     0.502        
1.03         -0.47953     0.51325      -0.51651     -0.48355     -0.51651     -0.48355     -0.47953     0.51325      
1.04         -0.47097     0.52431      -0.52412     -0.47174     -0.52412     -0.47174     -0.47097     0.52431      
1.05         -0.46215     0.53517      -0.53147     -0.45987     -0.53147     -0.45987     -0.46215     0.53517      
1.06         -0.45307     0.54583      -0.53857     -0.44793     -0.53857     -0.44793     -0.45307     0.54583      
1.07         -0.44375     0.55628      -0.54541     -0.43594     -0.54541     -0.43594     -0.44375     0.55628      
1.08         -0.43419     0.56652      -0.55201     -0.4239      -0.55201     -0.4239      -0.43419     0.56652      
1.09         -0.42439     0.57654      -0.55835     -0.41181     -0.55835     -0.41181     -0.42439     0.57654      
1.1          -0.41436     0.58633      -0.56444     -0.39967     -0.56444     -0.39967     -0.41436     0.58633      
1.11         -0.40411     0.5959       -0.57029     -0.3875      -0.57029     -0.3875      -0.40411     0.5959       
1.12         -0.39364     0.60524      -0.57589     -0.37529     -0.57589     -0.37529     -0.39364     0.60524      
1.13         -0.38296     0.61435      -0.58125     -0.36305     -0.58125     -0.36305     -0.38296     0.61435      
1.14         -0.37208     0.62322      -0.58637     -0.35078     -0.58637     -0.35078     -0.37208     0.62322      
1.15         -0.361       0.63184      -0.59125     -0.33849     -0.59125     -0.33849     -0.361       0.63184      
1.16         -0.34973     0.64022      -0.59589     -0.32617     -0.59589     -0.32617     -0.34973     0.64022      
1.17         -0.33828     0.64835      -0.6003      -0.31384     -0.6003      -0.31384     -0.33828     0.64835      
1.18         -0.32664     0.65623      -0.60447     -0.3015      -0.60447     -0.3015      -0.32664     0.65623      
1.19         -0.31483     0.66385      -0.60842     -0.28915     -0.60842     -0.28915     -0.31483     0.66385      
1.2          -0.30286     0.67122      -0.61213     -0.27679     -0.61213     -0.27679     -0.30286     0.67122      
1.21         -0.29072     0.67832      -0.61562     -0.26442     -0.61562     -0.26442     -0.29072     0.67832      
1.22         -0.27843     0.68516      -0.61888     -0.25206     -0.61888     -0.25206     -0.27843     0.68516      
1.23         -0.266       0.69174      -0.62192     -0.2397      -0.62192     -0.2397      -0.266       0.69174      
1.24         -0.25342     0.69805      -0.62474     -0.22734     -0.62474     -0.22734     -0.25342     0.69805      
1.25         -0.24071     0.70408      -0.62734     -0.21499     -0.62734     -0.21499     -0.24071     0.70408      
1.26         -0.22787     0.70985      -0.62972     -0.20265     -0.62972     -0.20265     -0.22787     0.70985      
1.27         -0.2149      0.71534      -0.63189     -0.19033     -0.63189     -0.19033     -0.2149      0.71534      
1.28         -0.20183     0.72056      -0.63384     -0.17802     -0.63384     -0.17802     -0.20183     0.72056      
1.29         -0.18864     0.72549      -0.63558     -0.16573     -0.63558     -0.16573     -0.18864     0.72549      
1.3          -0.17535     0.73015      -0.63711     -0.15346     -0.63711     -0.15346     -0.17535     0.73015      
1.31         -0.16196     0.73453      -0.63843     -0.14122     -0.63843     -0.14122     -0.16196     0.73453      
1.32         -0.14848     0.73863      -0.63955     -0.129       -0.63955     -0.129       -0.14848     0.73863      
1.33         -0.13492     0.74244      -0.64046     -0.11681     -0.64046     -0.11681     -0.13492     0.74244      
1.34         -0.12128     0.74597      -0.64117     -0.10465     -0.64117     -0.10465     -0.12128     0.74597      
1.35         -0.10756     0.74921      -0.64168     -0.092529    -0.64168     -0.092529    -0.10756     0.74921      
1.36         -0.093781    0.75217      -0.64199     -0.080439    -0.64199     -0.080439    -0.093781    0.75217      
1.37         -0.079942    0.75485      -0.6421      -0.068387    -0.6421      -0.068387    -0.079942    0.75485      
1.38         -0.066048    0.75723      -0.64202     -0.056375    -0.64202     -0.056375    -0.066048    0.75723      
1.39         -0.052107    0.75933      -0.64174     -0.044404    -0.64174     -0.044404    -0.052107    0.75933      
1.4          -0.038125    0.76115      -0.64127     -0.032478    -0.64127     -0.032478    -0.038125    0.76115      
1.41         -0.024107    0.76267      -0.64061     -0.020597    -0.64061     -0.020597    -0.024107    0.76267      
1.42         -0.010059    0.76391      -0.63977     -0.0087633   -0.63977     -0.0087633   -0.010059    0.76391      
1.43         0.0040116    0.76486      -0.63873     0.0030203    -0.63873     0.0030203    0.0040116    0.76486      
1.44         0.0181       0.76552      -0.63751     0.014752     -0.63751     0.014752     0.0181       0.76552      
1.45         0.0322       0.76589      -0.6361      0.026431     -0.6361      0.026431     0.0322       0.76589      
1.46         0.046305     0.76598      -0.63452     0.038054     -0.63452     0.038054     0.046305     0.76598      
1.47         0.060411     0.76578      -0.63275     0.049621     -0.63275     0.049621     0.060411     0.76578      
1.48         0.07451      0.7653       -0.6308      0.061129     -0.6308      0.061129     0.07451      0.7653       
1.49         0.088597     0.76453      -0.62867     0.072576     -0.62867     0.072576     0.088597     0.76453      
1.5          0.10267      0.76348      -0.62637     0.083961     -0.62637     0.083961     0.10267      0.76348      
1.51         0.11671      0.76214      -0.6239      0.095282     -0.6239      0.095282     0.11671      0.76214      
1.52         0.13073      0.76052      -0.62125     0.10654      -0.62125     0.10654      0.13073      0.76052      
1.53         0.14471      0.75862      -0.61843     0.11773      -0.61843     0.11773      0.14471      0.75862      
1.54         0.15865      0.75643      -0.61544     0.12885      -0.61544     0.12885      0.15865      0.75643      
1.55         0.17255      0.75397      -0.61228     0.1399       -0.61228     0.1399       0.17255      0.75397      
1.56         0.1864       0.75123      -0.60895     0.15087      -0.60895     0.15087      0.1864       0.75123      
1.57         0.20018      0.74821      -0.60545     0.16178      -0.60545     0.16178      0.20018      0.74821      
1.58         0.21391      0.74492      -0.6018      0.17261      -0.6018      0.17261      0.21391      0.74492      
1.59         0.22756      0.74136      -0.59798     0.18336      -0.59798     0.18336      0.22756      0.74136      
1.6          0.24115      0.73752      -0.59399     0.19403      -0.59399     0.19403      0.24115      0.73752      
1.61         0.25465      0.73341      -0.58985     0.20463      -0.58985     0.20463      0.25465      0.73341      
1.62         0.26807      0.72904      -0.58555     0.21514      -0.58555     0.21514      0.26807      0.72904      
1.63         0.28141      0.72439      -0.58109     0.22558      -0.58109     0.22558      0.28141      0.72439      
1.64         0.29464      0.71949      -0.57647     0.23592      -0.57647     0.23592      0.29464      0.71949      
1.65         0.30778      0.71432      -0.5717      0.24619      -0.5717      0.24619      0.30778      0.71432      
1.66         0.32081      0.70889      -0.56677     0.25636      -0.56677     0.25636      0.32081      0.70889      
1.67         0.33373      0.70321      -0.56169     0.26645      -0.56169     0.26645      0.33373      0.70321      
1.68         0.34654      0.69727      -0.55646     0.27645      -0.55646     0.27645      0.34654      0.69727      
1.69         0.35923      0.69107      -0.55108     0.28636      -0.55108     0.28636      0.35923      0.69107      
1.7          0.37179      0.68463      -0.54555     0.29617      -0.54555     0.29617      0.37179      0.68463      
1.71         0.38423      0.67794      -0.53987     0.30589      -0.53987     0.30589      0.38423      0.67794      
1.72         0.39653      0.671        -0.53405     0.31552      -0.53405     0.31552      0.39653      0.671        
1.73         0.40869      0.66382      -0.52807     0.32505      -0.52807     0.32505      0.40869      0.66382      
1.74         0.4207       0.6564       -0.52196     0.33448      -0.52196     0.33448      0.4207       0.6564       
1.75         0.43257      0.64875      -0.5157      0.34382      -0.5157      0.34382      0.43257      0.64875      
1.76         0.44428      0.64086      -0.5093      0.35305      -0.5093      0.35305      0.44428      0.64086      
1.77         0.45583      0.63274      -0.50276     0.36218      -0.50276     0.36218      0.45583      0.63274      
1.78         0.46723      0.62439      -0.49608     0.37121      -0.49608     0.37121      0.46723      0.62439      
1.79         0.47845      0.61582      -0.48926     0.38013      -0.48926     0.38013      0.47845      0.61582      
1.8          0.48951      0.60703      -0.4823      0.38895      -0.4823      0.38895      0.48951      0.60703      
1.81         0.50039      0.59802      -0.4752      0.39765      -0.4752      0.39765      0.50039      0.59802      
1.82         0.51108      0.5888       -0.46797     0.40625      -0.46797     0.40625      0.51108      0.5888       
1.83         0.5216       0.57937      -0.4606      0.41474      -0.4606      0.41474      0.5216       0.57937      
1.84         0.53192      0.56973      -0.45311     0.42312      -0.45311     0.42312      0.53192      0.56973      
1.85         0.54205      0.55989      -0.44547     0.43139      -0.44547     0.43139      0.54205      0.55989      
1.86         0.55199      0.54985      -0.43771     0.43953      -0.43771     0.43953      0.55199      0.54985      
1.87         0.56173      0.53961      -0.42982     0.44757      -0.42982     0.44757      0.56173      0.53961      
1.88         0.57126      0.52919      -0.42179     0.45548      -0.42179     0.45548      0.57126      0.52919      
1.89         0.58058      0.51857      -0.41364     0.46328      -0.41364     0.46328      0.58058      0.51857      
1.9          0.58969      0.50777      -0.40536     0.47096      -0.40536     0.47096      0.58969      0.50777      
1.91         0.59858      0.49679      -0.39696     0.47851      -0.39696     0.47851      0.59858      0.49679      
1.92         0.60725      0.48564      -0.38843     0.48594      -0.38843     0.48594      0.60725      0.48564      
1.93         0.6157       0.47432      -0.37977     0.49325      -0.37977     0.49325      0.6157       0.47432      
1.94         0.62392      0.46282      -0.371       0.50043      -0.371       0.50043      0.62392      0.46282      
1.95         0.63191      0.45117      -0.3621      0.50748      -0.3621      0.50748      0.63191      0.45117      
1.96         0.63967      0.43936      -0.35307     0.5144       -0.35307     0.5144       0.63967      0.43936      
1.97         0.64719      0.4274       -0.34393     0.52119      -0.34393     0.52119      0.64719      0.4274       
1.98         0.65447      0.41528      -0.33467     0.52785      -0.33467     0.52785      0.65447      0.41528      
1.99         0.6615       0.40303      -0.32529     0.53438      -0.32529     0.53438      0.6615       0.40303      
2            0.66829      0.39063      -0.31579     0.54076      -0.31579     0.54076      0.66829      0.39063      
2.01         0.67483      0.3781       -0.30618     0.54701      -0.30618     0.54701      0.67483      0.3781       
2.02         0.68111      0.36544      -0.29645     0.55312      -0.29645     0.55312      0.68111      0.36544      
2.03         0.68714      0.35265      -0.28661     0.55909      -0.28661     0.55909      0.68714      0.35265      
2.04         0.69291      0.33975      -0.27665     0.56492      -0.27665     0.56492      0.69291      0.33975      
2.05         0.69841      0.32673      -0.26658     0.5706       -0.26658     0.5706       0.69841      0.32673      
2.06         0.70365      0.3136       -0.2564      0.57613      -0.2564      0.57613      0.70365      0.3136       
2.07         0.70863      0.30036      -0.24611     0.58152      -0.24611     0.58152      0.70863      0.30036      
2.08         0.71333      0.28703      -0.23571     0.58676      -0.23571     0.58676      0.71333      0.28703      
2.09         0.71776      0.27361      -0.2252      0.59184      -0.2252      0.59184      0.71776      0.27361      
2.1          0.72192      0.26009      -0.21458     0.59677      -0.21458     0.59677      0.72192      0.26009      
2.11         0.7258       0.24649      -0.20386     0.60155      -0.20386     0.60155      0.7258       0.24649      
2.12         0.7294       0.23282      -0.19304     0.60616      -0.19304     0.60616      0.7294       0.23282      
2.13         0.73271      0.21907      -0.18211     0.61062      -0.18211     0.61062      0.73271      0.21907      
2.14         0.73575      0.20526      -0.17108     0.61491      -0.17108     0.61491      0.73575      0.20526      
2.15         0.7385       0.19139      -0.15994     0.61904      -0.15994     0.61904      0.7385       0.19139      
