!freq-unit  param-type  data-format  keyword  impedance-ohms
# GHZ           S          RI           R         50
!-----------------------------------------------------------------------------
!Freq          ReS11        ImS11        ReS21        ImS21        ReS12        ImS12        ReS22        ImS22
0.5          -0.18878     -0.097824    0.4501       -0.86483     0.4501       -0.86483     -0.18878     -0.097824    
0.51         -0.19417     -0.095367    0.43097      -0.87358     0.43097      -0.87358     -0.19417     -0.095367    
0.52         -0.19952     -0.092714    0.41169      -0.8819      0.41169      -0.8819      -0.19952     -0.092714    
0.53         -0.20481     -0.089866    0.39225      -0.88977     0.39225      -0.88977     -0.20481     -0.089866    
0.54         -0.21004     -0.086825    0.37268      -0.89721     0.37268      -0.89721     -0.21004     -0.086825    
0.55         -0.21521     -0.083592    0.35298      -0.90421     0.35298      -0.90421     -0.21521     -0.083592    
0.56         -0.2203      -0.08017     0.33316      -0.91076     0.33316      -0.91076     -0.2203      -0.08017     
0.57         -0.22532     -0.076561    0.31324      -0.91687     0.31324      -0.91687     -0.22532     -0.076561    
0.58         -0.23026     -0.072767    0.29321      -0.92253     0.29321      -0.92253     -0.23026     -0.072767    
0.59         -0.2351      -0.068792    0.2731       -0.92775     0.2731       -0.92775     -0.2351      -0.068792    
0.6          -0.23985     -0.064638    0.25292      -0.93252     0.25292      -0.93252     -0.23985     -0.064638    
0.61         -0.2445      -0.060308    0.23266      -0.93684     0.23266      -0.93684     -0.2445      -0.060308    
0.62         -0.24905     -0.055806    0.21235      -0.94071     0.21235      -0.94071     -0.24905     -0.055806    
0.63         -0.25348     -0.051134    0.192        -0.94414     0.192        -0.94414     -0.25348     -0.051134    
0.64         -0.25779     -0.046296    0.1716       -0.94712     0.1716       -0.94712     -0.25779     -0.046296    
0.65         -0.26199     -0.041297    0.15119      -0.94965     0.15119      -0.94965     -0.26199     -0.041297    
0.66         -0.26605     -0.036139    0.13075      -0.95174     0.13075      -0.95174     -0.26605     -0.036139    
0.67         -0.26998     -0.030826    0.11031      -0.95338     0.11031      -0.95338     -0.26998     -0.030826    
0.68         -0.27378     -0.025364    0.089872     -0.95459     0.089872     -0.95459     -0.27378     -0.025364    
0.69         -0.27743     -0.019756    0.069446     -0.95534     0.069446     -0.95534     -0.27743     -0.019756    
0.7          -0.28094     -0.014006    0.049044     -0.95566     0.049044     -0.95566     -0.28094     -0.014006    
0.71         -0.2843      -0.008119    0.028673     -0.95555     0.028673     -0.95555     -0.2843      -0.008119    
0.72         -0.2875      -0.0020996   0.0083436    -0.95499     0.0083436    -0.95499     -0.2875      -0.0020996   
0.73         -0.29054     0.0040474    -0.011935    -0.954       -0.011935    -0.954       -0.29054     0.0040474    
0.74         -0.29342     0.010317     -0.032154    -0.95259     -0.032154    -0.95259     -0.29342     0.010317     
0.75         -0.29614     0.016705     -0.052304    -0.95074     -0.052304    -0.95074     -0.29614     0.016705     
0.76         -0.29868     0.023206     -0.072376    -0.94847     -0.072376    -0.94847     -0.29868     0.023206     
0.77         -0.30105     0.029815     -0.092361    -0.94577     -0.092361    -0.94577     -0.30105     0.029815     
0.78         -0.30324     0.036526     -0.11225     -0.94266     -0.11225     -0.94266     -0.30324     0.036526     
0.79         -0.30526     0.043334     -0.13204     -0.93913     -0.13204     -0.93913     -0.30526     0.043334     
0.8          -0.30709     0.050235     -0.15171     -0.93519     -0.15171     -0.93519     -0.30709     0.050235     
0.81         -0.30874     0.057222     -0.17126     -0.93084     -0.17126     -0.93084     -0.30874     0.057222     
0.82         -0.31019     0.06429      -0.19068     -0.92608     -0.19068     -0.92608     -0.31019     0.06429      
0.83         -0.31146     0.071433     -0.20997     -0.92092     -0.20997     -0.92092     -0.31146     0.071433     
0.84         -0.31253     0.078647     -0.22911     -0.91537     -0.22911     -0.91537     -0.31253     0.078647     
0.85         -0.31342     0.085925     -0.24809     -0.90943     -0.24809     -0.90943     -0.31342     0.085925     
0.86         -0.3141      0.093261     -0.26692     -0.9031      -0.26692     -0.9031      -0.3141      0.093261     
0.87         -0.31458     0.10065      -0.28557     -0.89638     -0.28557     -0.89638     -0.31458     0.10065      
0.88         -0.31487     0.10809      -0.30405     -0.88929     -0.30405     -0.88929     -0.31487     0.10809      
0.89         -0.31495     0.11556      -0.32235     -0.88182     -0.32235     -0.88182     -0.31495     0.11556      
0.9          -0.31484     0.12308      -0.34045     -0.87399     -0.34045     -0.87399     -0.31484     0.12308      
0.91         -0.31451     0.13062      -0.35836     -0.86579     -0.35836     -0.86579     -0.31451     0.13062      
0.92         -0.31399     0.13819      -0.37607     -0.85723     -0.37607     -0.85723     -0.31399     0.13819      
0.93         -0.31326     0.14577      -0.39356     -0.84832     -0.39356     -0.84832     -0.31326     0.14577      
0.94         -0.31232     0.15337      -0.41083     -0.83907     -0.41083     -0.83907     -0.31232     0.15337      
0.95         -0.31118     0.16097      -0.42788     -0.82947     -0.42788     -0.82947     -0.31118     0.16097      
0.96         -0.30983     0.16858      -0.4447      -0.81953     -0.4447      -0.81953     -0.30983     0.16858      
0.97         -0.30828     0.17617      -0.46128     -0.80927     -0.46128     -0.80927     -0.30828     0.17617      
0.98         -0.30652     0.18376      -0.47762     -0.79868     -0.47762     -0.79868     -0.30652     0.18376      
0.99         -0.30455     0.19133      -0.49372     -0.78777     -0.49372     -0.78777     -0.30455     0.19133      
1            -0.30238     0.19888      -0.50955     -0.77655     -0.50955     -0.77655     -0.30238     0.19888      
1.01         -0.3         0.2064       -0.52513     -0.76503     -0.52513     -0.76503     -0.3         0.2064       
1.02         -0.29742     0.21389      -0.54044     -0.7532      -0.54044     -0.7532      -0.29742     0.21389      
1.03         -0.29464     0.22133      -0.55548     -0.74108     -0.55548     -0.74108     -0.29464     0.22133      
1.04         -0.29166     0.22873      -0.57024     -0.72867     -0.57024     -0.72867     -0.29166     0.22873      
1.05         -0.28847     0.23608      -0.58473     -0.71598     -0.58473     -0.71598     -0.28847     0.23608      
1.06         -0.28509     0.24338      -0.59893     -0.70301     -0.59893     -0.70301     -0.28509     0.24338      
1.07         -0.28151     0.25061      -0.61283     -0.68978     -0.61283     -0.68978     -0.28151     0.25061      
1.08         -0.27773     0.25777      -0.62645     -0.67629     -0.62645     -0.67629     -0.27773     0.25777      
1.09         -0.27376     0.26487      -0.63976     -0.66254     -0.63976     -0.66254     -0.27376     0.26487      
1.1          -0.2696      0.27188      -0.65277     -0.64854     -0.65277     -0.64854     -0.2696      0.27188      
1.11         -0.26524     0.27881      -0.66547     -0.6343      -0.66547     -0.6343      -0.26524     0.27881      
1.12         -0.2607      0.28565      -0.67786     -0.61982     -0.67786     -0.61982     -0.2607      0.28565      
1.13         -0.25598     0.2924       -0.68994     -0.60512     -0.68994     -0.60512     -0.25598     0.2924       
1.14         -0.25107     0.29906      -0.70169     -0.59019     -0.70169     -0.59019     -0.25107     0.29906      
1.15         -0.24598     0.3056       -0.71313     -0.57505     -0.71313     -0.57505     -0.24598     0.3056       
1.16         -0.24071     0.31204      -0.72424     -0.55971     -0.72424     -0.55971     -0.24071     0.31204      
1.17         -0.23527     0.31837      -0.73502     -0.54416     -0.73502     -0.54416     -0.23527     0.31837      
1.18         -0.22965     0.32458      -0.74546     -0.52842     -0.74546     -0.52842     -0.22965     0.32458      
1.19         -0.22387     0.33067      -0.75557     -0.51249     -0.75557     -0.51249     -0.22387     0.33067      
1.2          -0.21792     0.33663      -0.76535     -0.49638     -0.76535     -0.49638     -0.21792     0.33663      
1.21         -0.21181     0.34246      -0.77478     -0.4801      -0.77478     -0.4801      -0.21181     0.34246      
1.22         -0.20555     0.34816      -0.78387     -0.46366     -0.78387     -0.46366     -0.20555     0.34816      
1.23         -0.19912     0.35371      -0.79262     -0.44706     -0.79262     -0.44706     -0.19912     0.35371      
1.24         -0.19255     0.35912      -0.80102     -0.4303      -0.80102     -0.4303      -0.19255     0.35912      
1.25         -0.18583     0.36439      -0.80906     -0.4134      -0.80906     -0.4134      -0.18583     0.36439      
1.26         -0.17896     0.3695       -0.81676     -0.39637     -0.81676     -0.39637     -0.17896     0.3695       
1.27         -0.17196     0.37446      -0.8241      -0.3792      -0.8241      -0.3792      -0.17196     0.37446      
1.28         -0.16482     0.37926      -0.83109     -0.36191     -0.83109     -0.36191     -0.16482     0.37926      
1.29         -0.15754     0.3839       -0.83772     -0.34451     -0.83772     -0.34451     -0.15754     0.3839       
1.3          -0.15014     0.38837      -0.844       -0.327       -0.844       -0.327       -0.15014     0.38837      
1.31         -0.14262     0.39267      -0.84991     -0.30938     -0.84991     -0.30938     -0.14262     0.39267      
1.32         -0.13498     0.3968       -0.85546     -0.29167     -0.85546     -0.29167     -0.13498     0.3968       
1.33         -0.12722     0.40076      -0.86066     -0.27388     -0.86066     -0.27388     -0.12722     0.40076      
1.34         -0.11936     0.40454      -0.86549     -0.256       -0.86549     -0.256       -0.11936     0.40454      
1.35         -0.11139     0.40813      -0.86995     -0.23805     -0.86995     -0.23805     -0.11139     0.40813      
1.36         -0.10332     0.41154      -0.87406     -0.22004     -0.87406     -0.22004     -0.10332     0.41154      
1.37         -0.095149    0.41477      -0.87779     -0.20196     -0.87779     -0.20196     -0.095149    0.41477      
1.38         -0.086891    0.41781      -0.88117     -0.18384     -0.88117     -0.18384     -0.086891    0.41781      
1.39         -0.078546    0.42065      -0.88418     -0.16567     -0.88418     -0.16567     -0.078546    0.42065      
1.4          -0.070121    0.4233       -0.88682     -0.14746     -0.88682     -0.14746     -0.070121    0.4233       
1.41         -0.061619    0.42576      -0.8891      -0.12922     -0.8891      -0.12922     -0.061619    0.42576      
1.42         -0.053046    0.42802      -0.89102     -0.11095     -0.89102     -0.11095     -0.053046    0.42802      
1.43         -0.044406    0.43008      -0.89257     -0.092673    -0.89257     -0.092673    -0.044406    0.43008      
1.44         -0.035705    0.43194      -0.89375     -0.074383    -0.89375     -0.074383    -0.035705    0.43194      
1.45         -0.026948    0.4336       -0.89457     -0.056088    -0.89457     -0.056088    -0.026948    0.4336       
1.46         -0.01814     0.43505      -0.89503     -0.037798    -0.89503     -0.037798    -0.01814     0.43505      
1.47         -0.009286    0.4363       -0.89513     -0.019518    -0.89513     -0.019518    -0.009286    0.4363       
1.48         -0.00039119  0.43734      -0.89486     -0.0012548   -0.89486     -0.0012548   -0.00039119  0.43734      
1.49         0.0085391    0.43817      -0.89423     0.016984     -0.89423     0.016984     0.0085391    0.43817      
1.5          0.0175       0.43879      -0.89325     0.035193     -0.89325     0.035193     0.0175       0.43879      
1.51         0.026485     0.43921      -0.8919      0.053364     -0.8919      0.053364     0.026485     0.43921      
1.52         0.035491     0.43942      -0.8902      0.071491     -0.8902      0.071491     0.035491     0.43942      
1.53         0.044511     0.43941      -0.88814     0.089568     -0.88814     0.089568     0.044511     0.43941      
1.54         0.05354      0.4392       -0.88573     0.10759      -0.88573     0.10759      0.05354      0.4392       
1.55         0.062573     0.43877      -0.88296     0.12554      -0.88296     0.12554      0.062573     0.43877      
1.56         0.071605     0.43813      -0.87984     0.14343      -0.87984     0.14343      0.071605     0.43813      
1.57         0.08063      0.43728      -0.87637     0.16124      -0.87637     0.16124      0.08063      0.43728      
1.58         0.089643     0.43623      -0.87256     0.17897      -0.87256     0.17897      0.089643     0.43623      
1.59         0.098639     0.43496      -0.8684      0.1966       -0.8684      0.1966       0.098639     0.43496      
1.6          0.10761      0.43348      -0.86389     0.21415      -0.86389     0.21415      0.10761      0.43348      
1.61         0.11656      0.43179      -0.85905     0.23159      -0.85905     0.23159      0.11656      0.43179      
1.62         0.12547      0.42989      -0.85386     0.24892      -0.85386     0.24892      0.12547      0.42989      
1.63         0.13435      0.42778      -0.84834     0.26614      -0.84834     0.26614      0.13435      0.42778      
1.64         0.14318      0.42547      -0.84248     0.28324      -0.84248     0.28324      0.14318      0.42547      
1.65         0.15196      0.42295      -0.83629     0.30021      -0.83629     0.30021      0.15196      0.42295      
1.66         0.16069      0.42022      -0.82978     0.31705      -0.82978     0.31705      0.16069      0.42022      
1.67         0.16936      0.41729      -0.82293     0.33375      -0.82293     0.33375      0.16936      0.41729      
1.68         0.17797      0.41416      -0.81577     0.35031      -0.81577     0.35031      0.17797      0.41416      
1.69         0.1865       0.41083      -0.80828     0.36672      -0.80828     0.36672      0.1865       0.41083      
1.7          0.19497      0.4073       -0.80047     0.38297      -0.80047     0.38297      0.19497      0.4073       
1.71         0.20335      0.40357      -0.79235     0.39906      -0.79235     0.39906      0.20335      0.40357      
1.72         0.21165      0.39965      -0.78392     0.41498      -0.78392     0.41498      0.21165      0.39965      
1.73         0.21987      0.39553      -0.77518     0.43074      -0.77518     0.43074      0.21987      0.39553      
1.74         0.22799      0.39123      -0.76614     0.44631      -0.76614     0.44631      0.22799      0.39123      
1.75         0.23601      0.38673      -0.75679     0.4617       -0.75679     0.4617       0.23601      0.38673      
1.76         0.24393      0.38205      -0.74715     0.4769       -0.74715     0.4769       0.24393      0.38205      
1.77         0.25174      0.37719      -0.73721     0.49191      -0.73721     0.49191      0.25174      0.37719      
1.78         0.25944      0.37214      -0.72698     0.50672      -0.72698     0.50672      0.25944      0.37214      
1.79         0.26702      0.36691      -0.71647     0.52133      -0.71647     0.52133      0.26702      0.36691      
1.8          0.27448      0.36152      -0.70567     0.53572      -0.70567     0.53572      0.27448      0.36152      
1.81         0.28182      0.35594      -0.69459     0.5499       -0.69459     0.5499       0.28182      0.35594      
1.82         0.28902      0.3502       -0.68324     0.56386      -0.68324     0.56386      0.28902      0.3502       
1.83         0.2961       0.34429      -0.67162     0.57759      -0.67162     0.57759      0.2961       0.34429      
1.84         0.30303      0.33822      -0.65973     0.5911       -0.65973     0.5911       0.30303      0.33822      
1.85         0.30982      0.33199      -0.64758     0.60437      -0.64758     0.60437      0.30982      0.33199      
1.86         0.31647      0.32561      -0.63517     0.6174       -0.63517     0.6174       0.31647      0.32561      
1.87         0.32297      0.31907      -0.6225      0.63019      -0.6225      0.63019      0.32297      0.31907      
1.88         0.32931      0.31239      -0.60959     0.64273      -0.60959     0.64273      0.32931      0.31239      
1.89         0.3355       0.30556      -0.59643     0.65501      -0.59643     0.65501      0.3355       0.30556      
1.9          0.34152      0.29858      -0.58304     0.66704      -0.58304     0.66704      0.34152      0.29858      
1.91         0.34739      0.29148      -0.5694      0.67881      -0.5694      0.67881      0.34739      0.29148      
1.92         0.35308      0.28424      -0.55554     0.6903       -0.55554     0.6903       0.35308      0.28424      
1.93         0.3586       0.27687      -0.54145     0.70153      -0.54145     0.70153      0.3586       0.27687      
1.94         0.36395      0.26937      -0.52713     0.71249      -0.52713     0.71249      0.36395      0.26937      
1.95         0.36912      0.26176      -0.51261     0.72316      -0.51261     0.72316      0.36912      0.26176      
1.96         0.37411      0.25403      -0.49787     0.73356      -0.49787     0.73356      0.37411      0.25403      
1.97         0.37891      0.24619      -0.48292     0.74366      -0.48292     0.74366      0.37891      0.24619      
1.98         0.38353      0.23824      -0.46777     0.75347      -0.46777     0.75347      0.38353      0.23824      
1.99         0.38796      0.2302       -0.45243     0.76299      -0.45243     0.76299      0.38796      0.2302       
2            0.3922       0.22205      -0.43689     0.77222      -0.43689     0.77222      0.3922       0.22205      
2.01         0.39625      0.21381      -0.42118     0.78114      -0.42118     0.78114      0.39625      0.21381      
2.02         0.40009      0.20549      -0.40528     0.78975      -0.40528     0.78975      0.40009      0.20549      
2.03         0.40374      0.19708      -0.3892      0.79805      -0.3892      0.79805      0.40374      0.19708      
2.04         0.40719      0.1886       -0.37296     0.80605      -0.37296     0.80605      0.40719      0.1886       
2.05         0.41044      0.18004      -0.35655     0.81372      -0.35655     0.81372      0.41044      0.18004      
2.06         0.41348      0.17142      -0.33999     0.82108      -0.33999     0.82108      0.41348      0.17142      
2.07         0.41632      0.16273      -0.32327     0.82811      -0.32327     0.82811      0.41632      0.16273      
2.08         0.41895      0.15399      -0.30641     0.83482      -0.30641     0.83482      0.41895      0.15399      
2.09         0.42137      0.14519      -0.2894      0.8412       -0.2894      0.8412       0.42137      0.14519      
2.1          0.42358      0.13635      -0.27226     0.84725      -0.27226     0.84725      0.42358      0.13635      
2.11         0.42557      0.12747      -0.25499     0.85297      -0.25499     0.85297      0.42557      0.12747      
2.12         0.42736      0.11855      -0.2376      0.85835      -0.2376      0.85835      0.42736      0.11855      
2.13         0.42893      0.1096       -0.22009     0.86339      -0.22009     0.86339      0.42893      0.1096       
2.14         0.43028      0.10063      -0.20247     0.86808      -0.20247     0.86808      0.43028      0.10063      
2.15         0.43143      0.09164      -0.18475     0.87243      -0.18475     0.87243      0.43143      0.09164      
