!freq-unit  param-type  data-format  keyword  impedance-ohms
# GHZ           S          RI           R         50
!-----------------------------------------------------------------------------
!Freq          ReS11        ImS11        ReS21        ImS21        ReS12        ImS12        ReS22        ImS22
0.5          -0.25539     -0.034303    0.14709      -0.95207     0.14709      -0.95207     -0.254       -0.043506    
0.51         -0.26042     -0.027522    0.12035      -0.95465     0.12035      -0.95465     -0.25924     -0.037104    
0.52         -0.26521     -0.020488    0.093613     -0.95647     0.093613     -0.95647     -0.26428     -0.030448    
0.53         -0.26977     -0.013208    0.066887     -0.95753     0.066887     -0.95753     -0.26909     -0.023545    
0.54         -0.27408     -0.0056932   0.040197     -0.95784     0.040197     -0.95784     -0.27367     -0.016405    
0.55         -0.27813     0.0020469    0.013565     -0.95741     0.013565     -0.95741     -0.27801     -0.0090362   
0.56         -0.2819      0.010002     -0.01299     -0.95623     -0.01299     -0.95623     -0.2821      -0.0014487   
0.57         -0.2854      0.018161     -0.039445    -0.95431     -0.039445    -0.95431     -0.28593     0.0063479    
0.58         -0.28862     0.026513     -0.065781    -0.95166     -0.065781    -0.95166     -0.2895      0.014344     
0.59         -0.29154     0.035047     -0.091977    -0.94829     -0.091977    -0.94829     -0.2928      0.022528     
0.6          -0.29416     0.043751     -0.11801     -0.94419     -0.11801     -0.94419     -0.29581     0.03089      
0.61         -0.29647     0.052614     -0.14387     -0.93939     -0.14387     -0.93939     -0.29854     0.03942      
0.62         -0.29847     0.061623     -0.16953     -0.93388     -0.16953     -0.93388     -0.30097     0.048106     
0.63         -0.30015     0.070767     -0.19498     -0.92768     -0.19498     -0.92768     -0.30311     0.056937     
0.64         -0.3015      0.080033     -0.22019     -0.92079     -0.22019     -0.92079     -0.30493     0.065902     
0.65         -0.30253     0.089408     -0.24515     -0.91322     -0.24515     -0.91322     -0.30645     0.074989     
0.66         -0.30322     0.098879     -0.26984     -0.90499     -0.26984     -0.90499     -0.30765     0.084186     
0.67         -0.30357     0.10844      -0.29424     -0.8961      -0.29424     -0.8961      -0.30853     0.093481     
0.68         -0.30358     0.11806      -0.31833     -0.88656     -0.31833     -0.88656     -0.30909     0.10286      
0.69         -0.30324     0.12775      -0.34211     -0.87639     -0.34211     -0.87639     -0.30932     0.11232      
0.7          -0.30256     0.13748      -0.36554     -0.8656      -0.36554     -0.8656      -0.30923     0.12184      
0.71         -0.30153     0.14724      -0.38863     -0.85419     -0.38863     -0.85419     -0.3088      0.13141      
0.72         -0.30016     0.15702      -0.41135     -0.84218     -0.41135     -0.84218     -0.30803     0.14101      
0.73         -0.29843     0.16681      -0.43369     -0.82958     -0.43369     -0.82958     -0.30694     0.15065      
0.74         -0.29635     0.17659      -0.45562     -0.8164      -0.45562     -0.8164      -0.30551     0.16029      
0.75         -0.29392     0.18635      -0.47715     -0.80266     -0.47715     -0.80266     -0.30374     0.16994      
0.76         -0.29114     0.19607      -0.49826     -0.78838     -0.49826     -0.78838     -0.30163     0.17958      
0.77         -0.28801     0.20575      -0.51893     -0.77355     -0.51893     -0.77355     -0.29919     0.18919      
0.78         -0.28453     0.21538      -0.53915     -0.75821     -0.53915     -0.75821     -0.29642     0.19877      
0.79         -0.28071     0.22493      -0.55891     -0.74235     -0.55891     -0.74235     -0.29331     0.2083       
0.8          -0.27655     0.23439      -0.57819     -0.726       -0.57819     -0.726       -0.28986     0.21777      
0.81         -0.27205     0.24376      -0.59699     -0.70917     -0.59699     -0.70917     -0.28609     0.22717      
0.82         -0.26721     0.25302      -0.61529     -0.69188     -0.61529     -0.69188     -0.28199     0.23649      
0.83         -0.26204     0.26216      -0.63309     -0.67413     -0.63309     -0.67413     -0.27757     0.24572      
0.84         -0.25654     0.27117      -0.65037     -0.65595     -0.65037     -0.65595     -0.27282     0.25484      
0.85         -0.25071     0.28003      -0.66713     -0.63735     -0.66713     -0.63735     -0.26776     0.26384      
0.86         -0.24457     0.28874      -0.68335     -0.61834     -0.68335     -0.61834     -0.26238     0.27271      
0.87         -0.23812     0.29728      -0.69903     -0.59894     -0.69903     -0.59894     -0.2567      0.28145      
0.88         -0.23136     0.30564      -0.71416     -0.57917     -0.71416     -0.57917     -0.25071     0.29004      
0.89         -0.2243      0.31381      -0.72873     -0.55904     -0.72873     -0.55904     -0.24442     0.29846      
0.9          -0.21694     0.32178      -0.74273     -0.53856     -0.74273     -0.53856     -0.23783     0.30672      
0.91         -0.2093      0.32954      -0.75616     -0.51776     -0.75616     -0.51776     -0.23096     0.31479      
0.92         -0.20138     0.33708      -0.76901     -0.49664     -0.76901     -0.49664     -0.22381     0.32268      
0.93         -0.19318     0.34439      -0.78128     -0.47523     -0.78128     -0.47523     -0.21638     0.33036      
0.94         -0.18472     0.35146      -0.79295     -0.45354     -0.79295     -0.45354     -0.20868     0.33784      
0.95         -0.17601     0.35828      -0.80402     -0.43159     -0.80402     -0.43159     -0.20072     0.34509      
0.96         -0.16705     0.36484      -0.8145      -0.40939     -0.8145      -0.40939     -0.19251     0.35212      
0.97         -0.15785     0.37114      -0.82436     -0.38696     -0.82436     -0.38696     -0.18405     0.35892      
0.98         -0.14842     0.37716      -0.83362     -0.36431     -0.83362     -0.36431     -0.17536     0.36547      
0.99         -0.13877     0.3829       -0.84227     -0.34146     -0.84227     -0.34146     -0.16643     0.37176      
1            -0.12891     0.38835      -0.85029     -0.31843     -0.85029     -0.31843     -0.15728     0.3778       
1.01         -0.11885     0.3935       -0.8577      -0.29524     -0.8577      -0.29524     -0.14792     0.38357      
1.02         -0.1086      0.39835      -0.86449     -0.27189     -0.86449     -0.27189     -0.13836     0.38907      
1.03         -0.098167    0.40289      -0.87065     -0.24841     -0.87065     -0.24841     -0.1286      0.39428      
1.04         -0.087566    0.40711      -0.87618     -0.22481     -0.87618     -0.22481     -0.11865     0.39921      
1.05         -0.076807    0.41101      -0.88109     -0.2011      -0.88109     -0.2011      -0.10853     0.40384      
1.06         -0.0659      0.41458      -0.88538     -0.17731     -0.88538     -0.17731     -0.098242    0.40818      
1.07         -0.054855    0.41781      -0.88903     -0.15345     -0.88903     -0.15345     -0.087798    0.4122       
1.08         -0.043684    0.42071      -0.89206     -0.12954     -0.89206     -0.12954     -0.077206    0.41592      
1.09         -0.032399    0.42327      -0.89446     -0.10559     -0.89446     -0.10559     -0.066479    0.41933      
1.1          -0.021011    0.42549      -0.89623     -0.08161     -0.89623     -0.08161     -0.055625    0.42241      
1.11         -0.0095308   0.42735      -0.89737     -0.057626    -0.89737     -0.057626    -0.044656    0.42517      
1.12         0.0020294    0.42886      -0.89789     -0.033651    -0.89789     -0.033651    -0.033582    0.4276       
1.13         0.013658     0.43002      -0.89779     -0.0096988   -0.89779     -0.0096988   -0.022413    0.42971      
1.14         0.025344     0.43082      -0.89707     0.014214     -0.89707     0.014214     -0.01116     0.43147      
1.15         0.037074     0.43126      -0.89573     0.038073     -0.89573     0.038073     0.000165     0.43291      
1.16         0.048837     0.43134      -0.89377     0.061862     -0.89377     0.061862     0.011552     0.434        
1.17         0.060622     0.43106      -0.8912      0.085568     -0.8912      0.085568     0.022991     0.43475      
1.18         0.072415     0.43042      -0.88802     0.10917      -0.88802     0.10917      0.034469     0.43516      
1.19         0.084206     0.42941      -0.88423     0.13266      -0.88423     0.13266      0.045977     0.43523      
1.2          0.095983     0.42805      -0.87984     0.15603      -0.87984     0.15603      0.057502     0.43495      
1.21         0.10773      0.42632      -0.87486     0.17925      -0.87486     0.17925      0.069035     0.43433      
1.22         0.11944      0.42423      -0.86928     0.20231      -0.86928     0.20231      0.080563     0.43336      
1.23         0.13111      0.42178      -0.86311     0.2252       -0.86311     0.2252       0.092076     0.43204      
1.24         0.14271      0.41897      -0.85637     0.2479       -0.85637     0.2479       0.10356      0.43038      
1.25         0.15423      0.41581      -0.84904     0.27041      -0.84904     0.27041      0.11501      0.42838      
1.26         0.16568      0.41229      -0.84115     0.2927       -0.84115     0.2927       0.12641      0.42604      
1.27         0.17702      0.40842      -0.83268     0.31476      -0.83268     0.31476      0.13776      0.42335      
1.28         0.18826      0.40421      -0.82366     0.33659      -0.82366     0.33659      0.14903      0.42032      
1.29         0.19938      0.39965      -0.81409     0.35816      -0.81409     0.35816      0.16022      0.41696      
1.3          0.21036      0.39475      -0.80398     0.37946      -0.80398     0.37946      0.17132      0.41326      
1.31         0.22121      0.38951      -0.79332     0.40049      -0.79332     0.40049      0.18231      0.40923      
1.32         0.2319       0.38395      -0.78214     0.42122      -0.78214     0.42122      0.1932       0.40487      
1.33         0.24243      0.37805      -0.77043     0.44165      -0.77043     0.44165      0.20396      0.40019      
1.34         0.25279      0.37184      -0.75821     0.46176      -0.75821     0.46176      0.21459      0.39519      
1.35         0.26296      0.36531      -0.74548     0.48154      -0.74548     0.48154      0.22507      0.38987      
1.36         0.27294      0.35847      -0.73226     0.50098      -0.73226     0.50098      0.2354       0.38424      
1.37         0.28272      0.35133      -0.71854     0.52007      -0.71854     0.52007      0.24557      0.3783       
1.38         0.29228      0.34389      -0.70435     0.53879      -0.70435     0.53879      0.25557      0.37206      
1.39         0.30162      0.33616      -0.68968     0.55714      -0.68968     0.55714      0.26538      0.36552      
1.4          0.31072      0.32815      -0.67455     0.5751       -0.67455     0.5751       0.275        0.3587       
1.41         0.31959      0.31986      -0.65897     0.59267      -0.65897     0.59267      0.28442      0.35159      
1.42         0.3282       0.31131      -0.64295     0.60982      -0.64295     0.60982      0.29362      0.3442       
1.43         0.33655      0.30249      -0.6265      0.62656      -0.6265      0.62656      0.30261      0.33654      
1.44         0.34464      0.29343      -0.60963     0.64287      -0.60963     0.64287      0.31137      0.32861      
1.45         0.35245      0.28413      -0.59234     0.65874      -0.59234     0.65874      0.3199       0.32043      
1.46         0.35998      0.27459      -0.57465     0.67417      -0.57465     0.67417      0.32818      0.312        
1.47         0.36722      0.26483      -0.55658     0.68914      -0.55658     0.68914      0.33621      0.30332      
1.48         0.37415      0.25486      -0.53812     0.70364      -0.53812     0.70364      0.34398      0.29442      
1.49         0.38079      0.24468      -0.5193      0.71766      -0.5193      0.71766      0.35148      0.28528      
1.5          0.38711      0.2343       -0.50013     0.7312       -0.50013     0.7312       0.35871      0.27593      
1.51         0.39312      0.22374      -0.4806      0.74425      -0.4806      0.74425      0.36566      0.26637      
1.52         0.3988       0.21301      -0.46075     0.75679      -0.46075     0.75679      0.37232      0.25662      
1.53         0.40415      0.20212      -0.44058     0.76883      -0.44058     0.76883      0.37869      0.24667      
1.54         0.40917      0.19107      -0.4201      0.78035      -0.4201      0.78035      0.38476      0.23654      
1.55         0.41385      0.17987      -0.39932     0.79134      -0.39932     0.79134      0.39052      0.22624      
1.56         0.41818      0.16855      -0.37826     0.8018       -0.37826     0.8018       0.39597      0.21577      
1.57         0.42217      0.15711      -0.35693     0.81172      -0.35693     0.81172      0.4011       0.20516      
1.58         0.42581      0.14556      -0.33534     0.8211       -0.33534     0.8211       0.40592      0.1944       
1.59         0.42909      0.13391      -0.3135      0.82993      -0.3135      0.82993      0.41041      0.18351      
1.6          0.43201      0.12217      -0.29144     0.83819      -0.29144     0.83819      0.41456      0.17251      
1.61         0.43457      0.11036      -0.26915     0.84589      -0.26915     0.84589      0.41839      0.16139      
1.62         0.43677      0.098491     -0.24667     0.85303      -0.24667     0.85303      0.42188      0.15017      
1.63         0.4386       0.08657      -0.22399     0.85958      -0.22399     0.85958      0.42503      0.13886      
1.64         0.44007      0.074611     -0.20113     0.86556      -0.20113     0.86556      0.42783      0.12747      
1.65         0.44117      0.062625     -0.17811     0.87095      -0.17811     0.87095      0.4303       0.11602      
1.66         0.4419       0.050624     -0.15494     0.87575      -0.15494     0.87575      0.43241      0.10451      
1.67         0.44226      0.038622     -0.13163     0.87995      -0.13163     0.87995      0.43417      0.092956     
1.68         0.44225      0.02663      -0.1082      0.88356      -0.1082      0.88356      0.43559      0.081369     
1.69         0.44188      0.014659     -0.084666    0.88656      -0.084666    0.88656      0.43665      0.06976      
1.7          0.44113      0.0027233    -0.061038    0.88896      -0.061038    0.88896      0.43736      0.05814      
1.71         0.44002      -0.0091664   -0.037332    0.89075      -0.037332    0.89075      0.43772      0.046521     
1.72         0.43855      -0.020998    -0.013562    0.89193      -0.013562    0.89193      0.43773      0.034914     
1.73         0.43671      -0.032758    0.010256     0.89249      0.010256     0.89249      0.43738      0.023331     
1.74         0.43451      -0.044436    0.034108     0.89244      0.034108     0.89244      0.43669      0.011783     
1.75         0.43195      -0.05602     0.057979     0.89177      0.057979     0.89177      0.43564      0.00028207   
1.76         0.42904      -0.067497    0.081854     0.89047      0.081854     0.89047      0.43425      -0.011161    
1.77         0.42578      -0.078856    0.10572      0.88856      0.10572      0.88856      0.43251      -0.022535    
1.78         0.42218      -0.090085    0.12955      0.88603      0.12955      0.88603      0.43043      -0.033828    
1.79         0.41823      -0.10117     0.15335      0.88287      0.15335      0.88287      0.428        -0.045028    
1.8          0.41395      -0.11211     0.17709      0.87909      0.17709      0.87909      0.42524      -0.056126    
1.81         0.40933      -0.12288     0.20075      0.87469      0.20075      0.87469      0.42215      -0.067108    
1.82         0.40439      -0.13347     0.22433      0.86966      0.22433      0.86966      0.41872      -0.077965    
1.83         0.39913      -0.14388     0.2478       0.86401      0.2478       0.86401      0.41497      -0.088686    
1.84         0.39355      -0.15409     0.27115      0.85774      0.27115      0.85774      0.4109       -0.099258    
1.85         0.38767      -0.1641      0.29437      0.85085      0.29437      0.85085      0.40651      -0.10967     
1.86         0.38149      -0.17388     0.31743      0.84335      0.31743      0.84335      0.40181      -0.11992     
1.87         0.37502      -0.18344     0.34033      0.83523      0.34033      0.83523      0.39681      -0.12999     
1.88         0.36827      -0.19276     0.36304      0.82649      0.36304      0.82649      0.3915       -0.13986     
1.89         0.36124      -0.20183     0.38556      0.81715      0.38556      0.81715      0.38591      -0.14954     
1.9          0.35394      -0.21065     0.40786      0.80719      0.40786      0.80719      0.38003      -0.15901     
1.91         0.34639      -0.2192      0.42993      0.79664      0.42993      0.79664      0.37387      -0.16826     
1.92         0.33859      -0.22747     0.45176      0.78548      0.45176      0.78548      0.36744      -0.17728     
1.93         0.33055      -0.23546     0.47332      0.77374      0.47332      0.77374      0.36075      -0.18607     
1.94         0.32228      -0.24316     0.4946       0.7614       0.4946       0.7614       0.35381      -0.1946      
1.95         0.31379      -0.25056     0.51559      0.74847      0.51559      0.74847      0.34662      -0.20289     
1.96         0.3051       -0.25766     0.53627      0.73497      0.53627      0.73497      0.33919      -0.21091     
1.97         0.29621      -0.26444     0.55662      0.72089      0.55662      0.72089      0.33154      -0.21866     
1.98         0.28714      -0.2709      0.57663      0.70625      0.57663      0.70625      0.32367      -0.22613     
1.99         0.27789      -0.27703     0.59629      0.69105      0.59629      0.69105      0.31559      -0.23331     
2            0.26849      -0.28283     0.61557      0.67529      0.61557      0.67529      0.30731      -0.2402      
2.01         0.25893      -0.28829     0.63446      0.659        0.63446      0.659        0.29885      -0.24679     
2.02         0.24923      -0.29341     0.65295      0.64216      0.65295      0.64216      0.29021      -0.25307     
2.03         0.23942      -0.29818     0.67101      0.6248       0.67101      0.6248       0.2814       -0.25904     
2.04         0.22949      -0.3026      0.68864      0.60691      0.68864      0.60691      0.27244      -0.26469     
2.05         0.21946      -0.30666     0.70582      0.58852      0.70582      0.58852      0.26334      -0.27001     
2.06         0.20934      -0.31036     0.72254      0.56963      0.72254      0.56963      0.25411      -0.27501     
2.07         0.19915      -0.31371     0.73877      0.55025      0.73877      0.55025      0.24476      -0.27968     
2.08         0.18891      -0.31668     0.75451      0.53039      0.75451      0.53039      0.23531      -0.284       
2.09         0.17861      -0.31929     0.76974      0.51007      0.76974      0.51007      0.22575      -0.28799     
2.1          0.16829      -0.32154     0.78444      0.48929      0.78444      0.48929      0.21612      -0.29163     
2.11         0.15795      -0.32341     0.79861      0.46807      0.79861      0.46807      0.20642      -0.29493     
2.12         0.1476       -0.32492     0.81222      0.44642      0.81222      0.44642      0.19666      -0.29788     
2.13         0.13726      -0.32606     0.82527      0.42435      0.82527      0.42435      0.18686      -0.30048     
2.14         0.12695      -0.32683     0.83773      0.40188      0.83773      0.40188      0.17703      -0.30272     
2.15         0.11667      -0.32724     0.84961      0.37902      0.84961      0.37902      0.16719      -0.30462     
