!freq-unit  param-type  data-format  keyword  impedance-ohms
# GHZ           S          RI           R         50
!-----------------------------------------------------------------------------
!Freq          ReS11        ImS11        ReS21        ImS21        ReS12        ImS12        ReS22        ImS22
0.5          -0.33014     -0.10331     0.30119      -0.88595     0.30119      -0.88595     -0.32514     -0.11821     
0.51         -0.33779     -0.096733    0.27931      -0.89094     0.27931      -0.89094     -0.33297     -0.1123      
0.52         -0.34523     -0.089847    0.25741      -0.89537     0.25741      -0.89537     -0.34063     -0.10609     
0.53         -0.35247     -0.082656    0.23549      -0.89924     0.23549      -0.89924     -0.34811     -0.099567    
0.54         -0.35949     -0.075168    0.21357      -0.90256     0.21357      -0.90256     -0.35539     -0.092756    
0.55         -0.36627     -0.067392    0.19167      -0.90533     0.19167      -0.90533     -0.36247     -0.085659    
0.56         -0.37282     -0.059338    0.1698       -0.90756     0.1698       -0.90756     -0.36934     -0.078285    
0.57         -0.37911     -0.051015    0.14797      -0.90925     0.14797      -0.90925     -0.37599     -0.070643    
0.58         -0.38515     -0.042432    0.1262       -0.91042     0.1262       -0.91042     -0.38241     -0.062741    
0.59         -0.39092     -0.033601    0.1045       -0.91105     0.1045       -0.91105     -0.38859     -0.054588    
0.6          -0.39642     -0.02453     0.082878     -0.91116     0.082878     -0.91116     -0.39452     -0.046193    
0.61         -0.40163     -0.015231    0.061353     -0.91076     0.061353     -0.91076     -0.4002      -0.037566    
0.62         -0.40655     -0.0057146   0.039933     -0.90986     0.039933     -0.90986     -0.40562     -0.028715    
0.63         -0.41118     0.0040091    0.018631     -0.90845     0.018631     -0.90845     -0.41078     -0.019651    
0.64         -0.41551     0.013929     -0.0025418   -0.90654     -0.0025418   -0.90654     -0.41566     -0.010384    
0.65         -0.41952     0.024034     -0.023576    -0.90415     -0.023576    -0.90415     -0.42026     -0.00092296  
0.66         -0.42323     0.034313     -0.044459    -0.90128     -0.044459    -0.90128     -0.42457     0.008722     
0.67         -0.42661     0.044755     -0.065183    -0.89794     -0.065183    -0.89794     -0.4286      0.018541     
0.68         -0.42967     0.055348     -0.085737    -0.89413     -0.085737    -0.89413     -0.43233     0.028523     
0.69         -0.43241     0.066081     -0.10611     -0.88987     -0.10611     -0.88987     -0.43576     0.038658     
0.7          -0.43481     0.076943     -0.1263      -0.88515     -0.1263      -0.88515     -0.43889     0.048937     
0.71         -0.43688     0.087922     -0.14629     -0.88        -0.14629     -0.88        -0.44172     0.059348     
0.72         -0.43861     0.099007     -0.16607     -0.87441     -0.16607     -0.87441     -0.44423     0.069882     
0.73         -0.44        0.11019      -0.18564     -0.86839     -0.18564     -0.86839     -0.44643     0.080527     
0.74         -0.44105     0.12145      -0.20498     -0.86196     -0.20498     -0.86196     -0.44832     0.091275     
0.75         -0.44175     0.13278      -0.2241      -0.85512     -0.2241      -0.85512     -0.44989     0.10211      
0.76         -0.44211     0.14418      -0.24298     -0.84788     -0.24298     -0.84788     -0.45114     0.11303      
0.77         -0.44213     0.15562      -0.26162     -0.84025     -0.26162     -0.84025     -0.45207     0.12403      
0.78         -0.4418      0.1671       -0.28        -0.83223     -0.28        -0.83223     -0.45268     0.13508      
0.79         -0.44112     0.17861      -0.29813     -0.82384     -0.29813     -0.82384     -0.45296     0.14618      
0.8          -0.44009     0.19013      -0.316       -0.81508     -0.316       -0.81508     -0.45292     0.15732      
0.81         -0.43872     0.20166      -0.33359     -0.80596     -0.33359     -0.80596     -0.45256     0.16849      
0.82         -0.437       0.21318      -0.35092     -0.7965      -0.35092     -0.7965      -0.45188     0.17969      
0.83         -0.43494     0.22469      -0.36796     -0.78669     -0.36796     -0.78669     -0.45087     0.19089      
0.84         -0.43254     0.23616      -0.38471     -0.77655     -0.38471     -0.77655     -0.44954     0.20209      
0.85         -0.42979     0.2476       -0.40118     -0.76608     -0.40118     -0.76608     -0.44789     0.21329      
0.86         -0.42671     0.25899      -0.41735     -0.7553      -0.41735     -0.7553      -0.44591     0.22447      
0.87         -0.42329     0.27032      -0.43323     -0.74421     -0.43323     -0.74421     -0.44362     0.23562      
0.88         -0.41954     0.28158      -0.4488      -0.73283     -0.4488      -0.73283     -0.44102     0.24673      
0.89         -0.41545     0.29276      -0.46406     -0.72115     -0.46406     -0.72115     -0.43809     0.25779      
0.9          -0.41104     0.30386      -0.47901     -0.70919     -0.47901     -0.70919     -0.43486     0.2688       
0.91         -0.4063      0.31485      -0.49365     -0.69695     -0.49365     -0.69695     -0.43131     0.27974      
0.92         -0.40125     0.32574      -0.50797     -0.68445     -0.50797     -0.68445     -0.42746     0.29062      
0.93         -0.39587     0.33651      -0.52197     -0.67169     -0.52197     -0.67169     -0.4233      0.3014       
0.94         -0.39019     0.34715      -0.53564     -0.65869     -0.53564     -0.65869     -0.41885     0.3121       
0.95         -0.38419     0.35766      -0.54899     -0.64544     -0.54899     -0.64544     -0.41409     0.3227       
0.96         -0.3779      0.36803      -0.56202     -0.63195     -0.56202     -0.63195     -0.40904     0.33319      
0.97         -0.3713      0.37824      -0.5747      -0.61824     -0.5747      -0.61824     -0.4037      0.34357      
0.98         -0.36442     0.38829      -0.58706     -0.60432     -0.58706     -0.60432     -0.39807     0.35382      
0.99         -0.35724     0.39817      -0.59908     -0.59018     -0.59908     -0.59018     -0.39216     0.36394      
1            -0.34978     0.40788      -0.61076     -0.57584     -0.61076     -0.57584     -0.38597     0.37393      
1.01         -0.34205     0.4174       -0.62211     -0.56131     -0.62211     -0.56131     -0.37951     0.38376      
1.02         -0.33404     0.42673      -0.63311     -0.54659     -0.63311     -0.54659     -0.37278     0.39345      
1.03         -0.32577     0.43586      -0.64377     -0.53169     -0.64377     -0.53169     -0.36579     0.40297      
1.04         -0.31725     0.44478      -0.65409     -0.51662     -0.65409     -0.51662     -0.35854     0.41233      
1.05         -0.30847     0.45349      -0.66406     -0.50139     -0.66406     -0.50139     -0.35103     0.42151      
1.06         -0.29944     0.46198      -0.67369     -0.486       -0.67369     -0.486       -0.34328     0.43051      
1.07         -0.29018     0.47024      -0.68297     -0.47046     -0.68297     -0.47046     -0.33528     0.43932      
1.08         -0.28068     0.47827      -0.6919      -0.45477     -0.6919      -0.45477     -0.32705     0.44795      
1.09         -0.27096     0.48606      -0.70049     -0.43896     -0.70049     -0.43896     -0.31859     0.45637      
1.1          -0.26102     0.49361      -0.70872     -0.42301     -0.70872     -0.42301     -0.3099      0.46459      
1.11         -0.25087     0.5009       -0.71661     -0.40694     -0.71661     -0.40694     -0.30099     0.47259      
1.12         -0.24052     0.50794      -0.72415     -0.39076     -0.72415     -0.39076     -0.29186     0.48038      
1.13         -0.22997     0.51472      -0.73134     -0.37447     -0.73134     -0.37447     -0.28253     0.48795      
1.14         -0.21923     0.52123      -0.73817     -0.35808     -0.73817     -0.35808     -0.273       0.4953       
1.15         -0.20831     0.52748      -0.74466     -0.3416      -0.74466     -0.3416      -0.26327     0.50241      
1.16         -0.19722     0.53344      -0.7508      -0.32503     -0.7508      -0.32503     -0.25336     0.50929      
1.17         -0.18596     0.53913      -0.75659     -0.30838     -0.75659     -0.30838     -0.24326     0.51592      
1.18         -0.17454     0.54454      -0.76203     -0.29165     -0.76203     -0.29165     -0.23299     0.52231      
1.19         -0.16298     0.54965      -0.76712     -0.27486     -0.76712     -0.27486     -0.22254     0.52845      
1.2          -0.15127     0.55448      -0.77186     -0.25801     -0.77186     -0.25801     -0.21194     0.53434      
1.21         -0.13943     0.55901      -0.77626     -0.2411      -0.77626     -0.2411      -0.20119     0.53997      
1.22         -0.12746     0.56325      -0.7803      -0.22414     -0.7803      -0.22414     -0.19028     0.54534      
1.23         -0.11538     0.56718      -0.784       -0.20714     -0.784       -0.20714     -0.17923     0.55045      
1.24         -0.10318     0.57081      -0.78735     -0.1901      -0.78735     -0.1901      -0.16806     0.55529      
1.25         -0.090889    0.57414      -0.79036     -0.17304     -0.79036     -0.17304     -0.15675     0.55985      
1.26         -0.078501    0.57715      -0.79302     -0.15595     -0.79302     -0.15595     -0.14532     0.56415      
1.27         -0.06603     0.57986      -0.79534     -0.13884     -0.79534     -0.13884     -0.13378     0.56817      
1.28         -0.053481    0.58226      -0.79731     -0.12172     -0.79731     -0.12172     -0.12214     0.57191      
1.29         -0.040865    0.58434      -0.79894     -0.10459     -0.79894     -0.10459     -0.1104      0.57537      
1.3          -0.02819     0.58611      -0.80023     -0.087462    -0.80023     -0.087462    -0.098568    0.57855      
1.31         -0.015463    0.58756      -0.80118     -0.070339    -0.80118     -0.070339    -0.086652    0.58144      
1.32         -0.0026941   0.58869      -0.80179     -0.053226    -0.80179     -0.053226    -0.074661    0.58405      
1.33         0.01011      0.58951      -0.80207     -0.036129    -0.80207     -0.036129    -0.062601    0.58636      
1.34         0.022939     0.59         -0.802       -0.019054    -0.802       -0.019054    -0.05048     0.58839      
1.35         0.035787     0.59018      -0.8016      -0.0020065   -0.8016      -0.0020065   -0.038305    0.59013      
1.36         0.048643     0.59004      -0.80087     0.015008     -0.80087     0.015008     -0.026083    0.59157      
1.37         0.061501     0.58958      -0.79981     0.031985     -0.79981     0.031985     -0.013823    0.59272      
1.38         0.074351     0.5888       -0.79841     0.048918     -0.79841     0.048918     -0.0015306   0.59358      
1.39         0.087186     0.5877       -0.79669     0.065802     -0.79669     0.065802     0.010786     0.59414      
1.4          0.099996     0.58628      -0.79463     0.082631     -0.79463     0.082631     0.023119     0.59441      
1.41         0.11277      0.58455      -0.79225     0.099402     -0.79225     0.099402     0.035461     0.59438      
1.42         0.12551      0.5825       -0.78955     0.11611      -0.78955     0.11611      0.047805     0.59406      
1.43         0.1382       0.58014      -0.78652     0.13274      -0.78652     0.13274      0.060144     0.59344      
1.44         0.15084      0.57746      -0.78317     0.1493       -0.78317     0.1493       0.07247      0.59253      
1.45         0.1634       0.57448      -0.7795      0.16578      -0.7795      0.16578      0.084776     0.59133      
1.46         0.1759       0.57118      -0.77551     0.18218      -0.77551     0.18218      0.097054     0.58983      
1.47         0.18831      0.56757      -0.7712      0.19848      -0.7712      0.19848      0.1093       0.58804      
1.48         0.20064      0.56366      -0.76658     0.21469      -0.76658     0.21469      0.1215       0.58595      
1.49         0.21287      0.55945      -0.76165     0.2308       -0.76165     0.2308       0.13365      0.58358      
1.5          0.22499      0.55493      -0.75641     0.24681      -0.75641     0.24681      0.14575      0.58092      
1.51         0.23701      0.55012      -0.75086     0.2627       -0.75086     0.2627       0.15778      0.57797      
1.52         0.2489       0.54501      -0.745       0.27848      -0.745       0.27848      0.16974      0.57473      
1.53         0.26067      0.53962      -0.73884     0.29414      -0.73884     0.29414      0.18162      0.57121      
1.54         0.2723       0.53393      -0.73238     0.30967      -0.73238     0.30967      0.19342      0.56741      
1.55         0.28379      0.52796      -0.72561     0.32508      -0.72561     0.32508      0.20512      0.56333      
1.56         0.29513      0.52171      -0.71855     0.34035      -0.71855     0.34035      0.21673      0.55897      
1.57         0.30631      0.51518      -0.71119     0.35548      -0.71119     0.35548      0.22823      0.55434      
1.58         0.31733      0.50838      -0.70353     0.37047      -0.70353     0.37047      0.23961      0.54943      
1.59         0.32818      0.50131      -0.69559     0.38531      -0.69559     0.38531      0.25088      0.54425      
1.6          0.33886      0.49397      -0.68735     0.39999      -0.68735     0.39999      0.26202      0.53881      
1.61         0.34934      0.48638      -0.67883     0.41452      -0.67883     0.41452      0.27303      0.53311      
1.62         0.35964      0.47853      -0.67002     0.42889      -0.67002     0.42889      0.2839       0.52714      
1.63         0.36974      0.47043      -0.66094     0.44308      -0.66094     0.44308      0.29462      0.52092      
1.64         0.37963      0.46209      -0.65157     0.45711      -0.65157     0.45711      0.30519      0.51444      
1.65         0.38932      0.4535       -0.64192     0.47096      -0.64192     0.47096      0.3156       0.50771      
1.66         0.39878      0.44468      -0.632       0.48462      -0.632       0.48462      0.32584      0.50074      
1.67         0.40802      0.43564      -0.62181     0.49811      -0.62181     0.49811      0.33591      0.49353      
1.68         0.41704      0.42637      -0.61135     0.5114       -0.61135     0.5114       0.34581      0.48608      
1.69         0.42582      0.41688      -0.60062     0.52449      -0.60062     0.52449      0.35552      0.47839      
1.7          0.43436      0.40718      -0.58962     0.53738      -0.58962     0.53738      0.36504      0.47048      
1.71         0.44265      0.39728      -0.57837     0.55007      -0.57837     0.55007      0.37436      0.46235      
1.72         0.45069      0.38717      -0.56686     0.56256      -0.56686     0.56256      0.38349      0.45399      
1.73         0.45847      0.37688      -0.55509     0.57482      -0.55509     0.57482      0.3924       0.44542      
1.74         0.466        0.3664       -0.54307     0.58687      -0.54307     0.58687      0.40111      0.43665      
1.75         0.47325      0.35574      -0.5308      0.5987       -0.5308      0.5987       0.40959      0.42767      
1.76         0.48023      0.34491      -0.51828     0.61029      -0.51828     0.61029      0.41785      0.41849      
1.77         0.48694      0.33392      -0.50552     0.62166      -0.50552     0.62166      0.42589      0.40912      
1.78         0.49336      0.32276      -0.49252     0.63279      -0.49252     0.63279      0.43369      0.39956      
1.79         0.4995       0.31146      -0.47928     0.64367      -0.47928     0.64367      0.44125      0.38982      
1.8          0.50535      0.30001      -0.46581     0.65432      -0.46581     0.65432      0.44856      0.3799       
1.81         0.51091      0.28843      -0.45211     0.66471      -0.45211     0.66471      0.45563      0.36982      
1.82         0.51617      0.27672      -0.43818     0.67484      -0.43818     0.67484      0.46245      0.35957      
1.83         0.52112      0.26489      -0.42403     0.68471      -0.42403     0.68471      0.46901      0.34916      
1.84         0.52577      0.25295      -0.40966     0.69432      -0.40966     0.69432      0.4753       0.33861      
1.85         0.53012      0.2409       -0.39507     0.70367      -0.39507     0.70367      0.48133      0.32791      
1.86         0.53415      0.22876      -0.38028     0.71273      -0.38028     0.71273      0.48709      0.31707      
1.87         0.53787      0.21653      -0.36527     0.72152      -0.36527     0.72152      0.49258      0.30611      
1.88         0.54127      0.20422      -0.35005     0.73003      -0.35005     0.73003      0.49779      0.29502      
1.89         0.54436      0.19184      -0.33464     0.73824      -0.33464     0.73824      0.50271      0.28382      
1.9          0.54712      0.1794       -0.31903     0.74617      -0.31903     0.74617      0.50736      0.2725       
1.91         0.54956      0.1669       -0.30323     0.7538       -0.30323     0.7538       0.51171      0.26109      
1.92         0.55167      0.15436      -0.28724     0.76112      -0.28724     0.76112      0.51577      0.24958      
1.93         0.55346      0.14179      -0.27106     0.76814      -0.27106     0.76814      0.51954      0.23798      
1.94         0.55491      0.12918      -0.25471     0.77485      -0.25471     0.77485      0.52301      0.22631      
1.95         0.55604      0.11656      -0.23818     0.78125      -0.23818     0.78125      0.52619      0.21457      
1.96         0.55684      0.10393      -0.22149     0.78732      -0.22149     0.78732      0.52906      0.20276      
1.97         0.55731      0.091295     -0.20462     0.79307      -0.20462     0.79307      0.53162      0.1909       
1.98         0.55744      0.078672     -0.1876      0.79849      -0.1876      0.79849      0.53389      0.17899      
1.99         0.55724      0.066067     -0.17042     0.80358      -0.17042     0.80358      0.53584      0.16704      
2            0.55671      0.05349      -0.15309     0.80832      -0.15309     0.80832      0.53748      0.15506      
2.01         0.55585      0.04095      -0.13562     0.81273      -0.13562     0.81273      0.53882      0.14306      
2.02         0.55466      0.028456     -0.118       0.81679      -0.118       0.81679      0.53984      0.13105      
2.03         0.55314      0.016018     -0.10026     0.82049      -0.10026     0.82049      0.54055      0.11903      
2.04         0.55129      0.0036454    -0.08238     0.82384      -0.08238     0.82384      0.54094      0.10701      
2.05         0.54911      -0.0086528   -0.064382    0.82682      -0.064382    0.82682      0.54102      0.095011     
2.06         0.5466       -0.020867    -0.046267    0.82944      -0.046267    0.82944      0.54079      0.08303      
2.07         0.54377      -0.032987    -0.028042    0.8317       -0.028042    0.8317       0.54024      0.071078     
2.08         0.54062      -0.045005    -0.0097121   0.83357      -0.0097121   0.83357      0.53938      0.059164     
2.09         0.53714      -0.056909    0.0087151    0.83507      0.0087151    0.83507      0.5382       0.047299     
2.1          0.53335      -0.068691    0.027234     0.83618      0.027234     0.83618      0.53671      0.03549      
2.11         0.52925      -0.080342    0.045837     0.83691      0.045837     0.83691      0.53491      0.023747     
2.12         0.52483      -0.091851    0.064517     0.83725      0.064517     0.83725      0.53279      0.012079     
2.13         0.5201       -0.10321     0.083268     0.83719      0.083268     0.83719      0.53037      0.00049481   
2.14         0.51508      -0.11441     0.10208      0.83672      0.10208      0.83672      0.52764      -0.010996    
2.15         0.50975      -0.12544     0.12095      0.83586      0.12095      0.83586      0.5246       -0.022385    
