!freq-unit  param-type  data-format  keyword  impedance-ohms
# GHZ           S          RI           R         50
!-----------------------------------------------------------------------------
!Freq          ReS11        ImS11        ReS21        ImS21        ReS12        ImS12        ReS22        ImS22
0.5          -0.1338      -0.10637     0.61345      -0.76871     0.61345      -0.76871     -0.1338      -0.10637     
0.51         -0.13821     -0.10591     0.59927      -0.77908     0.59927      -0.77908     -0.13821     -0.10591     
0.52         -0.14263     -0.10531     0.58491      -0.78919     0.58491      -0.78919     -0.14263     -0.10531     
0.53         -0.14706     -0.10458     0.57038      -0.79902     0.57038      -0.79902     -0.14706     -0.10458     
0.54         -0.1515      -0.10372     0.55569      -0.80857     0.55569      -0.80857     -0.1515      -0.10372     
0.55         -0.15595     -0.10273     0.54084      -0.81784     0.54084      -0.81784     -0.15595     -0.10273     
0.56         -0.1604      -0.10161     0.52583      -0.82684     0.52583      -0.82684     -0.1604      -0.10161     
0.57         -0.16485     -0.10036     0.51067      -0.83554     0.51067      -0.83554     -0.16485     -0.10036     
0.58         -0.16929     -0.09897     0.49537      -0.84396     0.49537      -0.84396     -0.16929     -0.09897     
0.59         -0.17372     -0.097453    0.47994      -0.8521      0.47994      -0.8521      -0.17372     -0.097453    
0.6          -0.17814     -0.095803    0.46437      -0.85994     0.46437      -0.85994     -0.17814     -0.095803    
0.61         -0.18254     -0.094022    0.44868      -0.86749     0.44868      -0.86749     -0.18254     -0.094022    
0.62         -0.18693     -0.09211     0.43287      -0.87474     0.43287      -0.87474     -0.18693     -0.09211     
0.63         -0.19129     -0.090067    0.41694      -0.8817      0.41694      -0.8817      -0.19129     -0.090067    
0.64         -0.19562     -0.087893    0.40091      -0.88835     0.40091      -0.88835     -0.19562     -0.087893    
0.65         -0.19993     -0.085589    0.38477      -0.89471     0.38477      -0.89471     -0.19993     -0.085589    
0.66         -0.2042      -0.083157    0.36854      -0.90077     0.36854      -0.90077     -0.2042      -0.083157    
0.67         -0.20844     -0.080595    0.35222      -0.90652     0.35222      -0.90652     -0.20844     -0.080595    
0.68         -0.21263     -0.077906    0.33581      -0.91197     0.33581      -0.91197     -0.21263     -0.077906    
0.69         -0.21679     -0.07509     0.31932      -0.91712     0.31932      -0.91712     -0.21679     -0.07509     
0.7          -0.22089     -0.072148    0.30276      -0.92196     0.30276      -0.92196     -0.22089     -0.072148    
0.71         -0.22495     -0.069082    0.28613      -0.92649     0.28613      -0.92649     -0.22495     -0.069082    
0.72         -0.22896     -0.065892    0.26944      -0.93072     0.26944      -0.93072     -0.22896     -0.065892    
0.73         -0.2329      -0.062579    0.2527       -0.93464     0.2527       -0.93464     -0.2329      -0.062579    
0.74         -0.23679     -0.059145    0.2359       -0.93825     0.2359       -0.93825     -0.23679     -0.059145    
0.75         -0.24062     -0.055591    0.21906      -0.94155     0.21906      -0.94155     -0.24062     -0.055591    
0.76         -0.24438     -0.051919    0.20219      -0.94454     0.20219      -0.94454     -0.24438     -0.051919    
0.77         -0.24807     -0.04813     0.18528      -0.94722     0.18528      -0.94722     -0.24807     -0.04813     
0.78         -0.25169     -0.044225    0.16834      -0.9496      0.16834      -0.9496      -0.25169     -0.044225    
0.79         -0.25524     -0.040207    0.15138      -0.95166     0.15138      -0.95166     -0.25524     -0.040207    
0.8          -0.25871     -0.036077    0.13441      -0.95342     0.13441      -0.95342     -0.25871     -0.036077    
0.81         -0.2621      -0.031836    0.11743      -0.95487     0.11743      -0.95487     -0.2621      -0.031836    
0.82         -0.26541     -0.027488    0.10045      -0.95601     0.10045      -0.95601     -0.26541     -0.027488    
0.83         -0.26863     -0.023033    0.083466     -0.95684     0.083466     -0.95684     -0.26863     -0.023033    
0.84         -0.27176     -0.018474    0.066492     -0.95737     0.066492     -0.95737     -0.27176     -0.018474    
0.85         -0.2748      -0.013812    0.049532     -0.95759     0.049532     -0.95759     -0.2748      -0.013812    
0.86         -0.27774     -0.0090499   0.03259      -0.95751     0.03259      -0.95751     -0.27774     -0.0090499   
0.87         -0.28059     -0.0041899   0.015674     -0.95712     0.015674     -0.95712     -0.28059     -0.0041899   
0.88         -0.28334     0.00076589   -0.0012123   -0.95643     -0.0012123   -0.95643     -0.28334     0.00076589   
0.89         -0.28599     0.0058153    -0.018063    -0.95543     -0.018063    -0.95543     -0.28599     0.0058153    
0.9          -0.28854     0.010956     -0.034872    -0.95414     -0.034872    -0.95414     -0.28854     0.010956     
0.91         -0.29098     0.016185     -0.051634    -0.95255     -0.051634    -0.95255     -0.29098     0.016185     
0.92         -0.29331     0.021501     -0.068345    -0.95065     -0.068345    -0.95065     -0.29331     0.021501     
0.93         -0.29553     0.026901     -0.084998    -0.94847     -0.084998    -0.94847     -0.29553     0.026901     
0.94         -0.29764     0.032382     -0.10159     -0.94598     -0.10159     -0.94598     -0.29764     0.032382     
0.95         -0.29963     0.037941     -0.11811     -0.94321     -0.11811     -0.94321     -0.29963     0.037941     
0.96         -0.30151     0.043577     -0.13456     -0.94014     -0.13456     -0.94014     -0.30151     0.043577     
0.97         -0.30326     0.049286     -0.15093     -0.93679     -0.15093     -0.93679     -0.30326     0.049286     
0.98         -0.3049      0.055066     -0.16722     -0.93314     -0.16722     -0.93314     -0.3049      0.055066     
0.99         -0.30641     0.060914     -0.18342     -0.92921     -0.18342     -0.92921     -0.30641     0.060914     
1            -0.3078      0.066827     -0.19952     -0.925       -0.19952     -0.925       -0.3078      0.066827     
1.01         -0.30907     0.072802     -0.21553     -0.92051     -0.21553     -0.92051     -0.30907     0.072802     
1.02         -0.3102      0.078837     -0.23143     -0.91574     -0.23143     -0.91574     -0.3102      0.078837     
1.03         -0.31121     0.084928     -0.24723     -0.9107      -0.24723     -0.9107      -0.31121     0.084928     
1.04         -0.31208     0.091072     -0.26291     -0.90538     -0.26291     -0.90538     -0.31208     0.091072     
1.05         -0.31283     0.097267     -0.27847     -0.89979     -0.27847     -0.89979     -0.31283     0.097267     
1.06         -0.31344     0.10351      -0.29392     -0.89393     -0.29392     -0.89393     -0.31344     0.10351      
1.07         -0.31391     0.1098       -0.30923     -0.88781     -0.30923     -0.88781     -0.31391     0.1098       
1.08         -0.31425     0.11613      -0.32442     -0.88143     -0.32442     -0.88143     -0.31425     0.11613      
1.09         -0.31445     0.12249      -0.33947     -0.87478     -0.33947     -0.87478     -0.31445     0.12249      
1.1          -0.31451     0.1289       -0.35438     -0.86788     -0.35438     -0.86788     -0.31451     0.1289       
1.11         -0.31444     0.13533      -0.36914     -0.86073     -0.36914     -0.86073     -0.31444     0.13533      
1.12         -0.31422     0.14179      -0.38376     -0.85333     -0.38376     -0.85333     -0.31422     0.14179      
1.13         -0.31387     0.14828      -0.39822     -0.84568     -0.39822     -0.84568     -0.31387     0.14828      
1.14         -0.31337     0.15479      -0.41252     -0.83778     -0.41252     -0.83778     -0.31337     0.15479      
1.15         -0.31273     0.16133      -0.42667     -0.82965     -0.42667     -0.82965     -0.31273     0.16133      
1.16         -0.31194     0.16787      -0.44065     -0.82128     -0.44065     -0.82128     -0.31194     0.16787      
1.17         -0.31102     0.17443      -0.45446     -0.81267     -0.45446     -0.81267     -0.31102     0.17443      
1.18         -0.30994     0.181        -0.4681      -0.80384     -0.4681      -0.80384     -0.30994     0.181        
1.19         -0.30873     0.18758      -0.48156     -0.79478     -0.48156     -0.79478     -0.30873     0.18758      
1.2          -0.30737     0.19416      -0.49484     -0.78549     -0.49484     -0.78549     -0.30737     0.19416      
1.21         -0.30586     0.20074      -0.50794     -0.77599     -0.50794     -0.77599     -0.30586     0.20074      
1.22         -0.30421     0.20732      -0.52085     -0.76627     -0.52085     -0.76627     -0.30421     0.20732      
1.23         -0.30241     0.21389      -0.53357     -0.75634     -0.53357     -0.75634     -0.30241     0.21389      
1.24         -0.30047     0.22045      -0.5461      -0.7462      -0.5461      -0.7462      -0.30047     0.22045      
1.25         -0.29838     0.227        -0.55843     -0.73586     -0.55843     -0.73586     -0.29838     0.227        
1.26         -0.29615     0.23353      -0.57056     -0.72532     -0.57056     -0.72532     -0.29615     0.23353      
1.27         -0.29377     0.24005      -0.58248     -0.71458     -0.58248     -0.71458     -0.29377     0.24005      
1.28         -0.29125     0.24654      -0.5942      -0.70365     -0.5942      -0.70365     -0.29125     0.24654      
1.29         -0.28858     0.253        -0.60571     -0.69254     -0.60571     -0.69254     -0.28858     0.253        
1.3          -0.28577     0.25944      -0.61701     -0.68124     -0.61701     -0.68124     -0.28577     0.25944      
1.31         -0.28281     0.26584      -0.62809     -0.66976     -0.62809     -0.66976     -0.28281     0.26584      
1.32         -0.27971     0.27221      -0.63895     -0.6581      -0.63895     -0.6581      -0.27971     0.27221      
1.33         -0.27647     0.27854      -0.6496      -0.64628     -0.6496      -0.64628     -0.27647     0.27854      
1.34         -0.27309     0.28482      -0.66002     -0.63428     -0.66002     -0.63428     -0.27309     0.28482      
1.35         -0.26956     0.29107      -0.67022     -0.62213     -0.67022     -0.62213     -0.26956     0.29107      
1.36         -0.26589     0.29726      -0.68018     -0.60981     -0.68018     -0.60981     -0.26589     0.29726      
1.37         -0.26209     0.30341      -0.68992     -0.59734     -0.68992     -0.59734     -0.26209     0.30341      
1.38         -0.25814     0.30949      -0.69943     -0.58473     -0.69943     -0.58473     -0.25814     0.30949      
1.39         -0.25406     0.31553      -0.7087      -0.57196     -0.7087      -0.57196     -0.25406     0.31553      
1.4          -0.24984     0.3215       -0.71774     -0.55906     -0.71774     -0.55906     -0.24984     0.3215       
1.41         -0.24549     0.32741      -0.72653     -0.54602     -0.72653     -0.54602     -0.24549     0.32741      
1.42         -0.241       0.33325      -0.73509     -0.53285     -0.73509     -0.53285     -0.241       0.33325      
1.43         -0.23638     0.33902      -0.7434      -0.51955     -0.7434      -0.51955     -0.23638     0.33902      
1.44         -0.23162     0.34472      -0.75148     -0.50613     -0.75148     -0.50613     -0.23162     0.34472      
1.45         -0.22674     0.35035      -0.7593      -0.49259     -0.7593      -0.49259     -0.22674     0.35035      
1.46         -0.22173     0.3559       -0.76688     -0.47894     -0.76688     -0.47894     -0.22173     0.3559       
1.47         -0.21658     0.36136      -0.77421     -0.46518     -0.77421     -0.46518     -0.21658     0.36136      
1.48         -0.21132     0.36675      -0.78129     -0.45131     -0.78129     -0.45131     -0.21132     0.36675      
1.49         -0.20593     0.37204      -0.78813     -0.43734     -0.78813     -0.43734     -0.20593     0.37204      
1.5          -0.20041     0.37725      -0.79471     -0.42328     -0.79471     -0.42328     -0.20041     0.37725      
1.51         -0.19478     0.38237      -0.80103     -0.40913     -0.80103     -0.40913     -0.19478     0.38237      
1.52         -0.18902     0.38739      -0.8071      -0.39489     -0.8071      -0.39489     -0.18902     0.38739      
1.53         -0.18315     0.39231      -0.81292     -0.38057     -0.81292     -0.38057     -0.18315     0.39231      
1.54         -0.17717     0.39714      -0.81848     -0.36617     -0.81848     -0.36617     -0.17717     0.39714      
1.55         -0.17107     0.40186      -0.82379     -0.3517      -0.82379     -0.3517      -0.17107     0.40186      
1.56         -0.16485     0.40648      -0.82884     -0.33716     -0.82884     -0.33716     -0.16485     0.40648      
1.57         -0.15853     0.41099      -0.83363     -0.32256     -0.83363     -0.32256     -0.15853     0.41099      
1.58         -0.15211     0.41539      -0.83816     -0.3079      -0.83816     -0.3079      -0.15211     0.41539      
1.59         -0.14557     0.41968      -0.84243     -0.29319     -0.84243     -0.29319     -0.14557     0.41968      
1.6          -0.13894     0.42386      -0.84644     -0.27842     -0.84644     -0.27842     -0.13894     0.42386      
1.61         -0.1322      0.42792      -0.8502      -0.26361     -0.8502      -0.26361     -0.1322      0.42792      
1.62         -0.12536     0.43186      -0.85369     -0.24876     -0.85369     -0.24876     -0.12536     0.43186      
1.63         -0.11843     0.43568      -0.85693     -0.23388     -0.85693     -0.23388     -0.11843     0.43568      
1.64         -0.11141     0.43938      -0.85991     -0.21896     -0.85991     -0.21896     -0.11141     0.43938      
1.65         -0.10429     0.44295      -0.86262     -0.20402     -0.86262     -0.20402     -0.10429     0.44295      
1.66         -0.097086    0.44639      -0.86508     -0.18906     -0.86508     -0.18906     -0.097086    0.44639      
1.67         -0.089794    0.44971      -0.86727     -0.17407     -0.86727     -0.17407     -0.089794    0.44971      
1.68         -0.082419    0.4529       -0.86921     -0.15908     -0.86921     -0.15908     -0.082419    0.4529       
1.69         -0.074963    0.45595      -0.87089     -0.14407     -0.87089     -0.14407     -0.074963    0.45595      
1.7          -0.067428    0.45887      -0.87231     -0.12906     -0.87231     -0.12906     -0.067428    0.45887      
1.71         -0.059818    0.46165      -0.87348     -0.11405     -0.87348     -0.11405     -0.059818    0.46165      
1.72         -0.052134    0.46429      -0.87438     -0.099048    -0.87438     -0.099048    -0.052134    0.46429      
1.73         -0.04438     0.4668       -0.87503     -0.084052    -0.87503     -0.084052    -0.04438     0.4668       
1.74         -0.036558    0.46916      -0.87543     -0.069069    -0.87543     -0.069069    -0.036558    0.46916      
1.75         -0.028672    0.47138      -0.87557     -0.054103    -0.87557     -0.054103    -0.028672    0.47138      
1.76         -0.020723    0.47346      -0.87545     -0.039159    -0.87545     -0.039159    -0.020723    0.47346      
1.77         -0.012715    0.47539      -0.87509     -0.024241    -0.87509     -0.024241    -0.012715    0.47539      
1.78         -0.0046506   0.47718      -0.87447     -0.0093539   -0.87447     -0.0093539   -0.0046506   0.47718      
1.79         0.0034671    0.47881      -0.8736      0.0054993    -0.8736      0.0054993    0.0034671    0.47881      
1.8          0.011635     0.4803       -0.87248     0.020314     -0.87248     0.020314     0.011635     0.4803       
1.81         0.019851     0.48164      -0.87111     0.035086     -0.87111     0.035086     0.019851     0.48164      
1.82         0.028111     0.48282      -0.86949     0.049811     -0.86949     0.049811     0.028111     0.48282      
1.83         0.036413     0.48385      -0.86763     0.064485     -0.86763     0.064485     0.036413     0.48385      
1.84         0.044753     0.48473      -0.86552     0.079104     -0.86552     0.079104     0.044753     0.48473      
1.85         0.053129     0.48546      -0.86317     0.093665     -0.86317     0.093665     0.053129     0.48546      
1.86         0.061538     0.48603      -0.86058     0.10816      -0.86058     0.10816      0.061538     0.48603      
1.87         0.069976     0.48644      -0.85775     0.12259      -0.85775     0.12259      0.069976     0.48644      
1.88         0.07844      0.48669      -0.85468     0.13695      -0.85468     0.13695      0.07844      0.48669      
1.89         0.086927     0.48679      -0.85137     0.15124      -0.85137     0.15124      0.086927     0.48679      
1.9          0.095435     0.48673      -0.84783     0.16545      -0.84783     0.16545      0.095435     0.48673      
1.91         0.10396      0.48652      -0.84406     0.17957      -0.84406     0.17957      0.10396      0.48652      
1.92         0.1125       0.48614      -0.84005     0.19361      -0.84005     0.19361      0.1125       0.48614      
1.93         0.12105      0.4856       -0.83582     0.20756      -0.83582     0.20756      0.12105      0.4856       
1.94         0.1296       0.4849       -0.83136     0.22142      -0.83136     0.22142      0.1296       0.4849       
1.95         0.13816      0.48405      -0.82667     0.23518      -0.82667     0.23518      0.13816      0.48405      
1.96         0.14673      0.48303      -0.82176     0.24884      -0.82176     0.24884      0.14673      0.48303      
1.97         0.15529      0.48185      -0.81664     0.2624       -0.81664     0.2624       0.15529      0.48185      
1.98         0.16384      0.48051      -0.81129     0.27585      -0.81129     0.27585      0.16384      0.48051      
1.99         0.17239      0.47901      -0.80572     0.28919      -0.80572     0.28919      0.17239      0.47901      
2            0.18093      0.47735      -0.79995     0.30242      -0.79995     0.30242      0.18093      0.47735      
2.01         0.18945      0.47553      -0.79396     0.31553      -0.79396     0.31553      0.18945      0.47553      
2.02         0.19795      0.47355      -0.78776     0.32852      -0.78776     0.32852      0.19795      0.47355      
2.03         0.20643      0.47141      -0.78136     0.34138      -0.78136     0.34138      0.20643      0.47141      
2.04         0.21489      0.46911      -0.77475     0.35412      -0.77475     0.35412      0.21489      0.46911      
2.05         0.22333      0.46665      -0.76794     0.36673      -0.76794     0.36673      0.22333      0.46665      
2.06         0.23173      0.46403      -0.76093     0.37921      -0.76093     0.37921      0.23173      0.46403      
2.07         0.2401       0.46125      -0.75372     0.39155      -0.75372     0.39155      0.2401       0.46125      
2.08         0.24843      0.45832      -0.74632     0.40376      -0.74632     0.40376      0.24843      0.45832      
2.09         0.25672      0.45522      -0.73873     0.41582      -0.73873     0.41582      0.25672      0.45522      
2.1          0.26497      0.45197      -0.73095     0.42774      -0.73095     0.42774      0.26497      0.45197      
2.11         0.27318      0.44857      -0.72299     0.43951      -0.72299     0.43951      0.27318      0.44857      
2.12         0.28133      0.445        -0.71484     0.45113      -0.71484     0.45113      0.28133      0.445        
2.13         0.28944      0.44129      -0.70652     0.4626       -0.70652     0.4626       0.28944      0.44129      
2.14         0.29749      0.43742      -0.69801     0.47392      -0.69801     0.47392      0.29749      0.43742      
2.15         0.30548      0.4334       -0.68933     0.48508      -0.68933     0.48508      0.30548      0.4334       
