!freq-unit  param-type  data-format  keyword  impedance-ohms
# GHZ           S          RI           R         50
!-----------------------------------------------------------------------------
!Freq          ReS11        ImS11        ReS21        ImS21        ReS12        ImS12        ReS22        ImS22
0.5          -0.51207     0.028404     -0.046225    -0.85393     -0.046225    -0.85393     -0.51207     0.028404     
0.51         -0.51619     0.043663     -0.070711    -0.84909     -0.070711    -0.84909     -0.51619     0.043663     
0.52         -0.51968     0.059104     -0.094866    -0.84363     -0.094866    -0.84363     -0.51968     0.059104     
0.53         -0.52253     0.074697     -0.11868     -0.83756     -0.11868     -0.83756     -0.52253     0.074697     
0.54         -0.52475     0.090414     -0.14214     -0.83092     -0.14214     -0.83092     -0.52475     0.090414     
0.55         -0.52633     0.10623      -0.16525     -0.82372     -0.16525     -0.82372     -0.52633     0.10623      
0.56         -0.52728     0.12211      -0.18799     -0.81597     -0.18799     -0.81597     -0.52728     0.12211      
0.57         -0.52761     0.13804      -0.21037     -0.80769     -0.21037     -0.80769     -0.52761     0.13804      
0.58         -0.5273      0.15398      -0.23238     -0.7989      -0.23238     -0.7989      -0.5273      0.15398      
0.59         -0.52637     0.16992      -0.254       -0.78962     -0.254       -0.78962     -0.52637     0.16992      
0.6          -0.52483     0.18583      -0.27525     -0.77985     -0.27525     -0.77985     -0.52483     0.18583      
0.61         -0.52267     0.20168      -0.29611     -0.76962     -0.29611     -0.76962     -0.52267     0.20168      
0.62         -0.51991     0.21744      -0.31659     -0.75895     -0.31659     -0.75895     -0.51991     0.21744      
0.63         -0.51656     0.23311      -0.33668     -0.74783     -0.33668     -0.74783     -0.51656     0.23311      
0.64         -0.51261     0.24865      -0.35637     -0.7363      -0.35637     -0.7363      -0.51261     0.24865      
0.65         -0.50809     0.26405      -0.37568     -0.72435     -0.37568     -0.72435     -0.50809     0.26405      
0.66         -0.50299     0.27927      -0.39459     -0.712       -0.39459     -0.712       -0.50299     0.27927      
0.67         -0.49733     0.29431      -0.41311     -0.69927     -0.41311     -0.69927     -0.49733     0.29431      
0.68         -0.49112     0.30915      -0.43123     -0.68616     -0.43123     -0.68616     -0.49112     0.30915      
0.69         -0.48438     0.32375      -0.44895     -0.67269     -0.44895     -0.67269     -0.48438     0.32375      
0.7          -0.4771      0.33811      -0.46628     -0.65887     -0.46628     -0.65887     -0.4771      0.33811      
0.71         -0.46931     0.3522       -0.48321     -0.64469     -0.48321     -0.64469     -0.46931     0.3522       
0.72         -0.46101     0.36601      -0.49974     -0.63019     -0.49974     -0.63019     -0.46101     0.36601      
0.73         -0.45222     0.37953      -0.51587     -0.61535     -0.51587     -0.61535     -0.45222     0.37953      
0.74         -0.44295     0.39272      -0.5316      -0.6002      -0.5316      -0.6002      -0.44295     0.39272      
0.75         -0.43322     0.40559      -0.54693     -0.58473     -0.54693     -0.58473     -0.43322     0.40559      
0.76         -0.42303     0.41811      -0.56186     -0.56896     -0.56186     -0.56896     -0.42303     0.41811      
0.77         -0.41241     0.43026      -0.57639     -0.5529      -0.57639     -0.5529      -0.41241     0.43026      
0.78         -0.40136     0.44204      -0.59052     -0.53654     -0.59052     -0.53654     -0.40136     0.44204      
0.79         -0.3899      0.45343      -0.60424     -0.5199      -0.60424     -0.5199      -0.3899      0.45343      
0.8          -0.37805     0.46442      -0.61756     -0.50299     -0.61756     -0.50299     -0.37805     0.46442      
0.81         -0.36582     0.47499      -0.63047     -0.4858      -0.63047     -0.4858      -0.36582     0.47499      
0.82         -0.35323     0.48512      -0.64298     -0.46835     -0.64298     -0.46835     -0.35323     0.48512      
0.83         -0.34029     0.49482      -0.65507     -0.45063     -0.65507     -0.45063     -0.34029     0.49482      
0.84         -0.32702     0.50406      -0.66676     -0.43266     -0.66676     -0.43266     -0.32702     0.50406      
0.85         -0.31343     0.51284      -0.67803     -0.41444     -0.67803     -0.41444     -0.31343     0.51284      
0.86         -0.29955     0.52114      -0.68888     -0.39597     -0.68888     -0.39597     -0.29955     0.52114      
0.87         -0.28538     0.52896      -0.69932     -0.37726     -0.69932     -0.37726     -0.28538     0.52896      
0.88         -0.27095     0.53628      -0.70934     -0.35832     -0.70934     -0.35832     -0.27095     0.53628      
0.89         -0.25627     0.5431       -0.71893     -0.33914     -0.71893     -0.33914     -0.25627     0.5431       
0.9          -0.24137     0.54941      -0.72809     -0.31973     -0.72809     -0.31973     -0.24137     0.54941      
0.91         -0.22626     0.55519      -0.73682     -0.30009     -0.73682     -0.30009     -0.22626     0.55519      
0.92         -0.21095     0.56044      -0.74512     -0.28024     -0.74512     -0.28024     -0.21095     0.56044      
0.93         -0.19547     0.56516      -0.75297     -0.26017     -0.75297     -0.26017     -0.19547     0.56516      
0.94         -0.17983     0.56933      -0.76039     -0.23988     -0.76039     -0.23988     -0.17983     0.56933      
0.95         -0.16407     0.57296      -0.76735     -0.21939     -0.76735     -0.21939     -0.16407     0.57296      
0.96         -0.14818     0.57603      -0.77385     -0.19869     -0.77385     -0.19869     -0.14818     0.57603      
0.97         -0.1322      0.57854      -0.7799      -0.17779     -0.7799      -0.17779     -0.1322      0.57854      
0.98         -0.11614     0.58048      -0.78547     -0.1567      -0.78547     -0.1567      -0.11614     0.58048      
0.99         -0.10003     0.58185      -0.79057     -0.13541     -0.79057     -0.13541     -0.10003     0.58185      
1            -0.083883    0.58265      -0.79519     -0.11394     -0.79519     -0.11394     -0.083883    0.58265      
1.01         -0.067722    0.58287      -0.79933     -0.092282    -0.79933     -0.092282    -0.067722    0.58287      
1.02         -0.051568    0.58252      -0.80296     -0.070449    -0.80296     -0.070449    -0.051568    0.58252      
1.03         -0.035444    0.58158      -0.80609     -0.048444    -0.80609     -0.048444    -0.035444    0.58158      
1.04         -0.019369    0.58006      -0.80871     -0.026273    -0.80871     -0.026273    -0.019369    0.58006      
1.05         -0.0033674   0.57796      -0.81081     -0.0039422   -0.81081     -0.0039422   -0.0033674   0.57796      
1.06         0.01254      0.57528      -0.81238     0.018542     -0.81238     0.018542     0.01254      0.57528      
1.07         0.028329     0.57202      -0.81341     0.041174     -0.81341     0.041174     0.028329     0.57202      
1.08         0.043979     0.56818      -0.81389     0.063945     -0.81389     0.063945     0.043979     0.56818      
1.09         0.059466     0.56376      -0.81381     0.086848     -0.81381     0.086848     0.059466     0.56376      
1.1          0.074766     0.55877      -0.81316     0.10987      -0.81316     0.10987      0.074766     0.55877      
1.11         0.089856     0.55321      -0.81193     0.13301      -0.81193     0.13301      0.089856     0.55321      
1.12         0.10471      0.54708      -0.8101      0.15626      -0.8101      0.15626      0.10471      0.54708      
1.13         0.11931      0.5404       -0.80768     0.1796       -0.80768     0.1796       0.11931      0.5404       
1.14         0.13363      0.53317      -0.80464     0.20303      -0.80464     0.20303      0.13363      0.53317      
1.15         0.14765      0.5254       -0.80097     0.22653      -0.80097     0.22653      0.14765      0.5254       
1.16         0.16133      0.51709      -0.79666     0.25008      -0.79666     0.25008      0.16133      0.51709      
1.17         0.17466      0.50825      -0.79171     0.27369      -0.79171     0.27369      0.17466      0.50825      
1.18         0.18762      0.49891      -0.78609     0.29733      -0.78609     0.29733      0.18762      0.49891      
1.19         0.20017      0.48906      -0.7798      0.32099      -0.7798      0.32099      0.20017      0.48906      
1.2          0.21229      0.47872      -0.77281     0.34464      -0.77281     0.34464      0.21229      0.47872      
1.21         0.22397      0.46792      -0.76514     0.36829      -0.76514     0.36829      0.22397      0.46792      
1.22         0.23517      0.45666      -0.75674     0.3919       -0.75674     0.3919       0.23517      0.45666      
1.23         0.24587      0.44495      -0.74763     0.41546      -0.74763     0.41546      0.24587      0.44495      
1.24         0.25606      0.43283      -0.73778     0.43894      -0.73778     0.43894      0.25606      0.43283      
1.25         0.2657       0.42031      -0.72718     0.46233      -0.72718     0.46233      0.2657       0.42031      
1.26         0.27477      0.4074       -0.71583     0.48561      -0.71583     0.48561      0.27477      0.4074       
1.27         0.28326      0.39414      -0.7037      0.50874      -0.7037      0.50874      0.28326      0.39414      
1.28         0.29114      0.38055      -0.6908      0.53171      -0.6908      0.53171      0.29114      0.38055      
1.29         0.29838      0.36665      -0.67711     0.55449      -0.67711     0.55449      0.29838      0.36665      
1.3          0.30498      0.35247      -0.66262     0.57705      -0.66262     0.57705      0.30498      0.35247      
1.31         0.31091      0.33804      -0.64732     0.59936      -0.64732     0.59936      0.31091      0.33804      
1.32         0.31615      0.32339      -0.63122     0.62138      -0.63122     0.62138      0.31615      0.32339      
1.33         0.32069      0.30855      -0.61429     0.6431       -0.61429     0.6431       0.32069      0.30855      
1.34         0.32451      0.29355      -0.59654     0.66448      -0.59654     0.66448      0.32451      0.29355      
1.35         0.3276       0.27843      -0.57797     0.68547      -0.57797     0.68547      0.3276       0.27843      
1.36         0.32994      0.26323      -0.55856     0.70605      -0.55856     0.70605      0.32994      0.26323      
1.37         0.33153      0.24797      -0.53833     0.72619      -0.53833     0.72619      0.33153      0.24797      
1.38         0.33235      0.23271      -0.51727     0.74583      -0.51727     0.74583      0.33235      0.23271      
1.39         0.3324       0.21747      -0.49538     0.76494      -0.49538     0.76494      0.3324       0.21747      
1.4          0.33168      0.20231      -0.47267     0.78349      -0.47267     0.78349      0.33168      0.20231      
1.41         0.33017      0.18726      -0.44915     0.80143      -0.44915     0.80143      0.33017      0.18726      
1.42         0.32788      0.17236      -0.42483     0.81871      -0.42483     0.81871      0.32788      0.17236      
1.43         0.32481      0.15766      -0.39971     0.83531      -0.39971     0.83531      0.32481      0.15766      
1.44         0.32097      0.14321      -0.37382     0.85117      -0.37382     0.85117      0.32097      0.14321      
1.45         0.31637      0.12904      -0.34717     0.86625      -0.34717     0.86625      0.31637      0.12904      
1.46         0.311        0.11521      -0.31977     0.8805       -0.31977     0.8805       0.311        0.11521      
1.47         0.30489      0.10176      -0.29166     0.89389      -0.29166     0.89389      0.30489      0.10176      
1.48         0.29805      0.088738     -0.26286     0.90637      -0.26286     0.90637      0.29805      0.088738     
1.49         0.29051      0.076184     -0.23339     0.91789      -0.23339     0.91789      0.29051      0.076184     
1.5          0.28228      0.064145     -0.20329     0.92842      -0.20329     0.92842      0.28228      0.064145     
1.51         0.27338      0.052666     -0.1726      0.9379       -0.1726      0.9379       0.27338      0.052666     
1.52         0.26386      0.04179      -0.14134     0.94631      -0.14134     0.94631      0.26386      0.04179      
1.53         0.25373      0.031559     -0.10957     0.95361      -0.10957     0.95361      0.25373      0.031559     
1.54         0.24304      0.022012     -0.077325    0.95974      -0.077325    0.95974      0.24304      0.022012     
1.55         0.23183      0.01319      -0.044653    0.96468      -0.044653    0.96468      0.23183      0.01319      
1.56         0.22013      0.0051273    -0.011604    0.9684       -0.011604    0.9684       0.22013      0.0051273    
1.57         0.20798      -0.0021409   0.021766     0.97087      0.021766     0.97087      0.20798      -0.0021409   
1.58         0.19545      -0.0085834   0.055403     0.97204      0.055403     0.97204      0.19545      -0.0085834   
1.59         0.18257      -0.014172    0.089248     0.97191      0.089248     0.97191      0.18257      -0.014172    
1.6          0.1694       -0.01888     0.12324      0.97045      0.12324      0.97045      0.1694       -0.01888     
1.61         0.15599      -0.022687    0.15731      0.96764      0.15731      0.96764      0.15599      -0.022687    
1.62         0.14241      -0.025573    0.19141      0.96346      0.19141      0.96346      0.14241      -0.025573    
1.63         0.1287       -0.027526    0.22545      0.9579       0.22545      0.9579       0.1287       -0.027526    
1.64         0.11494      -0.028533    0.25937      0.95097      0.25937      0.95097      0.11494      -0.028533    
1.65         0.10117      -0.028589    0.29311      0.94265      0.29311      0.94265      0.10117      -0.028589    
1.66         0.087465     -0.027692    0.3266       0.93295      0.3266       0.93295      0.087465     -0.027692    
1.67         0.073885     -0.025846    0.35975      0.92187      0.35975      0.92187      0.073885     -0.025846    
1.68         0.06049      -0.023055    0.39251      0.90943      0.39251      0.90943      0.06049      -0.023055    
1.69         0.047344     -0.019334    0.4248       0.89564      0.4248       0.89564      0.047344     -0.019334    
1.7          0.034508     -0.014697    0.45655      0.88052      0.45655      0.88052      0.034508     -0.014697    
1.71         0.022042     -0.0091654   0.4877       0.86411      0.4877       0.86411      0.022042     -0.0091654   
1.72         0.010004     -0.0027642   0.51818      0.84642      0.51818      0.84642      0.010004     -0.0027642   
1.73         -0.0015489   0.0044774    0.54792      0.82749      0.54792      0.82749      -0.0015489   0.0044774    
1.74         -0.012562    0.012526     0.57687      0.80736      0.57687      0.80736      -0.012562    0.012526     
1.75         -0.022983    0.021344     0.60495      0.78608      0.60495      0.78608      -0.022983    0.021344     
1.76         -0.032763    0.030891     0.63213      0.76368      0.63213      0.76368      -0.032763    0.030891     
1.77         -0.041856    0.041121     0.65833      0.74023      0.65833      0.74023      -0.041856    0.041121     
1.78         -0.05022     0.051989     0.68352      0.71576      0.68352      0.71576      -0.05022     0.051989     
1.79         -0.057815    0.063443     0.70764      0.69035      0.70764      0.69035      -0.057815    0.063443     
1.8          -0.064607    0.075431     0.73066      0.66403      0.73066      0.66403      -0.064607    0.075431     
1.81         -0.070565    0.087898     0.75253      0.63689      0.75253      0.63689      -0.070565    0.087898     
1.82         -0.075662    0.10079      0.77323      0.60897      0.77323      0.60897      -0.075662    0.10079      
1.83         -0.079876    0.11404      0.79271      0.58035      0.79271      0.58035      -0.079876    0.11404      
1.84         -0.083189    0.1276       0.81097      0.55108      0.81097      0.55108      -0.083189    0.1276       
1.85         -0.085586    0.1414       0.82797      0.52124      0.82797      0.52124      -0.085586    0.1414       
1.86         -0.087059    0.15539      0.84371      0.49089      0.84371      0.49089      -0.087059    0.15539      
1.87         -0.087602    0.1695       0.85816      0.46009      0.85816      0.46009      -0.087602    0.1695       
1.88         -0.087215    0.18369      0.87133      0.42891      0.87133      0.42891      -0.087215    0.18369      
1.89         -0.0859      0.19787      0.8832       0.39742      0.8832       0.39742      -0.0859      0.19787      
1.9          -0.083665    0.21201      0.89378      0.36568      0.89378      0.36568      -0.083665    0.21201      
1.91         -0.080521    0.22604      0.90307      0.33376      0.90307      0.33376      -0.080521    0.22604      
1.92         -0.076481    0.23991      0.91109      0.30171      0.91109      0.30171      -0.076481    0.23991      
1.93         -0.071565    0.25357      0.91784      0.2696       0.91784      0.2696       -0.071565    0.25357      
1.94         -0.065792    0.26696      0.92333      0.23748      0.92333      0.23748      -0.065792    0.26696      
1.95         -0.059187    0.28004      0.9276       0.20541      0.9276       0.20541      -0.059187    0.28004      
1.96         -0.051777    0.29275      0.93064      0.17345      0.93064      0.17345      -0.051777    0.29275      
1.97         -0.043591    0.30506      0.9325       0.14164      0.9325       0.14164      -0.043591    0.30506      
1.98         -0.03466     0.31693      0.93319      0.11003      0.93319      0.11003      -0.03466     0.31693      
1.99         -0.025016    0.32832      0.93274      0.078666     0.93274      0.078666     -0.025016    0.32832      
2            -0.014697    0.33918      0.93119      0.047597     0.93119      0.047597     -0.014697    0.33918      
2.01         -0.0037367   0.3495       0.92855      0.016861     0.92855      0.016861     -0.0037367   0.3495       
2.02         0.0078259    0.35923      0.92487      -0.013504    0.92487      -0.013504    0.0078259    0.35923      
2.03         0.019952     0.36835      0.92018      -0.043464    0.92018      -0.043464    0.019952     0.36835      
2.04         0.032603     0.37685      0.91451      -0.072986    0.91451      -0.072986    0.032603     0.37685      
2.05         0.045739     0.38468      0.90789      -0.10204     0.90789      -0.10204     0.045739     0.38468      
2.06         0.059318     0.39185      0.90036      -0.1306      0.90036      -0.1306      0.059318     0.39185      
2.07         0.073301     0.39832      0.89196      -0.15864     0.89196      -0.15864     0.073301     0.39832      
2.08         0.087646     0.40409      0.88273      -0.18613     0.88273      -0.18613     0.087646     0.40409      
2.09         0.10231      0.40915      0.87269      -0.21307     0.87269      -0.21307     0.10231      0.40915      
2.1          0.11726      0.41348      0.86188      -0.23942     0.86188      -0.23942     0.11726      0.41348      
2.11         0.13246      0.41709      0.85034      -0.26518     0.85034      -0.26518     0.13246      0.41709      
2.12         0.14785      0.41996      0.8381       -0.29033     0.8381       -0.29033     0.14785      0.41996      
2.13         0.16341      0.42209      0.82519      -0.31486     0.82519      -0.31486     0.16341      0.42209      
2.14         0.1791       0.42349      0.81166      -0.33876     0.81166      -0.33876     0.1791       0.42349      
2.15         0.19487      0.42416      0.79753      -0.36202     0.79753      -0.36202     0.19487      0.42416      
