!freq-unit  param-type  data-format  keyword  impedance-ohms
# GHZ           S          RI           R         50
!-----------------------------------------------------------------------------
!Freq          ReS11        ImS11        ReS21        ImS21        ReS12        ImS12        ReS22        ImS22
0.5          -0.13814     -0.11368     0.62546      -0.75718     0.62546      -0.75718     -0.13814     -0.11368     
0.51         -0.14273     -0.11333     0.6117       -0.76752     0.6117       -0.76752     -0.14273     -0.11333     
0.52         -0.14734     -0.11284     0.59777      -0.77761     0.59777      -0.77761     -0.14734     -0.11284     
0.53         -0.15196     -0.11222     0.58367      -0.78743     0.58367      -0.78743     -0.15196     -0.11222     
0.54         -0.1566      -0.11146     0.56941      -0.79698     0.56941      -0.79698     -0.1566      -0.11146     
0.55         -0.16125     -0.11057     0.555        -0.80627     0.555        -0.80627     -0.16125     -0.11057     
0.56         -0.1659      -0.10955     0.54043      -0.81529     0.54043      -0.81529     -0.1659      -0.10955     
0.57         -0.17055     -0.10839     0.52572      -0.82403     0.52572      -0.82403     -0.17055     -0.10839     
0.58         -0.1752      -0.1071      0.51087      -0.8325      0.51087      -0.8325      -0.1752      -0.1071      
0.59         -0.17984     -0.10567     0.49588      -0.84069     0.49588      -0.84069     -0.17984     -0.10567     
0.6          -0.18448     -0.1041      0.48077      -0.8486      0.48077      -0.8486      -0.18448     -0.1041      
0.61         -0.18911     -0.1024      0.46553      -0.85623     0.46553      -0.85623     -0.18911     -0.1024      
0.62         -0.19372     -0.10057     0.45017      -0.86357     0.45017      -0.86357     -0.19372     -0.10057     
0.63         -0.19831     -0.098598    0.4347       -0.87063     0.4347       -0.87063     -0.19831     -0.098598    
0.64         -0.20287     -0.096495    0.41912      -0.87741     0.41912      -0.87741     -0.20287     -0.096495    
0.65         -0.20742     -0.094259    0.40344      -0.88389     0.40344      -0.88389     -0.20742     -0.094259    
0.66         -0.21193     -0.091889    0.38766      -0.89009     0.38766      -0.89009     -0.21193     -0.091889    
0.67         -0.21641     -0.089386    0.3718       -0.896       0.3718       -0.896       -0.21641     -0.089386    
0.68         -0.22085     -0.086752    0.35584      -0.90161     0.35584      -0.90161     -0.22085     -0.086752    
0.69         -0.22526     -0.083986    0.33981      -0.90693     0.33981      -0.90693     -0.22526     -0.083986    
0.7          -0.22962     -0.081091    0.32371      -0.91196     0.32371      -0.91196     -0.22962     -0.081091    
0.71         -0.23393     -0.078066    0.30753      -0.91669     0.30753      -0.91669     -0.23393     -0.078066    
0.72         -0.2382      -0.074913    0.29129      -0.92113     0.29129      -0.92113     -0.2382      -0.074913    
0.73         -0.24241     -0.071633    0.275        -0.92527     0.275        -0.92527     -0.24241     -0.071633    
0.74         -0.24657     -0.068227    0.25865      -0.92912     0.25865      -0.92912     -0.24657     -0.068227    
0.75         -0.25067     -0.064696    0.24226      -0.93267     0.24226      -0.93267     -0.25067     -0.064696    
0.76         -0.2547      -0.061041    0.22583      -0.93592     0.22583      -0.93592     -0.2547      -0.061041    
0.77         -0.25867     -0.057265    0.20936      -0.93888     0.20936      -0.93888     -0.25867     -0.057265    
0.78         -0.26257     -0.053369    0.19287      -0.94153     0.19287      -0.94153     -0.26257     -0.053369    
0.79         -0.2664      -0.049353    0.17635      -0.94389     0.17635      -0.94389     -0.2664      -0.049353    
0.8          -0.27016     -0.04522     0.15981      -0.94596     0.15981      -0.94596     -0.27016     -0.04522     
0.81         -0.27384     -0.040972    0.14326      -0.94773     0.14326      -0.94773     -0.27384     -0.040972    
0.82         -0.27744     -0.036609    0.1267       -0.9492      0.1267       -0.9492      -0.27744     -0.036609    
0.83         -0.28095     -0.032135    0.11014      -0.95037     0.11014      -0.95037     -0.28095     -0.032135    
0.84         -0.28438     -0.027551    0.093577     -0.95125     0.093577     -0.95125     -0.28438     -0.027551    
0.85         -0.28772     -0.022858    0.077028     -0.95184     0.077028     -0.95184     -0.28772     -0.022858    
0.86         -0.29097     -0.018059    0.060493     -0.95213     0.060493     -0.95213     -0.29097     -0.018059    
0.87         -0.29412     -0.013156    0.043978     -0.95213     0.043978     -0.95213     -0.29412     -0.013156    
0.88         -0.29718     -0.008151    0.027487     -0.95184     0.027487     -0.95184     -0.29718     -0.008151    
0.89         -0.30014     -0.0030463   0.011026     -0.95126     0.011026     -0.95126     -0.30014     -0.0030463   
0.9          -0.30299     0.0021559    -0.0053994   -0.95039     -0.0053994   -0.95039     -0.30299     0.0021559    
0.91         -0.30575     0.0074534    -0.021785    -0.94923     -0.021785    -0.94923     -0.30575     0.0074534    
0.92         -0.30839     0.012844     -0.038124    -0.94778     -0.038124    -0.94778     -0.30839     0.012844     
0.93         -0.31093     0.018325     -0.054414    -0.94605     -0.054414    -0.94605     -0.31093     0.018325     
0.94         -0.31336     0.023893     -0.070647    -0.94403     -0.070647    -0.94403     -0.31336     0.023893     
0.95         -0.31567     0.029548     -0.08682     -0.94173     -0.08682     -0.94173     -0.31567     0.029548     
0.96         -0.31787     0.035285     -0.10293     -0.93915     -0.10293     -0.93915     -0.31787     0.035285     
0.97         -0.31994     0.041103     -0.11896     -0.93629     -0.11896     -0.93629     -0.31994     0.041103     
0.98         -0.3219      0.046998     -0.13493     -0.93316     -0.13493     -0.93316     -0.3219      0.046998     
0.99         -0.32374     0.052968     -0.15081     -0.92975     -0.15081     -0.92975     -0.32374     0.052968     
1            -0.32546     0.059011     -0.1666      -0.92607     -0.1666      -0.92607     -0.32546     0.059011     
1.01         -0.32705     0.065123     -0.18231     -0.92211     -0.18231     -0.92211     -0.32705     0.065123     
1.02         -0.32851     0.071301     -0.19792     -0.91789     -0.19792     -0.91789     -0.32851     0.071301     
1.03         -0.32984     0.077544     -0.21344     -0.9134      -0.21344     -0.9134      -0.32984     0.077544     
1.04         -0.33105     0.083848     -0.22885     -0.90865     -0.22885     -0.90865     -0.33105     0.083848     
1.05         -0.33212     0.090209     -0.24415     -0.90364     -0.24415     -0.90364     -0.33212     0.090209     
1.06         -0.33306     0.096626     -0.25934     -0.89836     -0.25934     -0.89836     -0.33306     0.096626     
1.07         -0.33386     0.1031       -0.27441     -0.89284     -0.27441     -0.89284     -0.33386     0.1031       
1.08         -0.33453     0.10961      -0.28936     -0.88705     -0.28936     -0.88705     -0.33453     0.10961      
1.09         -0.33506     0.11618      -0.30419     -0.88102     -0.30419     -0.88102     -0.33506     0.11618      
1.1          -0.33545     0.12278      -0.31889     -0.87474     -0.31889     -0.87474     -0.33545     0.12278      
1.11         -0.3357      0.12943      -0.33345     -0.86821     -0.33345     -0.86821     -0.3357      0.12943      
1.12         -0.33581     0.13612      -0.34788     -0.86144     -0.34788     -0.86144     -0.33581     0.13612      
1.13         -0.33578     0.14283      -0.36216     -0.85444     -0.36216     -0.85444     -0.33578     0.14283      
1.14         -0.3356      0.14958      -0.3763      -0.84719     -0.3763      -0.84719     -0.3356      0.14958      
1.15         -0.33529     0.15636      -0.39029     -0.83972     -0.39029     -0.83972     -0.33529     0.15636      
1.16         -0.33482     0.16316      -0.40413     -0.83201     -0.40413     -0.83201     -0.33482     0.16316      
1.17         -0.33422     0.16998      -0.41781     -0.82408     -0.41781     -0.82408     -0.33422     0.16998      
1.18         -0.33346     0.17682      -0.43133     -0.81592     -0.43133     -0.81592     -0.33346     0.17682      
1.19         -0.33256     0.18368      -0.44468     -0.80754     -0.44468     -0.80754     -0.33256     0.18368      
1.2          -0.33152     0.19054      -0.45787     -0.79895     -0.45787     -0.79895     -0.33152     0.19054      
1.21         -0.33032     0.19742      -0.47089     -0.79014     -0.47089     -0.79014     -0.33032     0.19742      
1.22         -0.32898     0.2043       -0.48373     -0.78112     -0.48373     -0.78112     -0.32898     0.2043       
1.23         -0.32749     0.21118      -0.49639     -0.7719      -0.49639     -0.7719      -0.32749     0.21118      
1.24         -0.32585     0.21806      -0.50888     -0.76248     -0.50888     -0.76248     -0.32585     0.21806      
1.25         -0.32407     0.22493      -0.52118     -0.75285     -0.52118     -0.75285     -0.32407     0.22493      
1.26         -0.32213     0.2318       -0.53329     -0.74303     -0.53329     -0.74303     -0.32213     0.2318       
1.27         -0.32005     0.23866      -0.54522     -0.73302     -0.54522     -0.73302     -0.32005     0.23866      
1.28         -0.31781     0.2455       -0.55695     -0.72283     -0.55695     -0.72283     -0.31781     0.2455       
1.29         -0.31543     0.25232      -0.56848     -0.71244     -0.56848     -0.71244     -0.31543     0.25232      
1.3          -0.31291     0.25913      -0.57982     -0.70188     -0.57982     -0.70188     -0.31291     0.25913      
1.31         -0.31023     0.26591      -0.59096     -0.69115     -0.59096     -0.69115     -0.31023     0.26591      
1.32         -0.30741     0.27266      -0.60189     -0.68024     -0.60189     -0.68024     -0.30741     0.27266      
1.33         -0.30444     0.27938      -0.61262     -0.66916     -0.61262     -0.66916     -0.30444     0.27938      
1.34         -0.30132     0.28607      -0.62314     -0.65792     -0.62314     -0.65792     -0.30132     0.28607      
1.35         -0.29806     0.29272      -0.63344     -0.64651     -0.63344     -0.64651     -0.29806     0.29272      
1.36         -0.29465     0.29934      -0.64354     -0.63496     -0.64354     -0.63496     -0.29465     0.29934      
1.37         -0.29109     0.30591      -0.65342     -0.62325     -0.65342     -0.62325     -0.29109     0.30591      
1.38         -0.2874      0.31243      -0.66308     -0.61139     -0.66308     -0.61139     -0.2874      0.31243      
1.39         -0.28356     0.3189       -0.67252     -0.59938     -0.67252     -0.59938     -0.28356     0.3189       
1.4          -0.27957     0.32532      -0.68174     -0.58724     -0.68174     -0.58724     -0.27957     0.32532      
1.41         -0.27545     0.33169      -0.69074     -0.57497     -0.69074     -0.57497     -0.27545     0.33169      
1.42         -0.27118     0.338        -0.69951     -0.56256     -0.69951     -0.56256     -0.27118     0.338        
1.43         -0.26678     0.34425      -0.70806     -0.55002     -0.70806     -0.55002     -0.26678     0.34425      
1.44         -0.26223     0.35043      -0.71637     -0.53736     -0.71637     -0.53736     -0.26223     0.35043      
1.45         -0.25756     0.35654      -0.72446     -0.52459     -0.72446     -0.52459     -0.25756     0.35654      
1.46         -0.25274     0.36259      -0.73232     -0.51169     -0.73232     -0.51169     -0.25274     0.36259      
1.47         -0.24779     0.36856      -0.73994     -0.49869     -0.73994     -0.49869     -0.24779     0.36856      
1.48         -0.24271     0.37446      -0.74733     -0.48559     -0.74733     -0.48559     -0.24271     0.37446      
1.49         -0.23749     0.38027      -0.75448     -0.47238     -0.75448     -0.47238     -0.23749     0.38027      
1.5          -0.23215     0.38601      -0.7614      -0.45907     -0.7614      -0.45907     -0.23215     0.38601      
1.51         -0.22667     0.39166      -0.76807     -0.44567     -0.76807     -0.44567     -0.22667     0.39166      
1.52         -0.22107     0.39722      -0.77451     -0.43218     -0.77451     -0.43218     -0.22107     0.39722      
1.53         -0.21534     0.40269      -0.78072     -0.41861     -0.78072     -0.41861     -0.21534     0.40269      
1.54         -0.20949     0.40807      -0.78668     -0.40496     -0.78668     -0.40496     -0.20949     0.40807      
1.55         -0.20352     0.41336      -0.79239     -0.39123     -0.79239     -0.39123     -0.20352     0.41336      
1.56         -0.19743     0.41855      -0.79787     -0.37743     -0.79787     -0.37743     -0.19743     0.41855      
1.57         -0.19122     0.42363      -0.8031      -0.36356     -0.8031      -0.36356     -0.19122     0.42363      
1.58         -0.18489     0.42862      -0.8081      -0.34963     -0.8081      -0.34963     -0.18489     0.42862      
1.59         -0.17845     0.43349      -0.81284     -0.33565     -0.81284     -0.33565     -0.17845     0.43349      
1.6          -0.1719      0.43826      -0.81735     -0.3216      -0.81735     -0.3216      -0.1719      0.43826      
1.61         -0.16523     0.44292      -0.82161     -0.30751     -0.82161     -0.30751     -0.16523     0.44292      
1.62         -0.15846     0.44747      -0.82562     -0.29337     -0.82562     -0.29337     -0.15846     0.44747      
1.63         -0.15158     0.45191      -0.82939     -0.27919     -0.82939     -0.27919     -0.15158     0.45191      
1.64         -0.1446      0.45622      -0.83292     -0.26498     -0.83292     -0.26498     -0.1446      0.45622      
1.65         -0.13752     0.46042      -0.8362      -0.25073     -0.8362      -0.25073     -0.13752     0.46042      
1.66         -0.13034     0.46449      -0.83924     -0.23645     -0.83924     -0.23645     -0.13034     0.46449      
1.67         -0.12306     0.46844      -0.84203     -0.22215     -0.84203     -0.22215     -0.12306     0.46844      
1.68         -0.11568     0.47227      -0.84457     -0.20782     -0.84457     -0.20782     -0.11568     0.47227      
1.69         -0.10822     0.47596      -0.84688     -0.19348     -0.84688     -0.19348     -0.10822     0.47596      
1.7          -0.10066     0.47953      -0.84894     -0.17913     -0.84894     -0.17913     -0.10066     0.47953      
1.71         -0.093019    0.48297      -0.85075     -0.16477     -0.85075     -0.16477     -0.093019    0.48297      
1.72         -0.085292    0.48627      -0.85233     -0.15041     -0.85233     -0.15041     -0.085292    0.48627      
1.73         -0.077482    0.48944      -0.85366     -0.13604     -0.85366     -0.13604     -0.077482    0.48944      
1.74         -0.069594    0.49247      -0.85475     -0.12169     -0.85475     -0.12169     -0.069594    0.49247      
1.75         -0.061628    0.49536      -0.8556      -0.10733     -0.8556      -0.10733     -0.061628    0.49536      
1.76         -0.053588    0.49811      -0.85621     -0.092997    -0.85621     -0.092997    -0.053588    0.49811      
1.77         -0.045477    0.50072      -0.85658     -0.078675    -0.85658     -0.078675    -0.045477    0.50072      
1.78         -0.037298    0.50319      -0.85671     -0.064374    -0.85671     -0.064374    -0.037298    0.50319      
1.79         -0.029052    0.50551      -0.8566      -0.050097    -0.8566      -0.050097    -0.029052    0.50551      
1.8          -0.020744    0.50768      -0.85626     -0.035848    -0.85626     -0.035848    -0.020744    0.50768      
1.81         -0.012375    0.50971      -0.85568     -0.021632    -0.85568     -0.021632    -0.012375    0.50971      
1.82         -0.0039486   0.51159      -0.85486     -0.0074507   -0.85486     -0.0074507   -0.0039486   0.51159      
1.83         0.0045323    0.51331      -0.85382     0.0066904    -0.85382     0.0066904    0.0045323    0.51331      
1.84         0.013065     0.51489      -0.85254     0.020788     -0.85254     0.020788     0.013065     0.51489      
1.85         0.021646     0.51631      -0.85103     0.034839     -0.85103     0.034839     0.021646     0.51631      
1.86         0.030273     0.51758      -0.84929     0.048838     -0.84929     0.048838     0.030273     0.51758      
1.87         0.038943     0.51869      -0.84733     0.062783     -0.84733     0.062783     0.038943     0.51869      
1.88         0.047653     0.51965      -0.84514     0.07667      -0.84514     0.07667      0.047653     0.51965      
1.89         0.0564       0.52046      -0.84272     0.090495     -0.84272     0.090495     0.0564       0.52046      
1.9          0.065181     0.5211       -0.84008     0.10425      -0.84008     0.10425      0.065181     0.5211       
1.91         0.073992     0.52159      -0.83722     0.11795      -0.83722     0.11795      0.073992     0.52159      
1.92         0.082832     0.52191      -0.83414     0.13156      -0.83414     0.13156      0.082832     0.52191      
1.93         0.091696     0.52208      -0.83084     0.14511      -0.83084     0.14511      0.091696     0.52208      
1.94         0.10058      0.52209      -0.82733     0.15857      -0.82733     0.15857      0.10058      0.52209      
1.95         0.10949      0.52193      -0.8236      0.17195      -0.8236      0.17195      0.10949      0.52193      
1.96         0.11841      0.52162      -0.81966     0.18525      -0.81966     0.18525      0.11841      0.52162      
1.97         0.12734      0.52114      -0.81551     0.19845      -0.81551     0.19845      0.12734      0.52114      
1.98         0.13628      0.5205       -0.81115     0.21157      -0.81115     0.21157      0.13628      0.5205       
1.99         0.14523      0.5197       -0.80658     0.22459      -0.80658     0.22459      0.14523      0.5197       
2            0.15418      0.51874      -0.80181     0.23751      -0.80181     0.23751      0.15418      0.51874      
2.01         0.16313      0.51761      -0.79684     0.25033      -0.79684     0.25033      0.16313      0.51761      
2.02         0.17208      0.51633      -0.79167     0.26304      -0.79167     0.26304      0.17208      0.51633      
2.03         0.18103      0.51487      -0.7863      0.27565      -0.7863      0.27565      0.18103      0.51487      
2.04         0.18996      0.51326      -0.78073     0.28814      -0.78073     0.28814      0.18996      0.51326      
2.05         0.19888      0.51148      -0.77497     0.30053      -0.77497     0.30053      0.19888      0.51148      
2.06         0.20779      0.50954      -0.76902     0.31279      -0.76902     0.31279      0.20779      0.50954      
2.07         0.21667      0.50744      -0.76289     0.32494      -0.76289     0.32494      0.21667      0.50744      
2.08         0.22554      0.50517      -0.75656     0.33696      -0.75656     0.33696      0.22554      0.50517      
2.09         0.23438      0.50275      -0.75006     0.34887      -0.75006     0.34887      0.23438      0.50275      
2.1          0.2432       0.50016      -0.74337     0.36064      -0.74337     0.36064      0.2432       0.50016      
2.11         0.25198      0.49741      -0.7365      0.37228      -0.7365      0.37228      0.25198      0.49741      
2.12         0.26073      0.4945       -0.72946     0.38379      -0.72946     0.38379      0.26073      0.4945       
2.13         0.26944      0.49143      -0.72224     0.39517      -0.72224     0.39517      0.26944      0.49143      
2.14         0.27812      0.4882       -0.71486     0.40641      -0.71486     0.40641      0.27812      0.4882       
2.15         0.28675      0.48481      -0.7073      0.41751      -0.7073      0.41751      0.28675      0.48481      
