!freq-unit  param-type  data-format  keyword  impedance-ohms
# GHZ           S          RI           R         50
!-----------------------------------------------------------------------------
!Freq          ReS11        ImS11        ReS21        ImS21        ReS12        ImS12        ReS22        ImS22
0.5          -0.10038     -0.093888    0.67682      -0.72095     0.67682      -0.72095     -0.10038     -0.093888    
0.51         -0.10383     -0.093991    0.66471      -0.73161     0.66471      -0.73161     -0.10383     -0.093991    
0.52         -0.10731     -0.094002    0.65243      -0.74206     0.65243      -0.74206     -0.10731     -0.094002    
0.53         -0.11081     -0.093921    0.63998      -0.7523      0.63998      -0.7523      -0.11081     -0.093921    
0.54         -0.11433     -0.093745    0.62736      -0.76233     0.62736      -0.76233     -0.11433     -0.093745    
0.55         -0.11787     -0.093475    0.61459      -0.77214     0.61459      -0.77214     -0.11787     -0.093475    
0.56         -0.12142     -0.093111    0.60167      -0.78173     0.60167      -0.78173     -0.12142     -0.093111    
0.57         -0.12499     -0.092652    0.58859      -0.7911      0.58859      -0.7911      -0.12499     -0.092652    
0.58         -0.12857     -0.092096    0.57536      -0.80024     0.57536      -0.80024     -0.12857     -0.092096    
0.59         -0.13215     -0.091445    0.562        -0.80916     0.562        -0.80916     -0.13215     -0.091445    
0.6          -0.13574     -0.090698    0.54849      -0.81785     0.54849      -0.81785     -0.13574     -0.090698    
0.61         -0.13934     -0.089854    0.53485      -0.82631     0.53485      -0.82631     -0.13934     -0.089854    
0.62         -0.14294     -0.088913    0.52107      -0.83453     0.52107      -0.83453     -0.14294     -0.088913    
0.63         -0.14654     -0.087875    0.50717      -0.84252     0.50717      -0.84252     -0.14654     -0.087875    
0.64         -0.15013     -0.086739    0.49315      -0.85028     0.49315      -0.85028     -0.15013     -0.086739    
0.65         -0.15373     -0.085507    0.479        -0.85779     0.479        -0.85779     -0.15373     -0.085507    
0.66         -0.15731     -0.084178    0.46475      -0.86506     0.46475      -0.86506     -0.15731     -0.084178    
0.67         -0.16088     -0.082751    0.45038      -0.87209     0.45038      -0.87209     -0.16088     -0.082751    
0.68         -0.16445     -0.081227    0.43591      -0.87888     0.43591      -0.87888     -0.16445     -0.081227    
0.69         -0.16799     -0.079606    0.42133      -0.88542     0.42133      -0.88542     -0.16799     -0.079606    
0.7          -0.17153     -0.077888    0.40666      -0.89172     0.40666      -0.89172     -0.17153     -0.077888    
0.71         -0.17504     -0.076074    0.39189      -0.89776     0.39189      -0.89776     -0.17504     -0.076074    
0.72         -0.17853     -0.074164    0.37704      -0.90356     0.37704      -0.90356     -0.17853     -0.074164    
0.73         -0.182       -0.072157    0.3621       -0.9091      0.3621       -0.9091      -0.182       -0.072157    
0.74         -0.18545     -0.070055    0.34708      -0.91439     0.34708      -0.91439     -0.18545     -0.070055    
0.75         -0.18886     -0.067858    0.33198      -0.91943     0.33198      -0.91943     -0.18886     -0.067858    
0.76         -0.19225     -0.065566    0.31682      -0.92422     0.31682      -0.92422     -0.19225     -0.065566    
0.77         -0.1956      -0.06318     0.30158      -0.92875     0.30158      -0.92875     -0.1956      -0.06318     
0.78         -0.19892     -0.060701    0.28629      -0.93302     0.28629      -0.93302     -0.19892     -0.060701    
0.79         -0.20221     -0.058128    0.27093      -0.93704     0.27093      -0.93704     -0.20221     -0.058128    
0.8          -0.20545     -0.055464    0.25552      -0.9408      0.25552      -0.9408      -0.20545     -0.055464    
0.81         -0.20866     -0.052708    0.24007      -0.9443      0.24007      -0.9443      -0.20866     -0.052708    
0.82         -0.21182     -0.049861    0.22456      -0.94754     0.22456      -0.94754     -0.21182     -0.049861    
0.83         -0.21493     -0.046924    0.20902      -0.95052     0.20902      -0.95052     -0.21493     -0.046924    
0.84         -0.218       -0.043898    0.19344      -0.95324     0.19344      -0.95324     -0.218       -0.043898    
0.85         -0.22102     -0.040784    0.17783      -0.95571     0.17783      -0.95571     -0.22102     -0.040784    
0.86         -0.22399     -0.037583    0.16219      -0.95791     0.16219      -0.95791     -0.22399     -0.037583    
0.87         -0.22691     -0.034296    0.14653      -0.95985     0.14653      -0.95985     -0.22691     -0.034296    
0.88         -0.22976     -0.030923    0.13085      -0.96153     0.13085      -0.96153     -0.22976     -0.030923    
0.89         -0.23257     -0.027467    0.11516      -0.96296     0.11516      -0.96296     -0.23257     -0.027467    
0.9          -0.23531     -0.023927    0.099457     -0.96412     0.099457     -0.96412     -0.23531     -0.023927    
0.91         -0.23799     -0.020306    0.08375      -0.96502     0.08375      -0.96502     -0.23799     -0.020306    
0.92         -0.24061     -0.016604    0.068041     -0.96566     0.068041     -0.96566     -0.24061     -0.016604    
0.93         -0.24316     -0.012822    0.052337     -0.96604     0.052337     -0.96604     -0.24316     -0.012822    
0.94         -0.24565     -0.0089628   0.03664      -0.96616     0.03664      -0.96616     -0.24565     -0.0089628   
0.95         -0.24806     -0.0050266   0.020955     -0.96602     0.020955     -0.96602     -0.24806     -0.0050266   
0.96         -0.25041     -0.001015    0.0052877    -0.96563     0.0052877    -0.96563     -0.25041     -0.001015    
0.97         -0.25269     0.0030706    -0.010359    -0.96497     -0.010359    -0.96497     -0.25269     0.0030706    
0.98         -0.25488     0.0072287    -0.02598     -0.96406     -0.02598     -0.96406     -0.25488     0.0072287    
0.99         -0.25701     0.011458     -0.041572    -0.96289     -0.041572    -0.96289     -0.25701     0.011458     
1            -0.25905     0.015757     -0.05713     -0.96147     -0.05713     -0.96147     -0.25905     0.015757     
1.01         -0.26102     0.020123     -0.072649    -0.95979     -0.072649    -0.95979     -0.26102     0.020123     
1.02         -0.26291     0.024556     -0.088126    -0.95786     -0.088126    -0.95786     -0.26291     0.024556     
1.03         -0.26471     0.029054     -0.10356     -0.95568     -0.10356     -0.95568     -0.26471     0.029054     
1.04         -0.26643     0.033615     -0.11894     -0.95324     -0.11894     -0.95324     -0.26643     0.033615     
1.05         -0.26806     0.038238     -0.13426     -0.95055     -0.13426     -0.95055     -0.26806     0.038238     
1.06         -0.26961     0.04292      -0.14953     -0.94762     -0.14953     -0.94762     -0.26961     0.04292      
1.07         -0.27107     0.047661     -0.16473     -0.94443     -0.16473     -0.94443     -0.27107     0.047661     
1.08         -0.27244     0.052457     -0.17986     -0.941       -0.17986     -0.941       -0.27244     0.052457     
1.09         -0.27372     0.057309     -0.19493     -0.93732     -0.19493     -0.93732     -0.27372     0.057309     
1.1          -0.2749      0.062212     -0.20992     -0.9334      -0.20992     -0.9334      -0.2749      0.062212     
1.11         -0.27599     0.067167     -0.22483     -0.92924     -0.22483     -0.92924     -0.27599     0.067167     
1.12         -0.27699     0.07217      -0.23965     -0.92484     -0.23965     -0.92484     -0.27699     0.07217      
1.13         -0.27788     0.07722      -0.25439     -0.9202      -0.25439     -0.9202      -0.27788     0.07722      
1.14         -0.27869     0.082316     -0.26904     -0.91532     -0.26904     -0.91532     -0.27869     0.082316     
1.15         -0.27939     0.087454     -0.28359     -0.91021     -0.28359     -0.91021     -0.27939     0.087454     
1.16         -0.27999     0.092633     -0.29804     -0.90486     -0.29804     -0.90486     -0.27999     0.092633     
1.17         -0.28049     0.097852     -0.3124      -0.89928     -0.3124      -0.89928     -0.28049     0.097852     
1.18         -0.28089     0.10311      -0.32664     -0.89347     -0.32664     -0.89347     -0.28089     0.10311      
1.19         -0.28119     0.1084       -0.34078     -0.88744     -0.34078     -0.88744     -0.28119     0.1084       
1.2          -0.28138     0.11372      -0.3548      -0.88118     -0.3548      -0.88118     -0.28138     0.11372      
1.21         -0.28147     0.11908      -0.3687      -0.87469     -0.3687      -0.87469     -0.28147     0.11908      
1.22         -0.28145     0.12446      -0.38249     -0.86799     -0.38249     -0.86799     -0.28145     0.12446      
1.23         -0.28133     0.12987      -0.39615     -0.86106     -0.39615     -0.86106     -0.28133     0.12987      
1.24         -0.2811      0.1353       -0.40968     -0.85393     -0.40968     -0.85393     -0.2811      0.1353       
1.25         -0.28076     0.14076      -0.42308     -0.84657     -0.42308     -0.84657     -0.28076     0.14076      
1.26         -0.28031     0.14624      -0.43635     -0.83901     -0.43635     -0.83901     -0.28031     0.14624      
1.27         -0.27975     0.15173      -0.44947     -0.83124     -0.44947     -0.83124     -0.27975     0.15173      
1.28         -0.27908     0.15724      -0.46246     -0.82326     -0.46246     -0.82326     -0.27908     0.15724      
1.29         -0.27831     0.16276      -0.47531     -0.81507     -0.47531     -0.81507     -0.27831     0.16276      
1.3          -0.27742     0.1683       -0.488       -0.80669     -0.488       -0.80669     -0.27742     0.1683       
1.31         -0.27642     0.17384      -0.50054     -0.79811     -0.50054     -0.79811     -0.27642     0.17384      
1.32         -0.27531     0.17939      -0.51294     -0.78933     -0.51294     -0.78933     -0.27531     0.17939      
1.33         -0.27408     0.18495      -0.52517     -0.78036     -0.52517     -0.78036     -0.27408     0.18495      
1.34         -0.27275     0.19051      -0.53724     -0.77121     -0.53724     -0.77121     -0.27275     0.19051      
1.35         -0.2713      0.19606      -0.54915     -0.76186     -0.54915     -0.76186     -0.2713      0.19606      
1.36         -0.26973     0.20162      -0.5609      -0.75233     -0.5609      -0.75233     -0.26973     0.20162      
1.37         -0.26806     0.20717      -0.57248     -0.74262     -0.57248     -0.74262     -0.26806     0.20717      
1.38         -0.26627     0.21272      -0.58388     -0.73273     -0.58388     -0.73273     -0.26627     0.21272      
1.39         -0.26437     0.21825      -0.59512     -0.72267     -0.59512     -0.72267     -0.26437     0.21825      
1.4          -0.26235     0.22377      -0.60617     -0.71244     -0.60617     -0.71244     -0.26235     0.22377      
1.41         -0.26022     0.22928      -0.61705     -0.70203     -0.61705     -0.70203     -0.26022     0.22928      
1.42         -0.25798     0.23478      -0.62774     -0.69147     -0.62774     -0.69147     -0.25798     0.23478      
1.43         -0.25562     0.24025      -0.63825     -0.68074     -0.63825     -0.68074     -0.25562     0.24025      
1.44         -0.25315     0.24571      -0.64858     -0.66985     -0.64858     -0.66985     -0.25315     0.24571      
1.45         -0.25057     0.25114      -0.65871     -0.6588      -0.65871     -0.6588      -0.25057     0.25114      
1.46         -0.24787     0.25654      -0.66865     -0.64761     -0.66865     -0.64761     -0.24787     0.25654      
1.47         -0.24507     0.26192      -0.6784      -0.63627     -0.6784      -0.63627     -0.24507     0.26192      
1.48         -0.24214     0.26727      -0.68796     -0.62478     -0.68796     -0.62478     -0.24214     0.26727      
1.49         -0.23911     0.27259      -0.69731     -0.61315     -0.69731     -0.61315     -0.23911     0.27259      
1.5          -0.23597     0.27787      -0.70647     -0.60138     -0.70647     -0.60138     -0.23597     0.27787      
1.51         -0.23271     0.28312      -0.71542     -0.58947     -0.71542     -0.58947     -0.23271     0.28312      
1.52         -0.22935     0.28833      -0.72418     -0.57744     -0.72418     -0.57744     -0.22935     0.28833      
1.53         -0.22587     0.29349      -0.73272     -0.56527     -0.73272     -0.56527     -0.22587     0.29349      
1.54         -0.22228     0.29861      -0.74106     -0.55299     -0.74106     -0.55299     -0.22228     0.29861      
1.55         -0.21859     0.30369      -0.74919     -0.54058     -0.74919     -0.54058     -0.21859     0.30369      
1.56         -0.21479     0.30872      -0.75711     -0.52806     -0.75711     -0.52806     -0.21479     0.30872      
1.57         -0.21088     0.3137       -0.76481     -0.51542     -0.76481     -0.51542     -0.21088     0.3137       
1.58         -0.20686     0.31863      -0.7723      -0.50267     -0.7723      -0.50267     -0.20686     0.31863      
1.59         -0.20274     0.3235       -0.77958     -0.48982     -0.77958     -0.48982     -0.20274     0.3235       
1.6          -0.19851     0.32831      -0.78664     -0.47687     -0.78664     -0.47687     -0.19851     0.32831      
1.61         -0.19417     0.33307      -0.79348     -0.46381     -0.79348     -0.46381     -0.19417     0.33307      
1.62         -0.18974     0.33777      -0.8001      -0.45067     -0.8001      -0.45067     -0.18974     0.33777      
1.63         -0.1852      0.3424       -0.8065      -0.43743     -0.8065      -0.43743     -0.1852      0.3424       
1.64         -0.18056     0.34697      -0.81268     -0.4241      -0.81268     -0.4241      -0.18056     0.34697      
1.65         -0.17582     0.35147      -0.81863     -0.41069     -0.81863     -0.41069     -0.17582     0.35147      
1.66         -0.17098     0.3559       -0.82436     -0.3972      -0.82436     -0.3972      -0.17098     0.3559       
1.67         -0.16605     0.36026      -0.82987     -0.38364     -0.82987     -0.38364     -0.16605     0.36026      
1.68         -0.16101     0.36454      -0.83515     -0.37        -0.83515     -0.37        -0.16101     0.36454      
1.69         -0.15588     0.36875      -0.8402      -0.3563      -0.8402      -0.3563      -0.15588     0.36875      
1.7          -0.15066     0.37289      -0.84503     -0.34253     -0.84503     -0.34253     -0.15066     0.37289      
1.71         -0.14534     0.37694      -0.84963     -0.3287      -0.84963     -0.3287      -0.14534     0.37694      
1.72         -0.13993     0.38091      -0.85399     -0.31482     -0.85399     -0.31482     -0.13993     0.38091      
1.73         -0.13444     0.3848       -0.85813     -0.30088     -0.85813     -0.30088     -0.13444     0.3848       
1.74         -0.12885     0.38861      -0.86204     -0.28689     -0.86204     -0.28689     -0.12885     0.38861      
1.75         -0.12317     0.39232      -0.86572     -0.27286     -0.86572     -0.27286     -0.12317     0.39232      
1.76         -0.11741     0.39595      -0.86917     -0.25879     -0.86917     -0.25879     -0.11741     0.39595      
1.77         -0.11157     0.39949      -0.87239     -0.24468     -0.87239     -0.24468     -0.11157     0.39949      
1.78         -0.10564     0.40293      -0.87538     -0.23054     -0.87538     -0.23054     -0.10564     0.40293      
1.79         -0.099629    0.40629      -0.87813     -0.21636     -0.87813     -0.21636     -0.099629    0.40629      
1.8          -0.093539    0.40954      -0.88066     -0.20216     -0.88066     -0.20216     -0.093539    0.40954      
1.81         -0.087372    0.4127       -0.88295     -0.18794     -0.88295     -0.18794     -0.087372    0.4127       
1.82         -0.081128    0.41576      -0.88501     -0.1737      -0.88501     -0.1737      -0.081128    0.41576      
1.83         -0.07481     0.41871      -0.88684     -0.15945     -0.88684     -0.15945     -0.07481     0.41871      
1.84         -0.068419    0.42157      -0.88844     -0.14518     -0.88844     -0.14518     -0.068419    0.42157      
1.85         -0.061957    0.42432      -0.88981     -0.13091     -0.88981     -0.13091     -0.061957    0.42432      
1.86         -0.055426    0.42697      -0.89094     -0.11664     -0.89094     -0.11664     -0.055426    0.42697      
1.87         -0.048827    0.4295       -0.89185     -0.10237     -0.89185     -0.10237     -0.048827    0.4295       
1.88         -0.042163    0.43193      -0.89253     -0.088098    -0.89253     -0.088098    -0.042163    0.43193      
1.89         -0.035436    0.43425      -0.89298     -0.073837    -0.89298     -0.073837    -0.035436    0.43425      
1.9          -0.028647    0.43646      -0.89319     -0.059588    -0.89319     -0.059588    -0.028647    0.43646      
1.91         -0.021799    0.43856      -0.89318     -0.045356    -0.89318     -0.045356    -0.021799    0.43856      
1.92         -0.014893    0.44054      -0.89295     -0.031142    -0.89295     -0.031142    -0.014893    0.44054      
1.93         -0.0079313   0.44241      -0.89248     -0.016952    -0.89248     -0.016952    -0.0079313   0.44241      
1.94         -0.00091627  0.44416      -0.89179     -0.0027879   -0.89179     -0.0027879   -0.00091627  0.44416      
1.95         0.0061501    0.44579      -0.89087     0.011346     -0.89087     0.011346     0.0061501    0.44579      
1.96         0.013266     0.4473       -0.88973     0.025445     -0.88973     0.025445     0.013266     0.4473       
1.97         0.020429     0.44869      -0.88837     0.039507     -0.88837     0.039507     0.020429     0.44869      
1.98         0.027636     0.44997      -0.88678     0.053528     -0.88678     0.053528     0.027636     0.44997      
1.99         0.034887     0.45112      -0.88497     0.067505     -0.88497     0.067505     0.034887     0.45112      
2            0.042178     0.45214      -0.88294     0.081433     -0.88294     0.081433     0.042178     0.45214      
2.01         0.049508     0.45305      -0.8807      0.09531      -0.8807      0.09531      0.049508     0.45305      
2.02         0.056874     0.45382      -0.87823     0.10913      -0.87823     0.10913      0.056874     0.45382      
2.03         0.064273     0.45447      -0.87555     0.1229       -0.87555     0.1229       0.064273     0.45447      
2.04         0.071705     0.455        -0.87265     0.1366       -0.87265     0.1366       0.071705     0.455        
2.05         0.079165     0.4554       -0.86954     0.15023      -0.86954     0.15023      0.079165     0.4554       
2.06         0.086653     0.45567      -0.86622     0.1638       -0.86622     0.1638       0.086653     0.45567      
2.07         0.094165     0.45581      -0.86268     0.1773       -0.86268     0.1773       0.094165     0.45581      
2.08         0.1017       0.45582      -0.85894     0.19072      -0.85894     0.19072      0.1017       0.45582      
2.09         0.10925      0.4557       -0.85498     0.20406      -0.85498     0.20406      0.10925      0.4557       
2.1          0.11683      0.45545      -0.85082     0.21732      -0.85082     0.21732      0.11683      0.45545      
2.11         0.12441      0.45506      -0.84646     0.2305       -0.84646     0.2305       0.12441      0.45506      
2.12         0.13202      0.45455      -0.8419      0.24359      -0.8419      0.24359      0.13202      0.45455      
2.13         0.13963      0.4539       -0.83713     0.25659      -0.83713     0.25659      0.13963      0.4539       
2.14         0.14725      0.45312      -0.83216     0.26949      -0.83216     0.26949      0.14725      0.45312      
2.15         0.15487      0.45221      -0.827       0.2823       -0.827       0.2823       0.15487      0.45221      
