!freq-unit  param-type  data-format  keyword  impedance-ohms
# GHZ           S          RI           R         50
!-----------------------------------------------------------------------------
!Freq          ReS11        ImS11        ReS21        ImS21        ReS12        ImS12        ReS22        ImS22
0.5          -0.24432     -0.090751    0.33687      -0.90217     0.33687      -0.90217     -0.24432     -0.090751    
0.51         -0.25041     -0.086309    0.31495      -0.9088      0.31495      -0.9088      -0.25041     -0.086309    
0.52         -0.25639     -0.08162     0.29293      -0.91488     0.29293      -0.91488     -0.25639     -0.08162     
0.53         -0.26224     -0.076689    0.27081      -0.92042     0.27081      -0.92042     -0.26224     -0.076689    
0.54         -0.26794     -0.07152     0.24863      -0.92541     0.24863      -0.92541     -0.26794     -0.07152     
0.55         -0.2735      -0.066119    0.22638      -0.92986     0.22638      -0.92986     -0.2735      -0.066119    
0.56         -0.27889     -0.060491    0.20408      -0.93376     0.20408      -0.93376     -0.27889     -0.060491    
0.57         -0.28413     -0.054644    0.18175      -0.93713     0.18175      -0.93713     -0.28413     -0.054644    
0.58         -0.28919     -0.048581    0.1594       -0.93995     0.1594       -0.93995     -0.28919     -0.048581    
0.59         -0.29407     -0.042311    0.13704      -0.94224     0.13704      -0.94224     -0.29407     -0.042311    
0.6          -0.29877     -0.035839    0.11469      -0.94399     0.11469      -0.94399     -0.29877     -0.035839    
0.61         -0.30327     -0.029173    0.092348     -0.94521     0.092348     -0.94521     -0.30327     -0.029173    
0.62         -0.30757     -0.022319    0.070041     -0.9459      0.070041     -0.9459      -0.30757     -0.022319    
0.63         -0.31166     -0.015285    0.047777     -0.94606     0.047777     -0.94606     -0.31166     -0.015285    
0.64         -0.31554     -0.0080776   0.025567     -0.9457      0.025567     -0.9457      -0.31554     -0.0080776   
0.65         -0.31921     -0.00070488  0.0034255    -0.94482     0.0034255    -0.94482     -0.31921     -0.00070488  
0.66         -0.32265     0.0068257    -0.018638    -0.94342     -0.018638    -0.94342     -0.32265     0.0068257    
0.67         -0.32586     0.014506     -0.04061     -0.94151     -0.04061     -0.94151     -0.32586     0.014506     
0.68         -0.32884     0.022329     -0.06248     -0.9391      -0.06248     -0.9391      -0.32884     0.022329     
0.69         -0.33158     0.030285     -0.084237    -0.93619     -0.084237    -0.93619     -0.33158     0.030285     
0.7          -0.33407     0.038367     -0.10587     -0.93278     -0.10587     -0.93278     -0.33407     0.038367     
0.71         -0.33632     0.046566     -0.12737     -0.92888     -0.12737     -0.92888     -0.33632     0.046566     
0.72         -0.33833     0.054874     -0.14872     -0.92449     -0.14872     -0.92449     -0.33833     0.054874     
0.73         -0.34007     0.063283     -0.16991     -0.91962     -0.16991     -0.91962     -0.34007     0.063283     
0.74         -0.34157     0.071783     -0.19094     -0.91428     -0.19094     -0.91428     -0.34157     0.071783     
0.75         -0.3428      0.080368     -0.2118      -0.90847     -0.2118      -0.90847     -0.3428      0.080368     
0.76         -0.34377     0.089026     -0.23246     -0.9022      -0.23246     -0.9022      -0.34377     0.089026     
0.77         -0.34448     0.097751     -0.25293     -0.89547     -0.25293     -0.89547     -0.34448     0.097751     
0.78         -0.34492     0.10653      -0.2732      -0.88829     -0.2732      -0.88829     -0.34492     0.10653      
0.79         -0.3451      0.11536      -0.29325     -0.88067     -0.29325     -0.88067     -0.3451      0.11536      
0.8          -0.345       0.12423      -0.31308     -0.87261     -0.31308     -0.87261     -0.345       0.12423      
0.81         -0.34464     0.13314      -0.33268     -0.86413     -0.33268     -0.86413     -0.34464     0.13314      
0.82         -0.34401     0.14206      -0.35204     -0.85522     -0.35204     -0.85522     -0.34401     0.14206      
0.83         -0.34311     0.151        -0.37115     -0.84589     -0.37115     -0.84589     -0.34311     0.151        
0.84         -0.34194     0.15994      -0.39001     -0.83616     -0.39001     -0.83616     -0.34194     0.15994      
0.85         -0.34049     0.16888      -0.4086      -0.82603     -0.4086      -0.82603     -0.34049     0.16888      
0.86         -0.33878     0.17781      -0.42692     -0.8155      -0.42692     -0.8155      -0.33878     0.17781      
0.87         -0.3368      0.18672      -0.44496     -0.80459     -0.44496     -0.80459     -0.3368      0.18672      
0.88         -0.33455     0.1956       -0.46272     -0.7933      -0.46272     -0.7933      -0.33455     0.1956       
0.89         -0.33203     0.20444      -0.48018     -0.78164     -0.48018     -0.78164     -0.33203     0.20444      
0.9          -0.32925     0.21323      -0.49735     -0.76961     -0.49735     -0.76961     -0.32925     0.21323      
0.91         -0.3262      0.22197      -0.51421     -0.75724     -0.51421     -0.75724     -0.3262      0.22197      
0.92         -0.32289     0.23065      -0.53075     -0.74451     -0.53075     -0.74451     -0.32289     0.23065      
0.93         -0.31932     0.23926      -0.54698     -0.73144     -0.54698     -0.73144     -0.31932     0.23926      
0.94         -0.31549     0.24779      -0.56289     -0.71805     -0.56289     -0.71805     -0.31549     0.24779      
0.95         -0.31141     0.25623      -0.57847     -0.70433     -0.57847     -0.70433     -0.31141     0.25623      
0.96         -0.30708     0.26458      -0.59371     -0.6903      -0.59371     -0.6903      -0.30708     0.26458      
0.97         -0.30249     0.27283      -0.60861     -0.67596     -0.60861     -0.67596     -0.30249     0.27283      
0.98         -0.29766     0.28097      -0.62316     -0.66132     -0.62316     -0.66132     -0.29766     0.28097      
0.99         -0.29259     0.289        -0.63737     -0.64639     -0.63737     -0.64639     -0.29259     0.289        
1            -0.28729     0.2969       -0.65121     -0.63117     -0.65121     -0.63117     -0.28729     0.2969       
1.01         -0.28174     0.30467      -0.6647      -0.61569     -0.6647      -0.61569     -0.28174     0.30467      
1.02         -0.27597     0.3123       -0.67783     -0.59994     -0.67783     -0.59994     -0.27597     0.3123       
1.03         -0.26997     0.31979      -0.69059     -0.58393     -0.69059     -0.58393     -0.26997     0.31979      
1.04         -0.26375     0.32712      -0.70297     -0.56767     -0.70297     -0.56767     -0.26375     0.32712      
1.05         -0.25732     0.3343       -0.71498     -0.55117     -0.71498     -0.55117     -0.25732     0.3343       
1.06         -0.25067     0.34132      -0.72661     -0.53444     -0.72661     -0.53444     -0.25067     0.34132      
1.07         -0.24381     0.34816      -0.73785     -0.51748     -0.73785     -0.51748     -0.24381     0.34816      
1.08         -0.23676     0.35483      -0.74871     -0.50031     -0.74871     -0.50031     -0.23676     0.35483      
1.09         -0.22951     0.36132      -0.75918     -0.48294     -0.75918     -0.48294     -0.22951     0.36132      
1.1          -0.22206     0.36762      -0.76925     -0.46536     -0.76925     -0.46536     -0.22206     0.36762      
1.11         -0.21443     0.37372      -0.77893     -0.44759     -0.77893     -0.44759     -0.21443     0.37372      
1.12         -0.20663     0.37963      -0.78821     -0.42965     -0.78821     -0.42965     -0.20663     0.37963      
1.13         -0.19865     0.38533      -0.79709     -0.41152     -0.79709     -0.41152     -0.19865     0.38533      
1.14         -0.1905      0.39083      -0.80556     -0.39324     -0.80556     -0.39324     -0.1905      0.39083      
1.15         -0.1822      0.39611      -0.81363     -0.37479     -0.81363     -0.37479     -0.1822      0.39611      
1.16         -0.17373     0.40118      -0.82129     -0.3562      -0.82129     -0.3562      -0.17373     0.40118      
1.17         -0.16512     0.40602      -0.82855     -0.33747     -0.82855     -0.33747     -0.16512     0.40602      
1.18         -0.15637     0.41064      -0.83539     -0.31861     -0.83539     -0.31861     -0.15637     0.41064      
1.19         -0.14749     0.41502      -0.84181     -0.29962     -0.84181     -0.29962     -0.14749     0.41502      
1.2          -0.13847     0.41918      -0.84782     -0.28052     -0.84782     -0.28052     -0.13847     0.41918      
1.21         -0.12934     0.42309      -0.85342     -0.26132     -0.85342     -0.26132     -0.12934     0.42309      
1.22         -0.12009     0.42676      -0.8586      -0.24201     -0.8586      -0.24201     -0.12009     0.42676      
1.23         -0.11073     0.43019      -0.86335     -0.22262     -0.86335     -0.22262     -0.11073     0.43019      
1.24         -0.10128     0.43338      -0.86769     -0.20314     -0.86769     -0.20314     -0.10128     0.43338      
1.25         -0.091728    0.43631      -0.87161     -0.18359     -0.87161     -0.18359     -0.091728    0.43631      
1.26         -0.082094    0.43899      -0.87511     -0.16398     -0.87511     -0.16398     -0.082094    0.43899      
1.27         -0.072381    0.44141      -0.87818     -0.14431     -0.87818     -0.14431     -0.072381    0.44141      
1.28         -0.062596    0.44358      -0.88084     -0.12459     -0.88084     -0.12459     -0.062596    0.44358      
1.29         -0.052749    0.44549      -0.88307     -0.10483     -0.88307     -0.10483     -0.052749    0.44549      
1.3          -0.042845    0.44714      -0.88487     -0.085043    -0.88487     -0.085043    -0.042845    0.44714      
1.31         -0.032892    0.44853      -0.88626     -0.065229    -0.88626     -0.065229    -0.032892    0.44853      
1.32         -0.022899    0.44965      -0.88722     -0.0454      -0.88722     -0.0454      -0.022899    0.44965      
1.33         -0.012871    0.45051      -0.88775     -0.025564    -0.88775     -0.025564    -0.012871    0.45051      
1.34         -0.0028182   0.45111      -0.88787     -0.0057289   -0.88787     -0.0057289   -0.0028182   0.45111      
1.35         0.0072536    0.45143      -0.88756     0.014097     -0.88756     0.014097     0.0072536    0.45143      
1.36         0.017336     0.4515       -0.88683     0.033906     -0.88683     0.033906     0.017336     0.4515       
1.37         0.027422     0.45129      -0.88568     0.05369      -0.88568     0.05369      0.027422     0.45129      
1.38         0.037504     0.45082      -0.88411     0.07344      -0.88411     0.07344      0.037504     0.45082      
1.39         0.047573     0.45008      -0.88212     0.093149     -0.88212     0.093149     0.047573     0.45008      
1.4          0.057623     0.44908      -0.87972     0.11281      -0.87972     0.11281      0.057623     0.44908      
1.41         0.067646     0.44781      -0.87689     0.13241      -0.87689     0.13241      0.067646     0.44781      
1.42         0.077634     0.44627      -0.87365     0.15195      -0.87365     0.15195      0.077634     0.44627      
1.43         0.08758      0.44448      -0.86999     0.17141      -0.86999     0.17141      0.08758      0.44448      
1.44         0.097476     0.44242      -0.86592     0.19079      -0.86592     0.19079      0.097476     0.44242      
1.45         0.10732      0.4401       -0.86144     0.21009      -0.86144     0.21009      0.10732      0.4401       
1.46         0.11709      0.43752      -0.85655     0.22928      -0.85655     0.22928      0.11709      0.43752      
1.47         0.12679      0.43468      -0.85125     0.24837      -0.85125     0.24837      0.12679      0.43468      
1.48         0.13642      0.43159      -0.84555     0.26735      -0.84555     0.26735      0.13642      0.43159      
1.49         0.14595      0.42824      -0.83944     0.28621      -0.83944     0.28621      0.14595      0.42824      
1.5          0.1554       0.42465      -0.83293     0.30493      -0.83293     0.30493      0.1554       0.42465      
1.51         0.16474      0.42081      -0.82601     0.32353      -0.82601     0.32353      0.16474      0.42081      
1.52         0.17397      0.41672      -0.8187      0.34197      -0.8187      0.34197      0.17397      0.41672      
1.53         0.18309      0.41239      -0.811       0.36027      -0.811       0.36027      0.18309      0.41239      
1.54         0.19209      0.40782      -0.8029      0.37841      -0.8029      0.37841      0.19209      0.40782      
1.55         0.20095      0.40302      -0.79442     0.39638      -0.79442     0.39638      0.20095      0.40302      
1.56         0.20969      0.39799      -0.78555     0.41417      -0.78555     0.41417      0.20969      0.39799      
1.57         0.21828      0.39273      -0.77629     0.43178      -0.77629     0.43178      0.21828      0.39273      
1.58         0.22672      0.38724      -0.76665     0.44921      -0.76665     0.44921      0.22672      0.38724      
1.59         0.23501      0.38154      -0.75664     0.46643      -0.75664     0.46643      0.23501      0.38154      
1.6          0.24313      0.37562      -0.74625     0.48345      -0.74625     0.48345      0.24313      0.37562      
1.61         0.25109      0.36949      -0.73549     0.50026      -0.73549     0.50026      0.25109      0.36949      
1.62         0.25887      0.36316      -0.72437     0.51684      -0.72437     0.51684      0.25887      0.36316      
1.63         0.26648      0.35663      -0.71288     0.5332       -0.71288     0.5332       0.26648      0.35663      
1.64         0.2739       0.3499       -0.70103     0.54932      -0.70103     0.54932      0.2739       0.3499       
1.65         0.28112      0.34298      -0.68883     0.5652       -0.68883     0.5652       0.28112      0.34298      
1.66         0.28816      0.33588      -0.67628     0.58083      -0.67628     0.58083      0.28816      0.33588      
1.67         0.29498      0.3286       -0.66338     0.59621      -0.66338     0.59621      0.29498      0.3286       
1.68         0.30161      0.32115      -0.65013     0.61132      -0.65013     0.61132      0.30161      0.32115      
1.69         0.30802      0.31353      -0.63655     0.62615      -0.63655     0.62615      0.30802      0.31353      
1.7          0.31421      0.30576      -0.62264     0.64071      -0.62264     0.64071      0.31421      0.30576      
1.71         0.32018      0.29782      -0.60839     0.65498      -0.60839     0.65498      0.32018      0.29782      
1.72         0.32592      0.28974      -0.59383     0.66896      -0.59383     0.66896      0.32592      0.28974      
1.73         0.33143      0.28152      -0.57894     0.68264      -0.57894     0.68264      0.33143      0.28152      
1.74         0.33671      0.27317      -0.56374     0.69601      -0.56374     0.69601      0.33671      0.27317      
1.75         0.34175      0.26469      -0.54823     0.70906      -0.54823     0.70906      0.34175      0.26469      
1.76         0.34654      0.25609      -0.53242     0.7218       -0.53242     0.7218       0.34654      0.25609      
1.77         0.35109      0.24737      -0.51632     0.7342       -0.51632     0.7342       0.35109      0.24737      
1.78         0.35539      0.23855      -0.49992     0.74627      -0.49992     0.74627      0.35539      0.23855      
1.79         0.35943      0.22963      -0.48324     0.758        -0.48324     0.758        0.35943      0.22963      
1.8          0.36322      0.22062      -0.46628     0.76938      -0.46628     0.76938      0.36322      0.22062      
1.81         0.36675      0.21153      -0.44904     0.7804       -0.44904     0.7804       0.36675      0.21153      
1.82         0.37002      0.20237      -0.43154     0.79106      -0.43154     0.79106      0.37002      0.20237      
1.83         0.37302      0.19313      -0.41378     0.80136      -0.41378     0.80136      0.37302      0.19313      
1.84         0.37576      0.18384      -0.39576     0.81127      -0.39576     0.81127      0.37576      0.18384      
1.85         0.37823      0.17449      -0.3775      0.82081      -0.3775      0.82081      0.37823      0.17449      
1.86         0.38042      0.16511      -0.359       0.82996      -0.359       0.82996      0.38042      0.16511      
1.87         0.38235      0.15568      -0.34027     0.83871      -0.34027     0.83871      0.38235      0.15568      
1.88         0.38401      0.14623      -0.32131     0.84706      -0.32131     0.84706      0.38401      0.14623      
1.89         0.38539      0.13677      -0.30214     0.85501      -0.30214     0.85501      0.38539      0.13677      
1.9          0.38649      0.12729      -0.28275     0.86254      -0.28275     0.86254      0.38649      0.12729      
1.91         0.38733      0.11781      -0.26317     0.86966      -0.26317     0.86966      0.38733      0.11781      
1.92         0.38789      0.10834      -0.24339     0.87635      -0.24339     0.87635      0.38789      0.10834      
1.93         0.38817      0.098884     -0.22342     0.88261      -0.22342     0.88261      0.38817      0.098884     
1.94         0.38818      0.089453     -0.20328     0.88843      -0.20328     0.88843      0.38818      0.089453     
1.95         0.38791      0.080055     -0.18297     0.89382      -0.18297     0.89382      0.38791      0.080055     
1.96         0.38738      0.070698     -0.1625      0.89876      -0.1625      0.89876      0.38738      0.070698     
1.97         0.38657      0.061392     -0.14188     0.90324      -0.14188     0.90324      0.38657      0.061392     
1.98         0.38549      0.052144     -0.12112     0.90727      -0.12112     0.90727      0.38549      0.052144     
1.99         0.38414      0.042964     -0.10023     0.91084      -0.10023     0.91084      0.38414      0.042964     
2            0.38253      0.03386      -0.079209    0.91394      -0.079209    0.91394      0.38253      0.03386      
2.01         0.38065      0.02484      -0.058078    0.91657      -0.058078    0.91657      0.38065      0.02484      
2.02         0.37851      0.015914     -0.036844    0.91873      -0.036844    0.91873      0.37851      0.015914     
2.03         0.37611      0.0070895    -0.015516    0.9204       -0.015516    0.9204       0.37611      0.0070895    
2.04         0.37346      -0.0016251   0.0058945    0.92159      0.0058945    0.92159      0.37346      -0.0016251   
2.05         0.37055      -0.010221    0.027378     0.92229      0.027378     0.92229      0.37055      -0.010221    
2.06         0.3674       -0.018691    0.048924     0.9225       0.048924     0.9225       0.3674       -0.018691    
2.07         0.364        -0.027025    0.070522     0.92222      0.070522     0.92222      0.364        -0.027025    
2.08         0.36037      -0.035216    0.09216      0.92143      0.09216      0.92143      0.36037      -0.035216    
2.09         0.35649      -0.043257    0.11383      0.92015      0.11383      0.92015      0.35649      -0.043257    
2.1          0.35239      -0.051138    0.13551      0.91836      0.13551      0.91836      0.35239      -0.051138    
2.11         0.34806      -0.058852    0.15721      0.91606      0.15721      0.91606      0.34806      -0.058852    
2.12         0.34352      -0.066392    0.1789       0.91325      0.1789       0.91325      0.34352      -0.066392    
2.13         0.33876      -0.07375     0.20057      0.90993      0.20057      0.90993      0.33876      -0.07375     
2.14         0.33379      -0.080919    0.22221      0.90609      0.22221      0.90609      0.33379      -0.080919    
2.15         0.32862      -0.087892    0.24382      0.90173      0.24382      0.90173      0.32862      -0.087892    
