!freq-unit  param-type  data-format  keyword  impedance-ohms
# GHZ           S          RI           R         50
!-----------------------------------------------------------------------------
!Freq          ReS11        ImS11        ReS21        ImS21        ReS12        ImS12        ReS22        ImS22
0.5          0.056639     -0.026397    -0.4115      -0.89066     -0.4115      -0.89066     0.056639     -0.026397    
0.51         0.052701     -0.036243    -0.55299     -0.81009     -0.55299     -0.81009     0.052701     -0.036243    
0.52         0.047105     -0.045557    -0.67916     -0.70724     -0.67916     -0.70724     0.047105     -0.045557    
0.53         0.039895     -0.05405     -0.78654     -0.58496     -0.78654     -0.58496     0.039895     -0.05405     
0.54         0.031173     -0.061421    -0.87219     -0.44665     -0.87219     -0.44665     0.031173     -0.061421    
0.55         0.0211       -0.067379    -0.93376     -0.29611     -0.93376     -0.29611     0.0211       -0.067379    
0.56         0.0099027    -0.071651    -0.96956     -0.13751     -0.96956     -0.13751     0.0099027    -0.071651    
0.57         -0.0021294   -0.074002    -0.97863     0.024777     -0.97863     0.024777     -0.0021294   -0.074002    
0.58         -0.014652    -0.074247    -0.96073     0.18628      -0.96073     0.18628      -0.014652    -0.074247    
0.59         -0.027277    -0.072273    -0.91638     0.34255      -0.91638     0.34255      -0.027277    -0.072273    
0.6          -0.039585    -0.06804     -0.84681     0.48929      -0.84681     0.48929      -0.039585    -0.06804     
0.61         -0.051145    -0.0616      -0.75396     0.62246      -0.75396     0.62246      -0.051145    -0.0616      
0.62         -0.061537    -0.053093    -0.64039     0.73841      -0.64039     0.73841      -0.061537    -0.053093    
0.63         -0.070368    -0.042745    -0.50924     0.83396      -0.50924     0.83396      -0.070368    -0.042745    
0.64         -0.077297    -0.030863    -0.36412     0.90648      -0.36412     0.90648      -0.077297    -0.030863    
0.65         -0.082047    -0.017821    -0.20904     0.954        -0.20904     0.954        -0.082047    -0.017821    
0.66         -0.084424    -0.0040437   -0.048257    0.9752       -0.048257    0.9752       -0.084424    -0.0040437   
0.67         -0.084322    0.010012     0.11379      0.96952      0.11379      0.96952      -0.084322    0.010012     
0.68         -0.081731    0.023878     0.27265      0.93711      0.27265      0.93711      -0.081731    0.023878     
0.69         -0.076731    0.037098     0.42395      0.87887      0.42395      0.87887      -0.076731    0.037098     
0.7          -0.069493    0.049243     0.56352      0.7964       0.56352      0.7964       -0.069493    0.049243     
0.71         -0.060262    0.059932     0.6875       0.69197      0.6875       0.69197      -0.060262    0.059932     
0.72         -0.049348    0.068844     0.79248      0.56845      0.79248      0.56845      -0.049348    0.068844     
0.73         -0.037109    0.075727     0.87557      0.42926      0.87557      0.42926      -0.037109    0.075727     
0.74         -0.023933    0.080405     0.93445      0.27822      0.93445      0.27822      -0.023933    0.080405     
0.75         -0.010226    0.082777     0.9675       0.11952      0.9675       0.11952      -0.010226    0.082777     
0.76         0.0036071    0.082818     0.97379      -0.042471    0.97379      -0.042471    0.0036071    0.082818     
0.77         0.017176     0.08057      0.95315      -0.20327     0.95315      -0.20327     0.017176     0.08057      
0.78         0.030111     0.076141     0.90613      -0.35842     0.90613      -0.35842     0.030111     0.076141     
0.79         0.042077     0.069689     0.83404      -0.50363     0.83404      -0.50363     0.042077     0.069689     
0.8          0.052776     0.061419     0.73887      -0.63488     0.73887      -0.63488     0.052776     0.061419     
0.81         0.061949     0.051572     0.62325      -0.74852     0.62325      -0.74852     0.061949     0.051572     
0.82         0.069384     0.04042      0.49038      -0.8414      0.49038      -0.8414      0.069384     0.04042      
0.83         0.074909     0.028257     0.34394      -0.91095     0.34394      -0.91095     0.074909     0.028257     
0.84         0.078399     0.015397     0.188        -0.95524     0.188        -0.95524     0.078399     0.015397     
0.85         0.079775     0.0021625    0.026885     -0.97303     0.026885     -0.97303     0.079775     0.0021625    
0.86         0.079003     -0.011111    -0.13494     -0.96383     -0.13494     -0.96383     0.079003     -0.011111    
0.87         0.076097     -0.024088    -0.29297     -0.9279      -0.29297     -0.9279      0.076097     -0.024088    
0.88         0.07112      -0.036431    -0.44284     -0.86625     -0.44284     -0.86625     0.07112      -0.036431    
0.89         0.064189     -0.047814    -0.58038     -0.78058     -0.58038     -0.78058     0.064189     -0.047814    
0.9          0.055469     -0.057924    -0.70178     -0.67328     -0.70178     -0.67328     0.055469     -0.057924    
0.91         0.045179     -0.066473    -0.80366     -0.54733     -0.80366     -0.54733     0.045179     -0.066473    
0.92         0.033588     -0.073206    -0.88321     -0.40623     -0.88321     -0.40623     0.033588     -0.073206    
0.93         0.02101      -0.077914    -0.93823     -0.25389     -0.93823     -0.25389     0.02101      -0.077914    
0.94         0.0077977    -0.080439    -0.96719     -0.09456     -0.96719     -0.09456     0.0077977    -0.080439    
0.95         -0.0056654   -0.080687    -0.96929     0.067353     -0.96929     0.067353     -0.0056654   -0.080687    
0.96         -0.018978    -0.078634    -0.94449     0.22735      -0.94449     0.22735      -0.018978    -0.078634    
0.97         -0.031736    -0.074329    -0.89346     0.381        -0.89346     0.381        -0.031736    -0.074329    
0.98         -0.043544    -0.0679      -0.81764     0.52403      -0.81764     0.52403      -0.043544    -0.0679      
0.99         -0.054035    -0.059544    -0.71912     0.65248      -0.71912     0.65248      -0.054035    -0.059544    
1            -0.062884    -0.049531    -0.60065     0.76277      -0.60065     0.76277      -0.062884    -0.049531    
1.01         -0.069819    -0.038185    -0.46551     0.85186      -0.46551     0.85186      -0.069819    -0.038185    
1.02         -0.07464     -0.02588     -0.31744     0.91726      -0.31744     0.91726      -0.07464     -0.02588     
1.03         -0.077218    -0.01302     -0.16057     0.95716      -0.16057     0.95716      -0.077218    -0.01302     
1.04         -0.077508    -2.3633e-05  0.00075701   0.97043      0.00075701   0.97043      -0.077508    -2.3633e-05  
1.05         -0.075544    0.012692     0.16205      0.95672      0.16205      0.95672      -0.075544    0.012692     
1.06         -0.07144     0.024728     0.31883      0.91638      0.31883      0.91638      -0.07144     0.024728     
1.07         -0.065383    0.035722     0.46674      0.85054      0.46674      0.85054      -0.065383    0.035722     
1.08         -0.057619    0.045357     0.60165      0.76101      0.60165      0.76101      -0.057619    0.045357     
1.09         -0.048446    0.053374     0.7198       0.65029      0.7198       0.65029      -0.048446    0.053374     
1.1          -0.038199    0.059581     0.8179       0.52145      0.8179       0.52145      -0.038199    0.059581     
1.11         -0.027235    0.063851     0.8932       0.37807      0.8932       0.37807      -0.027235    0.063851     
1.12         -0.015916    0.066132     0.94361      0.22414      0.94361      0.22414      -0.015916    0.066132     
1.13         -0.0046014   0.066436     0.96769      0.063953     0.96769      0.063953     -0.0046014   0.066436     
1.14         0.0063693    0.064839     0.96477      -0.09802     0.96477      -0.09802     0.0063693    0.064839     
1.15         0.016684     0.061472     0.93493      -0.25726     0.93493      -0.25726     0.016684     0.061472     
1.16         0.026067     0.056515     0.87898      -0.40932     0.87898      -0.40932     0.026067     0.056515     
1.17         0.034285     0.050186     0.79849      -0.54996     0.79849      -0.54996     0.034285     0.050186     
1.18         0.041151     0.042734     0.69568      -0.67522     0.69568      -0.67522     0.041151     0.042734     
1.19         0.046528     0.034429     0.57344      -0.78162     0.57344      -0.78162     0.046528     0.034429     
1.2          0.050329     0.025552     0.43517      -0.86618     0.43517      -0.86618     0.050329     0.025552     
1.21         0.052516     0.016391     0.28473      -0.92651     0.28473      -0.92651     0.052516     0.016391     
1.22         0.053099     0.0072268    0.12633      -0.96093     0.12633      -0.96093     0.053099     0.0072268    
1.23         0.052137     -0.001669    -0.035592    -0.96847     -0.035592    -0.96847     0.052137     -0.001669    
1.24         0.049729     -0.010043    -0.19652     -0.94891     -0.19652     -0.94891     0.049729     -0.010043    
1.25         0.046018     -0.017665    -0.35194     -0.90279     -0.35194     -0.90279     0.046018     -0.017665    
1.26         0.04118      -0.024337    -0.4975      -0.8314      -0.4975      -0.8314      0.04118      -0.024337    
1.27         0.035421     -0.029895    -0.62912     -0.73674     -0.62912     -0.73674     0.035421     -0.029895    
1.28         0.028974     -0.034217    -0.74312     -0.62144     -0.74312     -0.62144     0.028974     -0.034217    
1.29         0.022084     -0.037226    -0.8363      -0.48874     -0.8363      -0.48874     0.022084     -0.037226    
1.3          0.01501      -0.038891    -0.90603     -0.34235     -0.90603     -0.34235     0.01501      -0.038891    
1.31         0.0080039    -0.039232    -0.95037     -0.18636     -0.95037     -0.18636     0.0080039    -0.039232    
1.32         0.0013124    -0.038316    -0.96806     -0.02516     -0.96806     -0.02516     0.0013124    -0.038316    
1.33         -0.0048404   -0.036258    -0.9586      0.13674      -0.9586      0.13674      -0.0048404   -0.036258    
1.34         -0.010259    -0.033213    -0.92225     0.29481      -0.92225     0.29481      -0.010259    -0.033213    
1.35         -0.014785    -0.02937     -0.86002     0.44459      -0.86002     0.44459      -0.014785    -0.02937     
1.36         -0.018304    -0.024946    -0.77364     0.58189      -0.77364     0.58189      -0.018304    -0.024946    
1.37         -0.020751    -0.020173    -0.66555     0.70285      -0.66555     0.70285      -0.020751    -0.020173    
1.38         -0.022114    -0.015289    -0.53877     0.80406      -0.53877     0.80406      -0.022114    -0.015289    
1.39         -0.022428    -0.010527    -0.39685     0.88267      -0.39685     0.88267      -0.022428    -0.010527    
1.4          -0.021781    -0.0060997   -0.24379     0.93647      -0.24379     0.93647      -0.021781    -0.0060997   
1.41         -0.020302    -0.0021947   -0.083876    0.96394      -0.083876    0.96394      -0.020302    -0.0021947   
1.42         -0.018153    0.0010374    0.078382     0.9643       0.078382     0.9643       -0.018153    0.0010374    
1.43         -0.015528    0.0034884    0.23842      0.93753      0.23842      0.93753      -0.015528    0.0034884    
1.44         -0.012631    0.0050973    0.39174      0.88438      0.39174      0.88438      -0.012631    0.0050973    
1.45         -0.009675    0.0058516    0.53402      0.80634      0.53402      0.80634      -0.009675    0.0058516    
1.46         -0.0068639   0.0057864    0.66124      0.7056       0.66124      0.7056       -0.0068639   0.0057864    
1.47         -0.0043868   0.0049814    0.76983      0.58501      0.76983      0.58501      -0.0043868   0.0049814    
1.48         -0.0024073   0.003555     0.85671      0.44794      0.85671      0.44794      -0.0024073   0.003555     
1.49         -0.0010566   0.001658     0.91944      0.29828      0.91944      0.29828      -0.0010566   0.001658     
1.5          -0.0004278   -0.00053503  0.95624      0.14023      0.95624      0.14023      -0.0004278   -0.00053503  
1.51         -0.00057276  -0.0028342   0.96607      -0.021751    0.96607      -0.021751    -0.00057276  -0.0028342   
1.52         -0.0015002   -0.0050434   0.94866      -0.18309     0.94866      -0.18309     -0.0015002   -0.0050434   
1.53         -0.0031762   -0.0069689   0.90448      -0.33923     0.90448      -0.33923     -0.0031762   -0.0069689   
1.54         -0.0055254   -0.0084277   0.83478      -0.48576     0.83478      -0.48576     -0.0055254   -0.0084277   
1.55         -0.0084344   -0.0092554   0.74154      -0.61856     0.74154      -0.61856     -0.0084344   -0.0092554   
1.56         -0.011756    -0.0093126   0.62738      -0.73386     0.62738      -0.73386     -0.011756    -0.0093126   
1.57         -0.015314    -0.008491    0.49552      -0.8284      0.49552      -0.8284      -0.015314    -0.008491    
1.58         -0.018909    -0.0067189   0.3497       -0.89951     0.3497       -0.89951     -0.018909    -0.0067189   
1.59         -0.022325    -0.0039651   0.19403      -0.94518     0.19403      -0.94518     -0.022325    -0.0039651   
1.6          -0.025337    -0.00024256  0.032926     -0.96412     0.032926     -0.96412     -0.025337    -0.00024256  
1.61         -0.027719    0.0043891    -0.12907     -0.95579     -0.12907     -0.95579     -0.027719    0.0043891    
1.62         -0.029253    0.0098227    -0.28735     -0.92042     -0.28735     -0.92042     -0.029253    0.0098227    
1.63         -0.029736    0.015903     -0.43746     -0.85902     -0.43746     -0.85902     -0.029736    0.015903     
1.64         -0.028994    0.022431     -0.57512     -0.77333     -0.57512     -0.77333     -0.028994    0.022431     
1.65         -0.026889    0.029163     -0.69645     -0.66577     -0.69645     -0.66577     -0.026889    0.029163     
1.66         -0.023329    0.035822     -0.798       -0.53941     -0.798       -0.53941     -0.023329    0.035822     
1.67         -0.018277    0.042104     -0.8769      -0.39782     -0.8769      -0.39782     -0.018277    0.042104     
1.68         -0.011759    0.047686     -0.93091     -0.24503     -0.93091     -0.24503     -0.011759    0.047686     
1.69         -0.0038691   0.052245     -0.95851     -0.085369    -0.95851     -0.085369    -0.0038691   0.052245     
1.7          0.0052279    0.055465     -0.95892     0.076622     -0.95892     0.076622     0.0052279    0.055465     
1.71         0.015297     0.05706      -0.93214     0.23635      -0.93214     0.23635      0.015297     0.05706      
1.72         0.026037     0.056784     -0.87894     0.38927      -0.87894     0.38927      0.026037     0.056784     
1.73         0.037089     0.054452     -0.80084     0.53104      -0.80084     0.53104      0.037089     0.054452     
1.74         0.048047     0.049946     -0.70008     0.65766      -0.70008     0.65766      0.048047     0.049946     
1.75         0.058474     0.043235     -0.57952     0.76552      -0.57952     0.76552      0.058474     0.043235     
1.76         0.06792      0.034375     -0.44261     0.85158      -0.44261     0.85158      0.06792      0.034375     
1.77         0.075941     0.02352      -0.29325     0.91341      -0.29325     0.91341      0.075941     0.02352      
1.78         0.082117     0.010914     -0.13567     0.94926      -0.13567     0.94926      0.082117     0.010914     
1.79         0.086079     -0.0031106   0.025625     0.95814      0.025625     0.95814      0.086079     -0.0031106   
1.8          0.087519     -0.018144    0.18606      0.9398       0.18606      0.9398       0.087519     -0.018144    
1.81         0.086212     -0.033712    0.34109      0.8948       0.34109      0.8948       0.086212     -0.033712    
1.82         0.082027     -0.049297    0.48629      0.82442      0.48629      0.82442      0.082027     -0.049297    
1.83         0.074934     -0.064354    0.61757      0.73068      0.61757      0.73068      0.074934     -0.064354    
1.84         0.065009     -0.078331    0.73118      0.61627      0.73118      0.61627      0.065009     -0.078331    
1.85         0.052434     -0.090696    0.82393      0.48443      0.82393      0.48443      0.052434     -0.090696    
1.86         0.037489     -0.10095     0.89318      0.33894      0.89318      0.33894      0.037489     -0.10095     
1.87         0.020548     -0.10865     0.93697      0.18394      0.93697      0.18394      0.020548     -0.10865     
1.88         0.0020635    -0.11343     0.95408      0.023834     0.95408      0.023834     0.0020635    -0.11343     
1.89         -0.017448    -0.11499     0.94403      -0.13681     0.94403      -0.13681     -0.017448    -0.11499     
1.9          -0.037422    -0.11314     0.90713      -0.29342     0.90713      -0.29342     -0.037422    -0.11314     
1.91         -0.05726     -0.10778     0.84443      -0.44154     0.84443      -0.44154     -0.05726     -0.10778     
1.92         -0.07635     -0.098925    0.75773      -0.57695     0.75773      -0.57695     -0.07635     -0.098925    
1.93         -0.094082    -0.086682    0.64953      -0.69579     0.64953      -0.69579     -0.094082    -0.086682    
1.94         -0.10987     -0.071264    0.52292      -0.79469     0.52292      -0.79469     -0.10987     -0.071264    
1.95         -0.12315     -0.052984    0.38153      -0.87082     0.38153      -0.87082     -0.12315     -0.052984    
1.96         -0.13341     -0.032249    0.2294       -0.92202     0.2294       -0.92202     -0.13341     -0.032249    
1.97         -0.14022     -0.0095508   0.070906     -0.94686     0.070906     -0.94686     -0.14022     -0.0095508   
1.98         -0.1432      0.014539     -0.089423    -0.94465     -0.089423    -0.94465     -0.1432      0.014539     
1.99         -0.14209     0.039383     -0.24699     -0.91546     -0.24699     -0.91546     -0.14209     0.039383     
2            -0.1367      0.064287     -0.39729     -0.86017     -0.39729     -0.86017     -0.1367      0.064287     
2.01         -0.12697     0.088518     -0.53603     -0.7804      -0.53603     -0.7804      -0.12697     0.088518     
2.02         -0.11298     0.11132      -0.65924     -0.67845     -0.65924     -0.67845     -0.11298     0.11132      
2.03         -0.094911    0.13193      -0.76342     -0.55729     -0.76342     -0.55729     -0.094911    0.13193      
2.04         -0.073101    0.14962      -0.84562     -0.42042     -0.84562     -0.42042     -0.073101    0.14962      
2.05         -0.048018    0.1637       -0.90352     -0.27179     -0.90352     -0.27179     -0.048018    0.1637       
2.06         -0.020262    0.17354      -0.9355      -0.11568     -0.9355      -0.11568     -0.020262    0.17354      
2.07         0.0094446    0.17862      -0.94072     0.043424     -0.94072     0.043424     0.0094446    0.17862      
2.08         0.040272     0.17854      -0.91908     0.20097      -0.91908     0.20097      0.040272     0.17854      
2.09         0.071309     0.17307      -0.87126     0.35245      -0.87126     0.35245      0.071309     0.17307      
2.1          0.10158      0.16211      -0.7987      0.49356      -0.7987      0.49356      0.10158      0.16211      
2.11         0.1301       0.14576      -0.70352     0.6203       -0.70352     0.6203       0.1301       0.14576      
2.12         0.15587      0.12432      -0.5885      0.72908      -0.5885      0.72908      0.15587      0.12432      
2.13         0.17797      0.098246     -0.45696     0.81686      -0.45696     0.81686      0.17797      0.098246     
2.14         0.19554      0.0682       -0.3127      0.88119      -0.3127      0.88119      0.19554      0.0682       
2.15         0.20785      0.034991     -0.15984     0.9203       -0.15984     0.9203       0.20785      0.034991     
