!freq-unit  param-type  data-format  keyword  impedance-ohms
# GHZ           S          RI           R         50
!-----------------------------------------------------------------------------
!Freq          ReS11        ImS11        ReS21        ImS21        ReS12        ImS12        ReS22        ImS22
0.5          0.009202     0.015477     0.84669      -0.50524     0.84669      -0.50524     0.009202     0.015477     
0.51         0.010965     0.013742     0.76977      -0.61587     0.76977      -0.61587     0.010965     0.013742     
0.52         0.012485     0.01187      0.67848      -0.71497     0.67848      -0.71497     0.012485     0.01187      
0.53         0.013771     0.0098916    0.57454      -0.8007      0.57454      -0.8007      0.013771     0.0098916    
0.54         0.014833     0.0078272    0.45988      -0.87144     0.45988      -0.87144     0.014833     0.0078272    
0.55         0.015679     0.0056905    0.33665      -0.92587     0.33665      -0.92587     0.015679     0.0056905    
0.56         0.016314     0.0034893    0.20716      -0.96299     0.20716      -0.96299     0.016314     0.0034893    
0.57         0.016736     0.001228     0.073816     -0.98208     0.073816     -0.98208     0.016736     0.001228     
0.58         0.016938     -0.0010893   -0.060873    -0.98281     -0.060873    -0.98281     0.016938     -0.0010893   
0.59         0.016905     -0.003456    -0.19439     -0.96515     -0.19439     -0.96515     0.016905     -0.003456    
0.6          0.016616     -0.0058602   -0.32424     -0.92943     -0.32424     -0.92943     0.016616     -0.0058602   
0.61         0.01605      -0.0082823   -0.44799     -0.87633     -0.44799     -0.87633     0.01605      -0.0082823   
0.62         0.015182     -0.010694    -0.56333     -0.80684     -0.56333     -0.80684     0.015182     -0.010694    
0.63         0.01399      -0.013056    -0.66809     -0.72226     -0.66809     -0.72226     0.01399      -0.013056    
0.64         0.01246      -0.01532     -0.76032     -0.62417     -0.76032     -0.62417     0.01246      -0.01532     
0.65         0.010585     -0.01743     -0.83828     -0.51442     -0.83828     -0.51442     0.010585     -0.01743     
0.66         0.0083698    -0.019322    -0.90052     -0.39507     -0.90052     -0.39507     0.0083698    -0.019322    
0.67         0.0058345    -0.020931    -0.94588     -0.26834     -0.94588     -0.26834     0.0058345    -0.020931    
0.68         0.0030135    -0.022192    -0.9735      -0.13662     -0.9735      -0.13662     0.0030135    -0.022192    
0.69         -4.2742e-05  -0.023042    -0.98287     -0.0023659   -0.98287     -0.0023659   -4.2742e-05  -0.023042    
0.7          -0.0032692   -0.023429    -0.97382     0.1319       -0.97382     0.1319       -0.0032692   -0.023429    
0.71         -0.0065877   -0.023313    -0.94651     0.26365      -0.94651     0.26365      -0.0065877   -0.023313    
0.72         -0.00991     -0.022669    -0.90147     0.39043      -0.90147     0.39043      -0.00991     -0.022669    
0.73         -0.013141    -0.021491    -0.83953     0.50986      -0.83953     0.50986      -0.013141    -0.021491    
0.74         -0.016185    -0.01979     -0.76186     0.6197       -0.76186     0.6197       -0.016185    -0.01979     
0.75         -0.018945    -0.0176      -0.66992     0.71789      -0.66992     0.71789      -0.018945    -0.0176      
0.76         -0.021335    -0.014974    -0.56543     0.80259      -0.56543     0.80259      -0.021335    -0.014974    
0.77         -0.023278    -0.01198     -0.45035     0.87221      -0.45035     0.87221      -0.023278    -0.01198     
0.78         -0.024713    -0.008704    -0.32684     0.92545      -0.32684     0.92545      -0.024713    -0.008704    
0.79         -0.025595    -0.0052412   -0.19722     0.9613       -0.19722     0.9613       -0.025595    -0.0052412   
0.8          -0.025902    -0.0016943   -0.063927    0.9791       -0.063927    0.9791       -0.025902    -0.0016943   
0.81         -0.025631    0.0018319    0.070549     0.97851      0.070549     0.97851      -0.025631    0.0018319    
0.82         -0.0248      0.005235     0.20368      0.95954      0.20368      0.95954      -0.0248      0.005235     
0.83         -0.023448    0.0084193    0.33296      0.92254      0.33296      0.92254      -0.023448    0.0084193    
0.84         -0.02163     0.0113       0.45596      0.86821      0.45596      0.86821      -0.02163     0.0113       
0.85         -0.019415    0.013807     0.57037      0.79757      0.57037      0.79757      -0.019415    0.013807     
0.86         -0.016884    0.015885     0.67405      0.71194      0.67405      0.71194      -0.016884    0.015885     
0.87         -0.014125    0.017499     0.76503      0.61293      0.76503      0.61293      -0.014125    0.017499     
0.88         -0.011226    0.01863      0.8416       0.5024       0.8416       0.5024       -0.011226    0.01863      
0.89         -0.0082751   0.019279     0.90233      0.38244      0.90233      0.38244      -0.0082751   0.019279     
0.9          -0.0053562   0.019461     0.94607      0.2553       0.94607      0.2553       -0.0053562   0.019461     
0.91         -0.0025436   0.019207     0.97199      0.12336      0.97199      0.12336      -0.0025436   0.019207     
0.92         9.8455e-05   0.01856      0.97961      -0.010879    0.97961      -0.010879    9.8455e-05   0.01856      
0.93         0.0025176    0.01757      0.96877      -0.1449      0.96877      -0.1449      0.0025176    0.01757      
0.94         0.0046743    0.016293     0.93968      -0.27616     0.93968      -0.27616     0.0046743    0.016293     
0.95         0.0065417    0.014787     0.89289      -0.40221     0.89289      -0.40221     0.0065417    0.014787     
0.96         0.0081049    0.01311      0.82928      -0.52066     0.82928      -0.52066     0.0081049    0.01311      
0.97         0.0093599    0.011318     0.75004      -0.62927     0.75004      -0.62927     0.0093599    0.011318     
0.98         0.010311     0.0094625    0.65667      -0.726       0.65667      -0.726       0.010311     0.0094625    
0.99         0.010971     0.0075885    0.55093      -0.80903     0.55093      -0.80903     0.010971     0.0075885    
1            0.011357     0.0057357    0.43482      -0.87678     0.43482      -0.87678     0.011357     0.0057357    
1.01         0.01149      0.0039376    0.31051      -0.92797     0.31051      -0.92797     0.01149      0.0039376    
1.02         0.011391     0.0022218    0.18037      -0.96165     0.18037      -0.96165     0.011391     0.0022218    
1.03         0.011086     0.00061085   0.046845     -0.97717     0.046845     -0.97717     0.011086     0.00061085   
1.04         0.010597     -0.00087669  -0.087544    -0.97424     -0.087544    -0.97424     0.010597     -0.00087669  
1.05         0.0099464    -0.0022256   -0.22026     -0.95291     -0.22026     -0.95291     0.0099464    -0.0022256   
1.06         0.009158     -0.0034231   -0.34879     -0.91359     -0.34879     -0.91359     0.009158     -0.0034231   
1.07         0.0082539    -0.0044582   -0.47072     -0.85702     -0.47072     -0.85702     0.0082539    -0.0044582   
1.08         0.007257     -0.0053212   -0.58373     -0.78426     -0.58373     -0.78426     0.007257     -0.0053212   
1.09         0.006191     -0.0060041   -0.68569     -0.6967      -0.68569     -0.6967      0.006191     -0.0060041   
1.1          0.0050813    -0.0065006   -0.77467     -0.59598     -0.77467     -0.59598     0.0050813    -0.0065006   
1.11         0.0039549    -0.0068067   -0.849       -0.484       -0.849       -0.484       0.0039549    -0.0068067   
1.12         0.0028405    -0.0069217   -0.90726     -0.3629      -0.90726     -0.3629      0.0028405    -0.0069217   
1.13         0.0017686    -0.0068491   -0.94835     -0.23495     -0.94835     -0.23495     0.0017686    -0.0068491   
1.14         0.00077045   -0.0065972   -0.97149     -0.10257     -0.97149     -0.10257     0.00077045   -0.0065972   
1.15         -0.00012258  -0.0061804   -0.97625     0.031725     -0.97625     0.031725     -0.00012258  -0.0061804   
1.16         -0.00088063  -0.0056191   -0.96253     0.1654       -0.96253     0.1654       -0.00088063  -0.0056191   
1.17         -0.0014767   -0.0049406   -0.9306      0.29593      -0.9306      0.29593      -0.0014767   -0.0049406   
1.18         -0.0018884   -0.0041781   -0.88105     0.42083      -0.88105     0.42083      -0.0018884   -0.0041781   
1.19         -0.0020996   -0.0033704   -0.81482     0.53774      -0.81482     0.53774      -0.0020996   -0.0033704   
1.2          -0.0021019   -0.0025605   -0.73317     0.64445      -0.73317     0.64445      -0.0021019   -0.0025605   
1.21         -0.0018959   -0.001794    -0.63763     0.73894      -0.63763     0.73894      -0.0018959   -0.001794    
1.22         -0.0014919   -0.0011171   -0.53003     0.8194       -0.53003     0.8194       -0.0014919   -0.0011171   
1.23         -0.00091053  -0.00057433  -0.4124      0.88433      -0.4124      0.88433      -0.00091053  -0.00057433  
1.24         -0.00018235  -0.00020635  -0.28697     0.93248      -0.28697     0.93248      -0.00018235  -0.00020635  
1.25         0.00065302   -4.7372e-05  -0.15612     0.96294      -0.15612     0.96294      0.00065302   -4.7372e-05  
1.26         0.0015481    -0.00012323  -0.022325    0.97513      -0.022325    0.97513      0.0015481    -0.00012323  
1.27         0.0024497    -0.00044956  0.11187      0.96882      0.11187      0.96882      0.0024497    -0.00044956  
1.28         0.0033007    -0.0010305   0.24393      0.94413      0.24393      0.94413      0.0033007    -0.0010305   
1.29         0.0040432    -0.0018579   0.37133      0.90152      0.37133      0.90152      0.0040432    -0.0018579   
1.3          0.0046206    -0.0029112   0.49167      0.84181      0.49167      0.84181      0.0046206    -0.0029112   
1.31         0.004981     -0.0041577   0.60265      0.76612      0.60265      0.76612      0.004981     -0.0041577   
1.32         0.005079     -0.005554    0.70216      0.67589      0.70216      0.67589      0.005079     -0.005554    
1.33         0.0048783    -0.0070472   0.78832      0.57284      0.78832      0.57284      0.0048783    -0.0070472   
1.34         0.0043537    -0.0085772   0.85949      0.45893      0.85949      0.45893      0.0043537    -0.0085772   
1.35         0.0034918    -0.010079    0.91432      0.33631      0.91432      0.33631      0.0034918    -0.010079    
1.36         0.0022924    -0.011485    0.95176      0.20732      0.95176      0.20732      0.0022924    -0.011485    
1.37         0.00076807   -0.012728    0.97109      0.074418     0.97109      0.074418     0.00076807   -0.012728    
1.38         -0.0010557   -0.013744    0.97196      -0.05988     0.97196      -0.05988     -0.0010557   -0.013744    
1.39         -0.0031417   -0.014473    0.95434      -0.19302     0.95434      -0.19302     -0.0031417   -0.014473    
1.4          -0.005442    -0.014862    0.91857      -0.32245     0.91857      -0.32245     -0.005442    -0.014862    
1.41         -0.0078999   -0.014869    0.86534      -0.44574     0.86534      -0.44574     -0.0078999   -0.014869    
1.42         -0.010451    -0.01446     0.79564      -0.56051     0.79564      -0.56051     -0.010451    -0.01446     
1.43         -0.013027    -0.013613    0.71081      -0.6646      0.71081      -0.6646      -0.013027    -0.013613    
1.44         -0.015554    -0.012316    0.61247      -0.75601     0.61247      -0.75601     -0.015554    -0.012316    
1.45         -0.017958    -0.010571    0.50248      -0.83301     0.50248      -0.83301     -0.017958    -0.010571    
1.46         -0.020165    -0.0083889   0.38294      -0.89413     0.38294      -0.89413     -0.020165    -0.0083889   
1.47         -0.022103    -0.0057943   0.25613      -0.93821     0.25613      -0.93821     -0.022103    -0.0057943   
1.48         -0.023703    -0.0028213   0.12446      -0.9644      0.12446      -0.9644      -0.023703    -0.0028213   
1.49         -0.0249      0.00048543   -0.0095562   -0.9722      -0.0095562   -0.9722      -0.0249      0.00048543   
1.5          -0.025636    0.0040714    -0.14336     -0.96147     -0.14336     -0.96147     -0.025636    0.0040714    
1.51         -0.02586     0.0078732    -0.27441     -0.93241     -0.27441     -0.93241     -0.02586     0.0078732    
1.52         -0.025527    0.011819     -0.40019     -0.88558     -0.40019     -0.88558     -0.025527    0.011819     
1.53         -0.024603    0.01583      -0.51832     -0.82186     -0.51832     -0.82186     -0.024603    0.01583      
1.54         -0.023065    0.019819     -0.62653     -0.74247     -0.62653     -0.74247     -0.023065    0.019819     
1.55         -0.0209      0.023695     -0.72276     -0.64894     -0.72276     -0.64894     -0.0209      0.023695     
1.56         -0.01811     0.027362     -0.80518     -0.54303     -0.80518     -0.54303     -0.01811     0.027362     
1.57         -0.014708    0.030721     -0.8722      -0.42679     -0.8722      -0.42679     -0.014708    0.030721     
1.58         -0.010724    0.033672     -0.92255     -0.30242     -0.92255     -0.30242     -0.010724    0.033672     
1.59         -0.0062057   0.036117     -0.95528     -0.17231     -0.95528     -0.17231     -0.0062057   0.036117     
1.6          -0.0012146   0.037962     -0.96974     -0.038935    -0.96974     -0.038935    -0.0012146   0.037962     
1.61         0.0041699    0.039119     -0.96568     0.095146     -0.96568     0.095146     0.0041699    0.039119     
1.62         0.009852     0.039511     -0.94316     0.22737      -0.94316     0.22737      0.009852     0.039511     
1.63         0.015721     0.039072     -0.90262     0.35522      -0.90262     0.35522      0.015721     0.039072     
1.64         0.021652     0.037754     -0.84484     0.47624      -0.84484     0.47624      0.021652     0.037754     
1.65         0.027511     0.035528     -0.77092     0.58812      -0.77092     0.58812      0.027511     0.035528     
1.66         0.033152     0.032387     -0.68229     0.68872      -0.68229     0.68872      0.033152     0.032387     
1.67         0.038429     0.028347     -0.58063     0.77612      -0.58063     0.77612      0.038429     0.028347     
1.68         0.043193     0.023449     -0.4679      0.84865      -0.4679      0.84865      0.043193     0.023449     
1.69         0.0473       0.01776      -0.34625     0.90493      -0.34625     0.90493      0.0473       0.01776      
1.7          0.050616     0.011372     -0.21801     0.94387      -0.21801     0.94387      0.050616     0.011372     
1.71         0.053021     0.0043998    -0.085644    0.96474      -0.085644    0.96474      0.053021     0.0043998    
1.72         0.054411     -0.0030188   0.048323     0.96714      0.048323     0.96714      0.054411     -0.0030188   
1.73         0.054707     -0.010729    0.18132      0.95103      0.18132      0.95103      0.054707     -0.010729    
1.74         0.053854     -0.018561    0.31081      0.91672      0.31081      0.91672      0.053854     -0.018561    
1.75         0.051825     -0.026337    0.43432      0.86486      0.43432      0.86486      0.051825     -0.026337    
1.76         0.048623     -0.033873    0.54946      0.79646      0.54946      0.79646      0.048623     -0.033873    
1.77         0.044281     -0.040987    0.65406      0.71283      0.65406      0.71283      0.044281     -0.040987    
1.78         0.038861     -0.047504    0.74609      0.61556      0.74609      0.61556      0.038861     -0.047504    
1.79         0.032454     -0.053258    0.8238       0.50653      0.8238       0.50653      0.032454     -0.053258    
1.8          0.025174     -0.058101    0.88571      0.38782      0.88571      0.38782      0.025174     -0.058101    
1.81         0.017159     -0.061902    0.93062      0.26171      0.93062      0.26171      0.017159     -0.061902    
1.82         0.0085656    -0.064555    0.95768      0.13061      0.95768      0.13061      0.0085656    -0.064555    
1.83         -0.00043659  -0.065978    0.96637      -0.0029638   0.96637      -0.0029638   -0.00043659  -0.065978    
1.84         -0.0096675   -0.066115    0.95652      -0.13645     0.95652      -0.13645     -0.0096675   -0.066115    
1.85         -0.018942    -0.064939    0.92832      -0.26728     0.92832      -0.26728     -0.018942    -0.064939    
1.86         -0.028073    -0.062448    0.88231      -0.39295     0.88231      -0.39295     -0.028073    -0.062448    
1.87         -0.036877    -0.058666    0.81938      -0.51105     0.81938      -0.51105     -0.036877    -0.058666    
1.88         -0.045176    -0.053643    0.74073      -0.61931     0.74073      -0.61931     -0.045176    -0.053643    
1.89         -0.0528      -0.047451    0.64787      -0.71564     0.64787      -0.71564     -0.0528      -0.047451    
1.9          -0.059593    -0.040184    0.54259      -0.79821     0.54259      -0.79821     -0.059593    -0.040184    
1.91         -0.06541     -0.031954    0.42691      -0.86541     0.42691      -0.86541     -0.06541     -0.031954    
1.92         -0.070121    -0.02289     0.30305      -0.91596     0.30305      -0.91596     -0.070121    -0.02289     
1.93         -0.073613    -0.013139    0.1734       -0.94889     0.1734       -0.94889     -0.073613    -0.013139    
1.94         -0.075791    -0.0028585   0.040456     -0.96356     0.040456     -0.96356     -0.075791    -0.0028585   
1.95         -0.076579    0.0077801    -0.093226    -0.95969     -0.093226    -0.95969     -0.076579    0.0077801    
1.96         -0.075919    0.018595     -0.22507     -0.93736     -0.22507     -0.93736     -0.075919    0.018595     
1.97         -0.073775    0.029396     -0.35254     -0.89699     -0.35254     -0.89699     -0.073775    0.029396     
1.98         -0.070137    0.039984     -0.47318     -0.83938     -0.47318     -0.83938     -0.070137    0.039984     
1.99         -0.065016    0.050156     -0.58466     -0.76563     -0.58466     -0.76563     -0.065016    0.050156     
2            -0.05845     0.059707     -0.68484     -0.67718     -0.68484     -0.67718     -0.05845     0.059707     
2.01         -0.050506    0.06843      -0.77179     -0.57572     -0.77179     -0.57572     -0.050506    0.06843      
2.02         -0.041281    0.076124     -0.84384     -0.46321     -0.84384     -0.46321     -0.041281    0.076124     
2.03         -0.030901    0.082595     -0.89961     -0.34184     -0.89961     -0.34184     -0.030901    0.082595     
2.04         -0.019523    0.087662     -0.93802     -0.21395     -0.93802     -0.21395     -0.019523    0.087662     
2.05         -0.0073337   0.091164     -0.95834     -0.082001    -0.95834     -0.082001    -0.0073337   0.091164     
2.06         0.0054499    0.092963     -0.9602      0.051459     -0.9602      0.051459     0.0054499    0.092963     
2.07         0.018587     0.092949     -0.94356     0.18386      -0.94356     0.18386      0.018587     0.092949     
2.08         0.031813     0.09105      -0.90876     0.31264      -0.90876     0.31264      0.031813     0.09105      
2.09         0.044849     0.087231     -0.85647     0.43533      -0.85647     0.43533      0.044849     0.087231     
2.1          0.057405     0.081503     -0.78772     0.54957      -0.78772     0.54957      0.057405     0.081503     
2.11         0.069189     0.073921     -0.70384     0.65317      -0.70384     0.65317      0.069189     0.073921     
2.12         0.079912     0.06459      -0.60645     0.74413      -0.60645     0.74413      0.079912     0.06459      
2.13         0.089302     0.053661     -0.49743     0.82071      -0.49743     0.82071      0.089302     0.053661     
2.14         0.09711      0.041333     -0.3789      0.88145      -0.3789      0.88145      0.09711      0.041333     
2.15         0.10311      0.027844     -0.25312     0.92519      -0.25312     0.92519      0.10311      0.027844     
