!freq-unit  param-type  data-format  keyword  impedance-ohms
# GHZ           S          RI           R         50
!-----------------------------------------------------------------------------
!Freq          ReS11        ImS11        ReS21        ImS21        ReS12        ImS12        ReS22        ImS22
0.5          -0.010064    -0.0021226   -0.19968     0.97042      -0.19968     0.97042      -0.010064    -0.0021226   
0.51         -0.0095718   -0.0011425   -0.11122     0.98438      -0.11122     0.98438      -0.0095718   -0.0011425   
0.52         -0.0089074   -0.00026738  -0.021866    0.9903       -0.021866    0.9903       -0.0089074   -0.00026738  
0.53         -0.0080884   0.0004729    0.067662     0.98813      0.067662     0.98813      -0.0080884   0.0004729    
0.54         -0.0071374   0.0010512    0.15663      0.97787      0.15663      0.97787      -0.0071374   0.0010512    
0.55         -0.0060814   0.0014442    0.24431      0.95963      0.24431      0.95963      -0.0060814   0.0014442    
0.56         -0.0049516   0.0016328    0.32998      0.93353      0.32998      0.93353      -0.0049516   0.0016328    
0.57         -0.0037821   0.0016031    0.41295      0.8998       0.41295      0.8998       -0.0037821   0.0016031    
0.58         -0.0026096   0.0013469    0.49253      0.85871      0.49253      0.85871      -0.0026096   0.0013469    
0.59         -0.0014721   0.00086151   0.56807      0.81059      0.56807      0.81059      -0.0014721   0.00086151   
0.6          -0.00040794  0.00015069   0.63895      0.75584      0.63895      0.75584      -0.00040794  0.00015069   
0.61         0.0005448    -0.0007758   0.70459      0.69491      0.70459      0.69491      0.0005448    -0.0007758   
0.62         0.0013496    -0.0019021   0.76446      0.62828      0.76446      0.62828      0.0013496    -0.0019021   
0.63         0.0019725    -0.0032067   0.81805      0.55652      0.81805      0.55652      0.0019725    -0.0032067   
0.64         0.0023826    -0.0046626   0.86493      0.4802       0.86493      0.4802       0.0023826    -0.0046626   
0.65         0.0025533    -0.006238    0.90472      0.39996      0.90472      0.39996      0.0025533    -0.006238    
0.66         0.0024628    -0.0078971   0.93708      0.31644      0.93708      0.31644      0.0024628    -0.0078971   
0.67         0.0020948    -0.0096004   0.96176      0.23034      0.96176      0.23034      0.0020948    -0.0096004   
0.68         0.0014387    -0.011306    0.97854      0.14236      0.97854      0.14236      0.0014387    -0.011306    
0.69         0.00049037   -0.012971    0.98728      0.053229     0.98728      0.053229     0.00049037   -0.012971    
0.7          -0.00074794  -0.014552    0.98793      -0.036329    0.98793      -0.036329    -0.00074794  -0.014552    
0.71         -0.0022675   -0.016004    0.98046      -0.12557     0.98046      -0.12557     -0.0022675   -0.016004    
0.72         -0.0040534   -0.017284    0.96495      -0.21377     0.96495      -0.21377     -0.0040534   -0.017284    
0.73         -0.0060844   -0.018354    0.94152      -0.3002      0.94152      -0.3002      -0.0060844   -0.018354    
0.74         -0.0083336   -0.019175    0.91035      -0.38415     0.91035      -0.38415     -0.0083336   -0.019175    
0.75         -0.010769    -0.019715    0.87172      -0.46493     0.87172      -0.46493     -0.010769    -0.019715    
0.76         -0.013354    -0.019945    0.82593      -0.54188     0.82593      -0.54188     -0.013354    -0.019945    
0.77         -0.016048    -0.01984     0.77337      -0.61435     0.77337      -0.61435     -0.016048    -0.01984     
0.78         -0.018807    -0.019384    0.71446      -0.68177     0.71446      -0.68177     -0.018807    -0.019384    
0.79         -0.021586    -0.018564    0.64969      -0.74357     0.64969      -0.74357     -0.021586    -0.018564    
0.8          -0.024337    -0.017374    0.5796       -0.79924     0.5796       -0.79924     -0.024337    -0.017374    
0.81         -0.027012    -0.015815    0.50475      -0.84833     0.50475      -0.84833     -0.027012    -0.015815    
0.82         -0.029563    -0.013894    0.42577      -0.89044     0.42577      -0.89044     -0.029563    -0.013894    
0.83         -0.031945    -0.011623    0.34331      -0.92522     0.34331      -0.92522     -0.031945    -0.011623    
0.84         -0.034112    -0.0090215   0.25804      -0.95238     0.25804      -0.95238     -0.034112    -0.0090215   
0.85         -0.036022    -0.0061134   0.17066      -0.97171     0.17066      -0.97171     -0.036022    -0.0061134   
0.86         -0.037637    -0.0029284   0.081902     -0.98304     0.081902     -0.98304     -0.037637    -0.0029284   
0.87         -0.038923    0.00049969   -0.007514    -0.98628     -0.007514    -0.98628     -0.038923    0.00049969   
0.88         -0.039848    0.0041328    -0.09685     -0.9814      -0.09685     -0.9814      -0.039848    0.0041328    
0.89         -0.040387    0.0079296    -0.18537     -0.96845     -0.18537     -0.96845     -0.040387    0.0079296    
0.9          -0.040519    0.011846     -0.27235     -0.94753     -0.27235     -0.94753     -0.040519    0.011846     
0.91         -0.040231    0.015836     -0.35707     -0.91881     -0.35707     -0.91881     -0.040231    0.015836     
0.92         -0.039511    0.019851     -0.43883     -0.88254     -0.43883     -0.88254     -0.039511    0.019851     
0.93         -0.038355    0.023844     -0.51696     -0.83901     -0.51696     -0.83901     -0.038355    0.023844     
0.94         -0.036766    0.027766     -0.59082     -0.78857     -0.59082     -0.78857     -0.036766    0.027766     
0.95         -0.03475     0.031568     -0.6598      -0.73166     -0.6598      -0.73166     -0.03475     0.031568     
0.96         -0.032319    0.035205     -0.72334     -0.66872     -0.72334     -0.66872     -0.032319    0.035205     
0.97         -0.02949     0.03863      -0.7809      -0.60029     -0.7809      -0.60029     -0.02949     0.03863      
0.98         -0.026284    0.041801     -0.83202     -0.52692     -0.83202     -0.52692     -0.026284    0.041801     
0.99         -0.02273     0.044677     -0.87627     -0.44922     -0.87627     -0.44922     -0.02273     0.044677     
1            -0.018856    0.04722      -0.91329     -0.36783     -0.91329     -0.36783     -0.018856    0.04722      
1.01         -0.014697    0.049397     -0.94277     -0.28342     -0.94277     -0.28342     -0.014697    0.049397     
1.02         -0.010291    0.051177     -0.96448     -0.19669     -0.96448     -0.19669     -0.010291    0.051177     
1.03         -0.0056794   0.052533     -0.97823     -0.10835     -0.97823     -0.10835     -0.0056794   0.052533     
1.04         -0.00090478  0.053444     -0.9839      -0.019136    -0.9839      -0.019136    -0.00090478  0.053444     
1.05         0.003987     0.053892     -0.98146     0.070226     -0.98146     0.070226     0.003987     0.053892     
1.06         0.0089486    0.053863     -0.97092     0.15899      -0.97092     0.15899      0.0089486    0.053863     
1.07         0.013931     0.05335      -0.95236     0.24644      -0.95236     0.24644      0.013931     0.05335      
1.08         0.018885     0.052349     -0.92595     0.33183      -0.92595     0.33183      0.018885     0.052349     
1.09         0.023761     0.050862     -0.8919      0.41448      -0.8919      0.41448      0.023761     0.050862     
1.1          0.028509     0.048896     -0.85048     0.49368      -0.85048     0.49368      0.028509     0.048896     
1.11         0.033079     0.046464     -0.80205     0.5688       -0.80205     0.5688       0.033079     0.046464     
1.12         0.037423     0.043581     -0.747       0.63921      -0.747       0.63921      0.037423     0.043581     
1.13         0.041495     0.040272     -0.68579     0.70433      -0.68579     0.70433      0.041495     0.040272     
1.14         0.04525      0.036561     -0.61892     0.76363      -0.61892     0.76363      0.04525      0.036561     
1.15         0.048647     0.032483     -0.54694     0.8166       -0.54694     0.8166       0.048647     0.032483     
1.16         0.051645     0.028072     -0.47045     0.86282      -0.47045     0.86282      0.051645     0.028072     
1.17         0.054211     0.02337      -0.39008     0.9019       -0.39008     0.9019       0.054211     0.02337      
1.18         0.056313     0.018422     -0.3065      0.93351      -0.3065      0.93351      0.056313     0.018422     
1.19         0.057925     0.013276     -0.22038     0.95741      -0.22038     0.95741      0.057925     0.013276     
1.2          0.059026     0.007983     -0.13246     0.97338      -0.13246     0.97338      0.059026     0.007983     
1.21         0.059599     0.002598     -0.043447    0.9813       -0.043447    0.9813       0.059599     0.002598     
1.22         0.059637     -0.0028234   0.045917     0.9811       0.045917     0.9811       0.059637     -0.0028234   
1.23         0.059134     -0.0082235   0.13489      0.97278      0.13489      0.97278      0.059134     -0.0082235   
1.24         0.058094     -0.013544    0.22275      0.95641      0.22275      0.95641      0.058094     -0.013544    
1.25         0.056527     -0.018728    0.30875      0.93213      0.30875      0.93213      0.056527     -0.018728    
1.26         0.054448     -0.023717    0.3922       0.90013      0.3922       0.90013      0.054448     -0.023717    
1.27         0.051881     -0.028456    0.47239      0.86067      0.47239      0.86067      0.051881     -0.028456    
1.28         0.048855     -0.032892    0.54866      0.81409      0.54866      0.81409      0.048855     -0.032892    
1.29         0.045405     -0.036975    0.62039      0.76076      0.62039      0.76076      0.045405     -0.036975    
1.3          0.041574     -0.040661    0.68698      0.70114      0.68698      0.70114      0.041574     -0.040661    
1.31         0.037408     -0.043908    0.74787      0.6357       0.74787      0.6357       0.037408     -0.043908    
1.32         0.032959     -0.046682    0.80257      0.56499      0.80257      0.56499      0.032959     -0.046682    
1.33         0.028282     -0.048953    0.85061      0.48959      0.85061      0.48959      0.028282     -0.048953    
1.34         0.023439     -0.050701    0.89159      0.41013      0.89159      0.41013      0.023439     -0.050701    
1.35         0.018489     -0.05191     0.92518      0.32726      0.92518      0.32726      0.018489     -0.05191     
1.36         0.013498     -0.052575    0.9511       0.24168      0.9511       0.24168      0.013498     -0.052575    
1.37         0.0085285    -0.052695    0.96912      0.15408      0.96912      0.15408      0.0085285    -0.052695    
1.38         0.003645     -0.05228     0.97909      0.065192     0.97909      0.065192     0.003645     -0.05228     
1.39         -0.0010902   -0.051346    0.98093      -0.024243    0.98093      -0.024243    -0.0010902   -0.051346    
1.4          -0.0056175   -0.049919    0.97462      -0.11348     0.97462      -0.11348     -0.0056175   -0.049919    
1.41         -0.0098803   -0.048031    0.96021      -0.20179     0.96021      -0.20179     -0.0098803   -0.048031    
1.42         -0.013827    -0.04572     0.93782      -0.28843     0.93782      -0.28843     -0.013827    -0.04572     
1.43         -0.017411    -0.043032    0.90762      -0.37268     0.90762      -0.37268     -0.017411    -0.043032    
1.44         -0.020591    -0.040017    0.86986      -0.45384     0.86986      -0.45384     -0.020591    -0.040017    
1.45         -0.023335    -0.036731    0.82486      -0.53123     0.82486      -0.53123     -0.023335    -0.036731    
1.46         -0.025617    -0.033234    0.77298      -0.60421     0.77298      -0.60421     -0.025617    -0.033234    
1.47         -0.027417    -0.029587    0.71466      -0.67217     0.71466      -0.67217     -0.027417    -0.029587    
1.48         -0.028728    -0.025855    0.65037      -0.73453     0.65037      -0.73453     -0.028728    -0.025855    
1.49         -0.029546    -0.022102    0.58066      -0.79078     0.58066      -0.79078     -0.029546    -0.022102    
1.5          -0.02988     -0.018392    0.50609      -0.84044     0.50609      -0.84044     -0.02988     -0.018392    
1.51         -0.029745    -0.014787    0.42729      -0.88309     0.42729      -0.88309     -0.029745    -0.014787    
1.52         -0.029164    -0.011346    0.34491      -0.91839     0.34491      -0.91839     -0.029164    -0.011346    
1.53         -0.028168    -0.0081264   0.25965      -0.94601     0.25965      -0.94601     -0.028168    -0.0081264   
1.54         -0.026796    -0.0051777   0.1722       -0.96574     0.1722       -0.96574     -0.026796    -0.0051777   
1.55         -0.025091    -0.0025456   0.08331      -0.97741     0.08331      -0.97741     -0.025091    -0.0025456   
1.56         -0.023103    -0.00026896  -0.0062886   -0.9809      -0.0062886   -0.9809      -0.023103    -0.00026896  
1.57         -0.020887    0.0016204    -0.095843    -0.9762      -0.095843    -0.9762      -0.020887    0.0016204    
1.58         -0.0185      0.0030983    -0.1846      -0.96333     -0.1846      -0.96333     -0.0185      0.0030983    
1.59         -0.016003    0.0041484    -0.27182     -0.9424      -0.27182     -0.9424      -0.016003    0.0041484    
1.6          -0.013457    0.0047628    -0.35678     -0.91358     -0.35678     -0.91358     -0.013457    0.0047628    
1.61         -0.010926    0.0049416    -0.43875     -0.87711     -0.43875     -0.87711     -0.010926    0.0049416    
1.62         -0.0084693   0.0046934    -0.51704     -0.8333      -0.51704     -0.8333      -0.0084693   0.0046934    
1.63         -0.0061478   0.0040347    -0.59101     -0.7825      -0.59101     -0.7825      -0.0061478   0.0040347    
1.64         -0.0040183   0.0029896    -0.66003     -0.72515     -0.66003     -0.72515     -0.0040183   0.0029896    
1.65         -0.0021338   0.0015898    -0.72351     -0.66172     -0.72351     -0.66172     -0.0021338   0.0015898    
1.66         -0.00054284  -0.00012675  -0.78093     -0.59274     -0.78093     -0.59274     -0.00054284  -0.00012675  
1.67         0.0007114    -0.0021158   -0.8318      -0.5188      -0.8318      -0.5188      0.0007114    -0.0021158   
1.68         0.0015919    -0.004328    -0.87568     -0.44051     -0.87568     -0.44051     0.0015919    -0.004328    
1.69         0.0020682    -0.0067094   -0.91222     -0.35852     -0.91222     -0.35852     0.0020682    -0.0067094   
1.7          0.0021171    -0.0092027   -0.9411      -0.27354     -0.9411      -0.27354     0.0021171    -0.0092027   
1.71         0.0017229    -0.011748    -0.96208     -0.18627     -0.96208     -0.18627     0.0017229    -0.011748    
1.72         0.00087738   -0.014283    -0.97498     -0.097444    -0.97498     -0.097444    0.00087738   -0.014283    
1.73         -0.00041952  -0.016746    -0.97969     -0.0078123   -0.97969     -0.0078123   -0.00041952  -0.016746    
1.74         -0.0021602   -0.019074    -0.97617     0.081872     -0.97617     0.081872     -0.0021602   -0.019074    
1.75         -0.0043292   -0.021205    -0.96445     0.17085      -0.96445     0.17085      -0.0043292   -0.021205    
1.76         -0.0069036   -0.023082    -0.94463     0.25839      -0.94463     0.25839      -0.0069036   -0.023082    
1.77         -0.0098531   -0.024647    -0.91688     0.34373      -0.91688     0.34373      -0.0098531   -0.024647    
1.78         -0.013141    -0.025847    -0.88143     0.42617      -0.88143     0.42617      -0.013141    -0.025847    
1.79         -0.016722    -0.026635    -0.83858     0.505        -0.83858     0.505        -0.016722    -0.026635    
1.8          -0.020549    -0.026968    -0.78868     0.57958      -0.78868     0.57958      -0.020549    -0.026968    
1.81         -0.024565    -0.026807    -0.73217     0.64926      -0.73217     0.64926      -0.024565    -0.026807    
1.82         -0.028712    -0.026123    -0.66952     0.71346      -0.66952     0.71346      -0.028712    -0.026123    
1.83         -0.032926    -0.02489     -0.60125     0.77165      -0.60125     0.77165      -0.032926    -0.02489     
1.84         -0.037141    -0.023093    -0.52794     0.82332      -0.52794     0.82332      -0.037141    -0.023093    
1.85         -0.041286    -0.020723    -0.45022     0.86805      -0.45022     0.86805      -0.041286    -0.020723    
1.86         -0.045292    -0.017778    -0.36873     0.90547      -0.36873     0.90547      -0.045292    -0.017778    
1.87         -0.049087    -0.014266    -0.28417     0.93525      -0.28417     0.93525      -0.049087    -0.014266    
1.88         -0.0526      -0.010202    -0.19725     0.95715      -0.19725     0.95715      -0.0526      -0.010202    
1.89         -0.05576     -0.0056096   -0.10869     0.97098      -0.10869     0.97098      -0.05576     -0.0056096   
1.9          -0.058501    -0.00052209  -0.019264    0.97664      -0.019264    0.97664      -0.058501    -0.00052209  
1.91         -0.060755    0.0050205    0.070292     0.97407      0.070292     0.97407      -0.060755    0.0050205    
1.92         -0.062463    0.01097      0.15922      0.96331      0.15922      0.96331      -0.062463    0.01097      
1.93         -0.063568    0.01727      0.24676      0.94443      0.24676      0.94443      -0.063568    0.01727      
1.94         -0.064018    0.023857     0.33219      0.91762      0.33219      0.91762      -0.064018    0.023857     
1.95         -0.06377     0.030661     0.41478      0.88309      0.41478      0.88309      -0.06377     0.030661     
1.96         -0.062788    0.037607     0.49384      0.84115      0.49384      0.84115      -0.062788    0.037607     
1.97         -0.061042    0.044613     0.5687       0.79214      0.5687       0.79214      -0.061042    0.044613     
1.98         -0.058514    0.051593     0.63873      0.73649      0.63873      0.73649      -0.058514    0.051593     
1.99         -0.055193    0.058458     0.70335      0.67467      0.70335      0.67467      -0.055193    0.058458     
2            -0.05108     0.065118     0.76201      0.6072       0.76201      0.6072       -0.05108     0.065118     
2.01         -0.046186    0.07148      0.81422      0.53466      0.81422      0.53466      -0.046186    0.07148      
2.02         -0.040533    0.07745      0.85955      0.45767      0.85955      0.45767      -0.040533    0.07745      
2.03         -0.034154    0.082938     0.89762      0.37686      0.89762      0.37686      -0.034154    0.082938     
2.04         -0.027093    0.087856     0.92811      0.29294      0.92811      0.29294      -0.027093    0.087856     
2.05         -0.019405    0.092118     0.95077      0.2066       0.95077      0.2066       -0.019405    0.092118     
2.06         -0.011156    0.095647     0.96542      0.11857      0.96542      0.11857      -0.011156    0.095647     
2.07         -0.0024216   0.098369     0.97194      0.029607     0.97194      0.029607     -0.0024216   0.098369     
2.08         0.0067131    0.10022      0.97029      -0.059554    0.97029      -0.059554    0.0067131    0.10022      
2.09         0.016155     0.10115      0.96048      -0.14816     0.96048      -0.14816     0.016155     0.10115      
2.1          0.025802     0.10111      0.9426       -0.23547     0.9426       -0.23547     0.025802     0.10111      
2.11         0.035547     0.10007      0.91681      -0.32074     0.91681      -0.32074     0.035547     0.10007      
2.12         0.04528      0.098004     0.88333      -0.40327     0.88333      -0.40327     0.04528      0.098004     
2.13         0.054883     0.094914     0.84245      -0.48236     0.84245      -0.48236     0.054883     0.094914     
2.14         0.064241     0.090804     0.79452      -0.55735     0.79452      -0.55735     0.064241     0.090804     
2.15         0.073236     0.085694     0.73995      -0.62763     0.73995      -0.62763     0.073236     0.085694     
