!freq-unit  param-type  data-format  keyword  impedance-ohms
# GHZ           S          RI           R         50
!-----------------------------------------------------------------------------
!Freq          ReS11        ImS11        ReS21        ImS21        ReS12        ImS12        ReS22        ImS22
0.5          -0.0077385   -0.025631    -0.95145     0.28293      -0.95145     0.28293      -0.0077385   -0.025631    
0.51         -0.009767    -0.025803    -0.92966     0.34761      -0.92966     0.34761      -0.009767    -0.025803    
0.52         -0.011845    -0.025794    -0.90347     0.41064      -0.90347     0.41064      -0.011845    -0.025794    
0.53         -0.013955    -0.025597    -0.87302     0.47172      -0.87302     0.47172      -0.013955    -0.025597    
0.54         -0.016079    -0.025207    -0.83844     0.53056      -0.83844     0.53056      -0.016079    -0.025207    
0.55         -0.018198    -0.024622    -0.79989     0.58688      -0.79989     0.58688      -0.018198    -0.024622    
0.56         -0.020293    -0.023842    -0.75757     0.64042      -0.75757     0.64042      -0.020293    -0.023842    
0.57         -0.022345    -0.022867    -0.71167     0.69092      -0.71167     0.69092      -0.022345    -0.022867    
0.58         -0.024335    -0.021702    -0.66241     0.73815      -0.66241     0.73815      -0.024335    -0.021702    
0.59         -0.026245    -0.02035     -0.61001     0.78188      -0.61001     0.78188      -0.026245    -0.02035     
0.6          -0.028058    -0.01882     -0.55474     0.8219       -0.55474     0.8219       -0.028058    -0.01882     
0.61         -0.029755    -0.01712     -0.49685     0.85802      -0.49685     0.85802      -0.029755    -0.01712     
0.62         -0.031322    -0.015261    -0.4366      0.89008      -0.4366      0.89008      -0.031322    -0.015261    
0.63         -0.032743    -0.013255    -0.3743      0.91792      -0.3743      0.91792      -0.032743    -0.013255    
0.64         -0.034005    -0.011114    -0.31023     0.94141      -0.31023     0.94141      -0.034005    -0.011114    
0.65         -0.035097    -0.008855    -0.2447      0.96043      -0.2447      0.96043      -0.035097    -0.008855    
0.66         -0.036007    -0.0064919   -0.17801     0.9749       -0.17801     0.9749       -0.036007    -0.0064919   
0.67         -0.036728    -0.0040417   -0.11048     0.98475      -0.11048     0.98475      -0.036728    -0.0040417   
0.68         -0.037252    -0.0015214   -0.04244     0.98993      -0.04244     0.98993      -0.037252    -0.0015214   
0.69         -0.037573    0.0010514    0.025799     0.99042      0.025799     0.99042      -0.037573    0.0010514    
0.7          -0.037688    0.0036589    0.09391      0.9862       0.09391      0.9862       -0.037688    0.0036589    
0.71         -0.037595    0.0062831    0.16157      0.97731      0.16157      0.97731      -0.037595    0.0062831    
0.72         -0.037294    0.0089062    0.22846      0.96379      0.22846      0.96379      -0.037294    0.0089062    
0.73         -0.036786    0.011511     0.29426      0.94569      0.29426      0.94569      -0.036786    0.011511     
0.74         -0.036075    0.014079     0.35866      0.9231       0.35866      0.9231       -0.036075    0.014079     
0.75         -0.035164    0.016596     0.42135      0.89613      0.42135      0.89613      -0.035164    0.016596     
0.76         -0.03406     0.019044     0.48204      0.86491      0.48204      0.86491      -0.03406     0.019044     
0.77         -0.032769    0.021408     0.54044      0.82958      0.54044      0.82958      -0.032769    0.021408     
0.78         -0.031299    0.023675     0.59626      0.79032      0.59626      0.79032      -0.031299    0.023675     
0.79         -0.029661    0.025831     0.64925      0.74729      0.64925      0.74729      -0.029661    0.025831     
0.8          -0.027864    0.027864     0.69915      0.70072      0.69915      0.70072      -0.027864    0.027864     
0.81         -0.025919    0.029763     0.74573      0.65082      0.74573      0.65082      -0.025919    0.029763     
0.82         -0.023838    0.031518     0.78875      0.59783      0.78875      0.59783      -0.023838    0.031518     
0.83         -0.021632    0.03312      0.82802      0.54199      0.82802      0.54199      -0.021632    0.03312      
0.84         -0.019315    0.034561     0.86336      0.48358      0.86336      0.48358      -0.019315    0.034561     
0.85         -0.016899    0.035835     0.89458      0.42287      0.89458      0.42287      -0.016899    0.035835     
0.86         -0.014397    0.036936     0.92154      0.36015      0.92154      0.36015      -0.014397    0.036936     
0.87         -0.011822    0.037859     0.94412      0.29572      0.94412      0.29572      -0.011822    0.037859     
0.88         -0.0091875   0.038601     0.96219      0.22988      0.96219      0.22988      -0.0091875   0.038601     
0.89         -0.0065063   0.03916      0.97569      0.16295      0.97569      0.16295      -0.0065063   0.03916      
0.9          -0.0037915   0.039533     0.98454      0.095246     0.98454      0.095246     -0.0037915   0.039533     
0.91         -0.0010557   0.039721     0.98869      0.02709      0.98869      0.02709      -0.0010557   0.039721     
0.92         0.0016885    0.039722     0.98813      -0.041193    0.98813      -0.041193    0.0016885    0.039722     
0.93         0.0044286    0.039538     0.98286      -0.10928     0.98286      -0.10928     0.0044286    0.039538     
0.94         0.0071528    0.039169     0.97291      -0.17684     0.97291      -0.17684     0.0071528    0.039169     
0.95         0.009849     0.038619     0.95831      -0.24355     0.95831      -0.24355     0.009849     0.038619     
0.96         0.012506     0.03789      0.93915      -0.3091      0.93915      -0.3091      0.012506     0.03789      
0.97         0.015112     0.036984     0.9155       -0.37317     0.9155       -0.37317     0.015112     0.036984     
0.98         0.017657     0.035906     0.88748      -0.43546     0.88748      -0.43546     0.017657     0.035906     
0.99         0.020129     0.03466      0.85523      -0.49567     0.85523      -0.49567     0.020129     0.03466      
1            0.022518     0.033251     0.8189       -0.55351     0.8189       -0.55351     0.022518     0.033251     
1.01         0.024815     0.031683     0.77866      -0.6087      0.77866      -0.6087      0.024815     0.031683     
1.02         0.027008     0.029964     0.7347       -0.66098     0.7347       -0.66098     0.027008     0.029964     
1.03         0.029089     0.028098     0.68724      -0.71011     0.68724      -0.71011     0.029089     0.028098     
1.04         0.031047     0.026093     0.63649      -0.75583     0.63649      -0.75583     0.031047     0.026093     
1.05         0.032875     0.023957     0.5827       -0.79795     0.5827       -0.79795     0.032875     0.023957     
1.06         0.034562     0.021696     0.52613      -0.83624     0.52613      -0.83624     0.034562     0.021696     
1.07         0.036101     0.01932      0.46705      -0.87054     0.46705      -0.87054     0.036101     0.01932      
1.08         0.037483     0.016838     0.40573      -0.90067     0.40573      -0.90067     0.037483     0.016838     
1.09         0.038701     0.014259     0.34248      -0.92649     0.34248      -0.92649     0.038701     0.014259     
1.1          0.039747     0.011593     0.2776       -0.94788     0.2776       -0.94788     0.039747     0.011593     
1.11         0.040614     0.0088522    0.21139      -0.96473     0.21139      -0.96473     0.040614     0.0088522    
1.12         0.041297     0.006047     0.14417      -0.97697     0.14417      -0.97697     0.041297     0.006047     
1.13         0.041789     0.0031898    0.07626      -0.98453     0.07626      -0.98453     0.041789     0.0031898    
1.14         0.042085     0.00029328   0.0079925    -0.98737     0.0079925    -0.98737     0.042085     0.00029328   
1.15         0.042183     -0.0026293   -0.060309    -0.98548     -0.060309    -0.98548     0.042183     -0.0026293   
1.16         0.042078     -0.0055642   -0.12832     -0.97888     -0.12832     -0.97888     0.042078     -0.0055642   
1.17         0.041768     -0.0084972   -0.19571     -0.96759     -0.19571     -0.96759     0.041768     -0.0084972   
1.18         0.041252     -0.011414    -0.26216     -0.95166     -0.26216     -0.95166     0.041252     -0.011414    
1.19         0.04053      -0.014299    -0.32735     -0.93117     -0.32735     -0.93117     0.04053      -0.014299    
1.2          0.039602     -0.017137    -0.39097     -0.90622     -0.39097     -0.90622     0.039602     -0.017137    
1.21         0.038471     -0.019913    -0.45271     -0.87693     -0.45271     -0.87693     0.038471     -0.019913    
1.22         0.037141     -0.022612    -0.51227     -0.84344     -0.51227     -0.84344     0.037141     -0.022612    
1.23         0.035615     -0.025218    -0.56938     -0.8059      -0.56938     -0.8059      0.035615     -0.025218    
1.24         0.0339       -0.027716    -0.62375     -0.7645      -0.62375     -0.7645      0.0339       -0.027716    
1.25         0.032003     -0.030092    -0.67513     -0.71944     -0.67513     -0.71944     0.032003     -0.030092    
1.26         0.029933     -0.03233     -0.72327     -0.67092     -0.72327     -0.67092     0.029933     -0.03233     
1.27         0.027699     -0.034418    -0.76793     -0.61919     -0.76793     -0.61919     0.027699     -0.034418    
1.28         0.025313     -0.036341    -0.80891     -0.56449     -0.80891     -0.56449     0.025313     -0.036341    
1.29         0.022786     -0.038089    -0.846       -0.50708     -0.846       -0.50708     0.022786     -0.038089    
1.3          0.020133     -0.039649    -0.87903     -0.44724     -0.87903     -0.44724     0.020133     -0.039649    
1.31         0.017367     -0.041011    -0.90784     -0.38526     -0.90784     -0.38526     0.017367     -0.041011    
1.32         0.014505     -0.042167    -0.93228     -0.32142     -0.93228     -0.32142     0.014505     -0.042167    
1.33         0.011561     -0.043109    -0.95224     -0.25605     -0.95224     -0.25605     0.011561     -0.043109    
1.34         0.0085534    -0.04383     -0.96763     -0.18944     -0.96763     -0.18944     0.0085534    -0.04383     
1.35         0.0054991    -0.044325    -0.97837     -0.12193     -0.97837     -0.12193     0.0054991    -0.044325    
1.36         0.0024162    -0.044592    -0.98441     -0.053833    -0.98441     -0.053833    0.0024162    -0.044592    
1.37         -0.00067725  -0.044628    -0.98571     0.014521     -0.98571     0.014521     -0.00067725  -0.044628    
1.38         -0.0037629   -0.044433    -0.98227     0.082803     -0.98227     0.082803     -0.0037629   -0.044433    
1.39         -0.0068226   -0.044008    -0.97411     0.15069      -0.97411     0.15069      -0.0068226   -0.044008    
1.4          -0.0098382   -0.043358    -0.96126     0.21784      -0.96126     0.21784      -0.0098382   -0.043358    
1.41         -0.012792    -0.042485    -0.94379     0.28395      -0.94379     0.28395      -0.012792    -0.042485    
1.42         -0.015667    -0.041396    -0.92177     0.34869      -0.92177     0.34869      -0.015667    -0.041396    
1.43         -0.018446    -0.040099    -0.89532     0.41175      -0.89532     0.41175      -0.018446    -0.040099    
1.44         -0.021114    -0.038602    -0.86456     0.47283      -0.86456     0.47283      -0.021114    -0.038602    
1.45         -0.023655    -0.036916    -0.82964     0.53163      -0.82964     0.53163      -0.023655    -0.036916    
1.46         -0.026056    -0.035052    -0.79071     0.58787      -0.79071     0.58787      -0.026056    -0.035052    
1.47         -0.028304    -0.033022    -0.74798     0.64128      -0.74798     0.64128      -0.028304    -0.033022    
1.48         -0.030387    -0.03084     -0.70165     0.69159      -0.70165     0.69159      -0.030387    -0.03084     
1.49         -0.032296    -0.02852     -0.65193     0.73858      -0.65193     0.73858      -0.032296    -0.02852     
1.5          -0.03402     -0.026077    -0.59907     0.782        -0.59907     0.782        -0.03402     -0.026077    
1.51         -0.035553    -0.023526    -0.54332     0.82165      -0.54332     0.82165      -0.035553    -0.023526    
1.52         -0.036888    -0.020883    -0.48494     0.85734      -0.48494     0.85734      -0.036888    -0.020883    
1.53         -0.038021    -0.018165    -0.42423     0.88889      -0.42423     0.88889      -0.038021    -0.018165    
1.54         -0.038947    -0.015387    -0.36147     0.91616      -0.36147     0.91616      -0.038947    -0.015387    
1.55         -0.039666    -0.012566    -0.29697     0.939        -0.29697     0.939        -0.039666    -0.012566    
1.56         -0.040176    -0.0097183   -0.23103     0.95731      -0.23103     0.95731      -0.040176    -0.0097183   
1.57         -0.040478    -0.0068591   -0.16397     0.971        -0.16397     0.971        -0.040478    -0.0068591   
1.58         -0.040573    -0.0040042   -0.096125    0.97999      -0.096125    0.97999      -0.040573    -0.0040042   
1.59         -0.040466    -0.0011688   -0.027812    0.98425      -0.027812    0.98425      -0.040466    -0.0011688   
1.6          -0.040159    0.0016327    0.040637     0.98376      0.040637     0.98376      -0.040159    0.0016327    
1.61         -0.039659    0.0043862    0.10889      0.97851      0.10889      0.97851      -0.039659    0.0043862    
1.62         -0.038971    0.0070785    0.17662      0.96853      0.17662      0.96853      -0.038971    0.0070785    
1.63         -0.038101    0.0096971    0.24349      0.95387      0.24349      0.95387      -0.038101    0.0096971    
1.64         -0.037059    0.01223      0.30919      0.93459      0.30919      0.93459      -0.037059    0.01223      
1.65         -0.035852    0.014667     0.37339      0.91079      0.37339      0.91079      -0.035852    0.014667     
1.66         -0.034488    0.016997     0.43579      0.88258      0.43579      0.88258      -0.034488    0.016997     
1.67         -0.032978    0.01921      0.49608      0.85011      0.49608      0.85011      -0.032978    0.01921      
1.68         -0.031331    0.021299     0.55396      0.81351      0.55396      0.81351      -0.031331    0.021299     
1.69         -0.029557    0.023256     0.60917      0.77298      0.60917      0.77298      -0.029557    0.023256     
1.7          -0.027667    0.025073     0.66142      0.7287       0.66142      0.7287       -0.027667    0.025073     
1.71         -0.025672    0.026745     0.71047      0.68089      0.71047      0.68089      -0.025672    0.026745     
1.72         -0.023582    0.028265     0.75608      0.62979      0.75608      0.62979      -0.023582    0.028265     
1.73         -0.021409    0.02963      0.79803      0.57563      0.79803      0.57563      -0.021409    0.02963      
1.74         -0.019164    0.030835     0.8361       0.51868      0.8361       0.51868      -0.019164    0.030835     
1.75         -0.016857    0.031877     0.87013      0.45921      0.87013      0.45921      -0.016857    0.031877     
1.76         -0.014501    0.032753     0.89993      0.39752      0.89993      0.39752      -0.014501    0.032753     
1.77         -0.012106    0.033461     0.92537      0.3339       0.92537      0.3339       -0.012106    0.033461     
1.78         -0.0096852   0.034001     0.94632      0.26867      0.94632      0.26867      -0.0096852   0.034001     
1.79         -0.0072486   0.03437      0.96268      0.20212      0.96268      0.20212      -0.0072486   0.03437      
1.8          -0.0048082   0.03457      0.97437      0.1346       0.97437      0.1346       -0.0048082   0.03457      
1.81         -0.0023755   0.0346       0.98132      0.066423     0.98132      0.066423     -0.0023755   0.0346       
1.82         3.8166e-05   0.034463     0.98352      -0.0020764   0.98352      -0.0020764   3.8166e-05   0.034463     
1.83         0.0024212    0.034159     0.98093      -0.070565    0.98093      -0.070565    0.0024212    0.034159     
1.84         0.0047622    0.033692     0.97359      -0.13871     0.97359      -0.13871     0.0047622    0.033692     
1.85         0.0070499    0.033065     0.96151      -0.20618     0.96151      -0.20618     0.0070499    0.033065     
1.86         0.0092729    0.032281     0.94476      -0.27265     0.94476      -0.27265     0.0092729    0.032281     
1.87         0.01142      0.031347     0.92342      -0.3378      0.92342      -0.3378      0.01142      0.031347     
1.88         0.013481     0.030268     0.89759      -0.4013      0.89759      -0.4013      0.013481     0.030268     
1.89         0.015444     0.029049     0.8674       -0.46285     0.8674       -0.46285     0.015444     0.029049     
1.9          0.0173       0.027699     0.83299      -0.52215     0.83299      -0.52215     0.0173       0.027699     
1.91         0.019038     0.026225     0.79453      -0.57892     0.79453      -0.57892     0.019038     0.026225     
1.92         0.020649     0.024638     0.75221      -0.63286     0.75221      -0.63286     0.020649     0.024638     
1.93         0.022124     0.022946     0.70622      -0.68373     0.70622      -0.68373     0.022124     0.022946     
1.94         0.023455     0.02116      0.6568       -0.73127     0.6568       -0.73127     0.023455     0.02116      
1.95         0.024635     0.019293     0.60418      -0.77525     0.60418      -0.77525     0.024635     0.019293     
1.96         0.025655     0.017357     0.54862      -0.81546     0.54862      -0.81546     0.025655     0.017357     
1.97         0.026512     0.015364     0.49039      -0.85169     0.49039      -0.85169     0.026512     0.015364     
1.98         0.0272       0.013329     0.42977      -0.88378     0.42977      -0.88378     0.0272       0.013329     
1.99         0.027716     0.011265     0.36705      -0.91157     0.36705      -0.91157     0.027716     0.011265     
2            0.028057     0.0091893    0.30255      -0.93491     0.30255      -0.93491     0.028057     0.0091893    
2.01         0.028224     0.0071155    0.23657      -0.9537      0.23657      -0.9537      0.028224     0.0071155    
2.02         0.028215     0.0050596    0.16943      -0.96784     0.16943      -0.96784     0.028215     0.0050596    
2.03         0.028034     0.0030372    0.10147      -0.97726     0.10147      -0.97726     0.028034     0.0030372    
2.04         0.027684     0.0010641    0.033016     -0.98192     0.033016     -0.98192     0.027684     0.0010641    
2.05         0.02717      -0.00084421  -0.035605    -0.98179     -0.035605    -0.98179     0.02717      -0.00084421  
2.06         0.026499     -0.0026727   -0.10405     -0.97686     -0.10405     -0.97686     0.026499     -0.0026727   
2.07         0.025678     -0.0044068   -0.172       -0.96717     -0.172       -0.96717     0.025678     -0.0044068   
2.08         0.024719     -0.0060326   -0.2391      -0.95276     -0.2391      -0.95276     0.024719     -0.0060326   
2.09         0.02363      -0.0075371   -0.30504     -0.9337      -0.30504     -0.9337      0.02363      -0.0075371   
2.1          0.022427     -0.0089085   -0.36949     -0.91008     -0.36949     -0.91008     0.022427     -0.0089085   
2.11         0.021122     -0.010136    -0.43214     -0.88201     -0.43214     -0.88201     0.021122     -0.010136    
2.12         0.01973      -0.01121     -0.49268     -0.84964     -0.49268     -0.84964     0.01973      -0.01121     
2.13         0.018268     -0.012124    -0.55082     -0.81311     -0.55082     -0.81311     0.018268     -0.012124    
2.14         0.016752     -0.01287     -0.60627     -0.7726      -0.60627     -0.7726      0.016752     -0.01287     
2.15         0.015201     -0.013446    -0.65875     -0.72831     -0.65875     -0.72831     0.015201     -0.013446    
