!freq-unit  param-type  data-format  keyword  impedance-ohms
# GHZ           S          RI           R         50
!-----------------------------------------------------------------------------
!Freq          ReS11        ImS11        ReS21        ImS21        ReS12        ImS12        ReS22        ImS22
0.5          -0.0017307   -0.0063607   -0.96038     0.25266      -0.96038     0.25266      -0.0017307   -0.0063607   
0.51         -0.0023087   -0.0066716   -0.94086     0.31745      -0.94086     0.31745      -0.0023087   -0.0066716   
0.52         -0.0029292   -0.0069143   -0.91698     0.38076      -0.91698     0.38076      -0.0029292   -0.0069143   
0.53         -0.0035838   -0.0070839   -0.88884     0.44229      -0.88884     0.44229      -0.0035838   -0.0070839   
0.54         -0.0042634   -0.0071765   -0.85657     0.50177      -0.85657     0.50177      -0.0042634   -0.0071765   
0.55         -0.0049586   -0.0071895   -0.82033     0.55891      -0.82033     0.55891      -0.0049586   -0.0071895   
0.56         -0.0056599   -0.0071213   -0.78028     0.61345      -0.78028     0.61345      -0.0056599   -0.0071213   
0.57         -0.0063575   -0.0069716   -0.73661     0.66513      -0.73661     0.66513      -0.0063575   -0.0069716   
0.58         -0.0070419   -0.0067415   -0.68951     0.71372      -0.68951     0.71372      -0.0070419   -0.0067415   
0.59         -0.0077037   -0.0064329   -0.63922     0.75899      -0.63922     0.75899      -0.0077037   -0.0064329   
0.6          -0.008334    -0.0060492   -0.58595     0.80072      -0.58595     0.80072      -0.008334    -0.0060492   
0.61         -0.0089243   -0.0055946   -0.52997     0.83873      -0.52997     0.83873      -0.0089243   -0.0055946   
0.62         -0.0094669   -0.0050744   -0.47152     0.87284      -0.47152     0.87284      -0.0094669   -0.0050744   
0.63         -0.0099548   -0.0044946   -0.41088     0.90288      -0.41088     0.90288      -0.0099548   -0.0044946   
0.64         -0.010382    -0.0038622   -0.34834     0.92872      -0.34834     0.92872      -0.010382    -0.0038622   
0.65         -0.010743    -0.0031845   -0.28417     0.95024      -0.28417     0.95024      -0.010743    -0.0031845   
0.66         -0.011034    -0.0024696   -0.21869     0.96733      -0.21869     0.96733      -0.011034    -0.0024696   
0.67         -0.011252    -0.0017258   -0.15219     0.97992      -0.15219     0.97992      -0.011252    -0.0017258   
0.68         -0.011394    -0.00096146  -0.084992    0.98794      -0.084992    0.98794      -0.011394    -0.00096146  
0.69         -0.01146     -0.00018523  -0.017398    0.99136      -0.017398    0.99136      -0.01146     -0.00018523  
0.7          -0.011449    0.00059441   0.050274     0.99016      0.050274     0.99016      -0.011449    0.00059441   
0.71         -0.011363    0.0013692    0.11771      0.98435      0.11771      0.98435      -0.011363    0.0013692    
0.72         -0.011203    0.0021311    0.18459      0.97395      0.18459      0.97395      -0.011203    0.0021311    
0.73         -0.010973    0.0028727    0.25061      0.95901      0.25061      0.95901      -0.010973    0.0028727    
0.74         -0.010676    0.0035869    0.31545      0.9396       0.31545      0.9396       -0.010676    0.0035869    
0.75         -0.010316    0.0042675    0.37883      0.91581      0.37883      0.91581      -0.010316    0.0042675    
0.76         -0.0098994   0.0049087    0.44043      0.88775      0.44043      0.88775      -0.0098994   0.0049087    
0.77         -0.0094302   0.0055057    0.49998      0.85554      0.49998      0.85554      -0.0094302   0.0055057    
0.78         -0.0089149   0.0060544    0.55719      0.81935      0.55719      0.81935      -0.0089149   0.0060544    
0.79         -0.0083596   0.0065515    0.61179      0.77933      0.61179      0.77933      -0.0083596   0.0065515    
0.8          -0.0077706   0.0069945    0.66354      0.73568      0.66354      0.73568      -0.0077706   0.0069945    
0.81         -0.0071543   0.0073819    0.71219      0.68859      0.71219      0.68859      -0.0071543   0.0073819    
0.82         -0.0065169   0.0077129    0.75751      0.63829      0.75751      0.63829      -0.0065169   0.0077129    
0.83         -0.0058646   0.0079873    0.79929      0.58501      0.79929      0.58501      -0.0058646   0.0079873    
0.84         -0.0052033   0.0082058    0.83733      0.52899      0.83733      0.52899      -0.0052033   0.0082058    
0.85         -0.0045384   0.0083697    0.87146      0.47051      0.87146      0.47051      -0.0045384   0.0083697    
0.86         -0.0038752   0.0084809    0.90151      0.40983      0.90151      0.40983      -0.0038752   0.0084809    
0.87         -0.0032182   0.0085416    0.92735      0.34723      0.92735      0.34723      -0.0032182   0.0085416    
0.88         -0.0025716   0.0085547    0.94885      0.28302      0.94885      0.28302      -0.0025716   0.0085547    
0.89         -0.0019389   0.0085232    0.96591      0.21748      0.96591      0.21748      -0.0019389   0.0085232    
0.9          -0.0013232   0.0084504    0.97845      0.15093      0.97845      0.15093      -0.0013232   0.0084504    
0.91         -0.00072687  0.0083398    0.98641      0.083669     0.98641      0.083669     -0.00072687  0.0083398    
0.92         -0.00015183  0.0081948    0.98976      0.016022     0.98976      0.016022     -0.00015183  0.0081948    
0.93         0.00040059   0.0080188    0.98847      -0.051697    0.98847      -0.051697    0.00040059   0.0080188    
0.94         0.00092955   0.0078152    0.98255      -0.11917     0.98255      -0.11917     0.00092955   0.0078152    
0.95         0.0014347    0.0075871    0.97203      -0.18609     0.97203      -0.18609     0.0014347    0.0075871    
0.96         0.001916     0.0073375    0.95696      -0.25213     0.95696      -0.25213     0.001916     0.0073375    
0.97         0.0023738    0.0070689    0.93741      -0.31698     0.93741      -0.31698     0.0023738    0.0070689    
0.98         0.0028088    0.0067836    0.91346      -0.38035     0.91346      -0.38035     0.0028088    0.0067836    
0.99         0.0032219    0.0064836    0.88523      -0.44194     0.88523      -0.44194     0.0032219    0.0064836    
1            0.0036139    0.0061704    0.85286      -0.50145     0.85286      -0.50145     0.0036139    0.0061704    
1.01         0.0039861    0.0058452    0.81648      -0.5586      0.81648      -0.5586      0.0039861    0.0058452    
1.02         0.0043393    0.0055088    0.77628      -0.61314     0.77628      -0.61314     0.0043393    0.0055088    
1.03         0.0046747    0.0051617    0.73244      -0.6648      0.73244      -0.6648      0.0046747    0.0051617    
1.04         0.0049929    0.0048042    0.68516      -0.71333     0.68516      -0.71333     0.0049929    0.0048042    
1.05         0.0052947    0.0044361    0.63467      -0.75852     0.63467      -0.75852     0.0052947    0.0044361    
1.06         0.0055806    0.0040571    0.5812       -0.80014     0.5812       -0.80014     0.0055806    0.0040571    
1.07         0.0058505    0.0036667    0.525        -0.83801     0.525        -0.83801     0.0058505    0.0036667    
1.08         0.0061044    0.0032644    0.46634      -0.87194     0.46634      -0.87194     0.0061044    0.0032644    
1.09         0.0063419    0.0028495    0.4055       -0.90178     0.4055       -0.90178     0.0063419    0.0028495    
1.1          0.0065621    0.0024215    0.34275      -0.92737     0.34275      -0.92737     0.0065621    0.0024215    
1.11         0.006764     0.0019797    0.27839      -0.94861     0.27839      -0.94861     0.006764     0.0019797    
1.12         0.0069461    0.0015238    0.21273      -0.96539     0.21273      -0.96539     0.0069461    0.0015238    
1.13         0.0071068    0.0010537    0.14606      -0.97764     0.14606      -0.97764     0.0071068    0.0010537    
1.14         0.0072442    0.00056935   0.078718     -0.98528     0.078718     -0.98528     0.0072442    0.00056935   
1.15         0.0073563    7.1256e-05   0.011003     -0.9883      0.011003     -0.9883      0.0073563    7.1256e-05   
1.16         0.0074409    -0.00043989  -0.05676     -0.98666     -0.05676     -0.98666     0.0074409    -0.00043989  
1.17         0.0074955    -0.00096298  -0.12425     -0.98038     -0.12425     -0.98038     0.0074955    -0.00096298  
1.18         0.0075181    -0.0014965   -0.19116     -0.96949     -0.19116     -0.96949     0.0075181    -0.0014965   
1.19         0.0075062    -0.0020385   -0.25717     -0.95404     -0.25717     -0.95404     0.0075062    -0.0020385   
1.2          0.0074578    -0.0025868   -0.32196     -0.9341      -0.32196     -0.9341      0.0074578    -0.0025868   
1.21         0.007371     -0.0031386   -0.38524     -0.90976     -0.38524     -0.90976     0.007371     -0.0031386   
1.22         0.007244     -0.0036908   -0.4467      -0.88114     -0.4467      -0.88114     0.007244     -0.0036908   
1.23         0.0070754    -0.00424     -0.50605     -0.84837     -0.50605     -0.84837     0.0070754    -0.00424     
1.24         0.0068643    -0.0047825   -0.56302     -0.81161     -0.56302     -0.81161     0.0068643    -0.0047825   
1.25         0.0066101    -0.0053144   -0.61733     -0.77102     -0.61733     -0.77102     0.0066101    -0.0053144   
1.26         0.0063126    -0.0058314   -0.66873     -0.7268      -0.66873     -0.7268      0.0063126    -0.0058314   
1.27         0.0059723    -0.0063294   -0.71698     -0.67915     -0.71698     -0.67915     0.0059723    -0.0063294   
1.28         0.0055899    -0.006804    -0.76185     -0.62831     -0.76185     -0.62831     0.0055899    -0.006804    
1.29         0.005167     -0.0072509   -0.80312     -0.5745      -0.80312     -0.5745      0.005167     -0.0072509   
1.3          0.0047055    -0.0076658   -0.84061     -0.51799     -0.84061     -0.51799     0.0047055    -0.0076658   
1.31         0.0042077    -0.0080448   -0.87413     -0.45904     -0.87413     -0.45904     0.0042077    -0.0080448   
1.32         0.0036768    -0.0083839   -0.90352     -0.39792     -0.90352     -0.39792     0.0036768    -0.0083839   
1.33         0.0031162    -0.0086798   -0.92865     -0.33492     -0.92865     -0.33492     0.0031162    -0.0086798   
1.34         0.0025297    -0.0089292   -0.9494      -0.27035     -0.9494      -0.27035     0.0025297    -0.0089292   
1.35         0.0019216    -0.0091294   -0.96566     -0.2045      -0.96566     -0.2045      0.0019216    -0.0091294   
1.36         0.0012966    -0.0092783   -0.97736     -0.13769     -0.97736     -0.13769     0.0012966    -0.0092783   
1.37         0.00065935   -0.009374    -0.98445     -0.070225    -0.98445     -0.070225    0.00065935   -0.009374    
1.38         1.5047e-05   -0.0094155   -0.98688     -0.0024338   -0.98688     -0.0024338   1.5047e-05   -0.0094155   
1.39         -0.0006312   -0.0094022   -0.98466     0.065367     -0.98466     0.065367     -0.0006312   -0.0094022   
1.4          -0.0012742   -0.0093341   -0.97778     0.13286      -0.97778     0.13286      -0.0012742   -0.0093341   
1.41         -0.0019087   -0.0092118   -0.96628     0.19972      -0.96628     0.19972      -0.0019087   -0.0092118   
1.42         -0.0025298   -0.0090365   -0.95021     0.26563      -0.95021     0.26563      -0.0025298   -0.0090365   
1.43         -0.0031325   -0.0088099   -0.92965     0.33029      -0.92965     0.33029      -0.0031325   -0.0088099   
1.44         -0.0037123   -0.0085343   -0.9047      0.39338      -0.9047      0.39338      -0.0037123   -0.0085343   
1.45         -0.0042648   -0.0082125   -0.87546     0.45461      -0.87546     0.45461      -0.0042648   -0.0082125   
1.46         -0.0047862   -0.0078475   -0.84208     0.51369      -0.84208     0.51369      -0.0047862   -0.0078475   
1.47         -0.005273    -0.0074429   -0.80472     0.57034      -0.80472     0.57034      -0.005273    -0.0074429   
1.48         -0.0057222   -0.0070027   -0.76355     0.62429      -0.76355     0.62429      -0.0057222   -0.0070027   
1.49         -0.0061312   -0.006531    -0.71877     0.67528      -0.71877     0.67528      -0.0061312   -0.006531    
1.5          -0.0064981   -0.0060319   -0.67059     0.72307      -0.67059     0.72307      -0.0064981   -0.0060319   
1.51         -0.0068215   -0.0055099   -0.61923     0.76744      -0.61923     0.76744      -0.0068215   -0.0055099   
1.52         -0.0071004   -0.0049693   -0.56493     0.80817      -0.56493     0.80817      -0.0071004   -0.0049693   
1.53         -0.0073343   -0.0044147   -0.50797     0.84507      -0.50797     0.84507      -0.0073343   -0.0044147   
1.54         -0.0075235   -0.0038501   -0.44859     0.87796      -0.44859     0.87796      -0.0075235   -0.0038501   
1.55         -0.0076684   -0.0032796   -0.38709     0.90669      -0.38709     0.90669      -0.0076684   -0.0032796   
1.56         -0.0077699   -0.0027071   -0.32376     0.93113      -0.32376     0.93113      -0.0077699   -0.0027071   
1.57         -0.0078295   -0.0021362   -0.25889     0.95114      -0.25889     0.95114      -0.0078295   -0.0021362   
1.58         -0.0078488   -0.00157     -0.1928      0.96665      -0.1928      0.96665      -0.0078488   -0.00157     
1.59         -0.0078298   -0.0010114   -0.12579     0.97757      -0.12579     0.97757      -0.0078298   -0.0010114   
1.6          -0.0077744   -0.00046296  -0.058189    0.98385      -0.058189    0.98385      -0.0077744   -0.00046296  
1.61         -0.0076851   7.3281e-05   0.0096894    0.98547      0.0096894    0.98547      -0.0076851   7.3281e-05   
1.62         -0.0075641   0.00059559   0.07752      0.9824       0.07752      0.9824       -0.0075641   0.00059559   
1.63         -0.0074137   0.0011026    0.14498      0.97468      0.14498      0.97468      -0.0074137   0.0011026    
1.64         -0.0072363   0.0015935    0.21175      0.96232      0.21175      0.96232      -0.0072363   0.0015935    
1.65         -0.007034    0.0020674    0.27752      0.94539      0.27752      0.94539      -0.007034    0.0020674    
1.66         -0.0068087   0.0025242    0.34196      0.92397      0.34196      0.92397      -0.0068087   0.0025242    
1.67         -0.0065624   0.0029636    0.40478      0.89817      0.40478      0.89817      -0.0065624   0.0029636    
1.68         -0.0062965   0.0033859    0.46568      0.86809      0.46568      0.86809      -0.0062965   0.0033859    
1.69         -0.0060124   0.0037913    0.52436      0.83389      0.52436      0.83389      -0.0060124   0.0037913    
1.7          -0.0057111   0.0041801    0.58054      0.79573      0.58054      0.79573      -0.0057111   0.0041801    
1.71         -0.0053935   0.0045528    0.63397      0.75378      0.63397      0.75378      -0.0053935   0.0045528    
1.72         -0.0050599   0.0049096    0.68437      0.70825      0.68437      0.70825      -0.0050599   0.0049096    
1.73         -0.0047106   0.0052509    0.73153      0.65935      0.73153      0.65935      -0.0047106   0.0052509    
1.74         -0.0043457   0.0055767    0.7752       0.60731      0.7752       0.60731      -0.0043457   0.0055767    
1.75         -0.0039649   0.0058871    0.81518      0.55238      0.81518      0.55238      -0.0039649   0.0058871    
1.76         -0.0035679   0.0061818    0.85127      0.49483      0.85127      0.49483      -0.0035679   0.0061818    
1.77         -0.0031543   0.0064601    0.88332      0.43492      0.88332      0.43492      -0.0031543   0.0064601    
1.78         -0.0027236   0.0067213    0.91116      0.37294      0.91116      0.37294      -0.0027236   0.0067213    
1.79         -0.0022754   0.0069643    0.93466      0.30919      0.93466      0.30919      -0.0022754   0.0069643    
1.8          -0.0018092   0.0071875    0.9537       0.24396      0.9537       0.24396      -0.0018092   0.0071875    
1.81         -0.001325    0.0073894    0.9682       0.17758      0.9682       0.17758      -0.001325    0.0073894    
1.82         -0.00082267  0.0075678    0.97809      0.11034      0.97809      0.11034      -0.00082267  0.0075678    
1.83         -0.00030249  0.0077204    0.98332      0.042588     0.98332      0.042588     -0.00030249  0.0077204    
1.84         0.00023493   0.007845     0.98385      -0.02537     0.98385      -0.02537     0.00023493   0.007845     
1.85         0.00078859   0.0079387    0.9797       -0.093205    0.9797       -0.093205    0.00078859   0.0079387    
1.86         0.0013571    0.0079989    0.97087      -0.16059     0.97087      -0.16059     0.0013571    0.0079989    
1.87         0.0019385    0.0080229    0.95741      -0.22722     0.95741      -0.22722     0.0019385    0.0080229    
1.88         0.0025306    0.008008     0.93939      -0.29275     0.93939      -0.29275     0.0025306    0.008008     
1.89         0.0031305    0.0079516    0.91688      -0.35689     0.91688      -0.35689     0.0031305    0.0079516    
1.9          0.0037347    0.0078513    0.89         -0.41932     0.89         -0.41932     0.0037347    0.0078513    
1.91         0.0043397    0.0077051    0.85886      -0.47975     0.85886      -0.47975     0.0043397    0.0077051    
1.92         0.004941     0.0075112    0.82363      -0.53789     0.82363      -0.53789     0.004941     0.0075112    
1.93         0.0055341    0.0072685    0.78447      -0.59346     0.78447      -0.59346     0.0055341    0.0072685    
1.94         0.0061139    0.0069763    0.74156      -0.64619     0.74156      -0.64619     0.0061139    0.0069763    
1.95         0.0066752    0.0066343    0.6951       -0.69583     0.6951       -0.69583     0.0066752    0.0066343    
1.96         0.0072124    0.0062432    0.64533      -0.74215     0.64533      -0.74215     0.0072124    0.0062432    
1.97         0.00772      0.0058042    0.59247      -0.78492     0.59247      -0.78492     0.00772      0.0058042    
1.98         0.0081924    0.0053192    0.53679      -0.82394     0.53679      -0.82394     0.0081924    0.0053192    
1.99         0.0086241    0.004791     0.47854      -0.85902     0.47854      -0.85902     0.0086241    0.004791     
2            0.0090095    0.004223     0.418        -0.88999     0.418        -0.88999     0.0090095    0.004223     
2.01         0.0093439    0.0036194    0.35546      -0.9167      0.35546      -0.9167      0.0093439    0.0036194    
2.02         0.0096224    0.0029852    0.29122      -0.93902     0.29122      -0.93902     0.0096224    0.0029852    
2.03         0.0098409    0.0023259    0.22559      -0.95685     0.22559      -0.95685     0.0098409    0.0023259    
2.04         0.009996     0.0016479    0.15888      -0.97011     0.15888      -0.97011     0.009996     0.0016479    
2.05         0.010085     0.00095789   0.091417     -0.97872     0.091417     -0.97872     0.010085     0.00095789   
2.06         0.010106     0.0002631    0.023513     -0.98264     0.023513     -0.98264     0.010106     0.0002631    
2.07         0.010057     -0.00042887  -0.044502    -0.98186     -0.044502    -0.98186     0.010057     -0.00042887  
2.08         0.0099385    -0.0011102   -0.1123      -0.97637     -0.1123      -0.97637     0.0099385    -0.0011102   
2.09         0.0097514    -0.0017729   -0.17957     -0.96621     -0.17957     -0.96621     0.0097514    -0.0017729   
2.1          0.0094972    -0.002409    -0.24597     -0.95142     -0.24597     -0.95142     0.0094972    -0.002409    
2.11         0.0091789    -0.0030108   -0.31119     -0.93207     -0.31119     -0.93207     0.0091789    -0.0030108   
2.12         0.0088001    -0.0035707   -0.37492     -0.90826     -0.37492     -0.90826     0.0088001    -0.0035707   
2.13         0.0083656    -0.0040815   -0.43685     -0.88009     -0.43685     -0.88009     0.0083656    -0.0040815   
2.14         0.0078811    -0.0045369   -0.49669     -0.8477      -0.49669     -0.8477      0.0078811    -0.0045369   
2.15         0.0073533    -0.0049307   -0.55414     -0.81124     -0.55414     -0.81124     0.0073533    -0.0049307   
