! Sonnet Data File
! From: emgraph Version : 15.53-Lite
! From Emgraph Data: micro2
! Data File Written: 12/04/2014 16:25:20
!< HDATE 12/04/2014 16:14:41
!< MDATE 12/04/2014 16:14:41
# GHZ S RI R 50.00000
4.00000000 0.033817 0.011717 0.608173 -0.79294 0.608173 -0.79294 0.020037 0.029686
!< P1 F=4.0 Eeff=(6.1975274 -5.7859e-4) Z0=(67.8871587 0.00316838) R=0.08298377 C=0.04148466 
!< P2 F=4.0 Eeff=(6.1975274 -5.7859e-4) Z0=(67.8871587 0.00316838) R=0.08298377 C=0.04148466 
4.02000000 0.033823 0.011385 0.604504 -0.79575 0.604504 -0.79575 0.019993 0.029595
4.04000000 0.033824 0.011051 0.600821 -0.79854 0.600821 -0.79854 0.019944 0.029502
4.06000000 0.033819 0.010714 0.597125 -0.80131 0.597125 -0.80131 0.019891 0.029409
4.08000000 0.033809 0.010374 0.593416 -0.80407 0.593416 -0.80407 0.019834 0.029314
4.10000000 0.033793 0.010031 0.589693 -0.80680 0.589693 -0.80680 0.019772 0.029218
4.12000000 0.033771 0.009685 0.585957 -0.80953 0.585957 -0.80953 0.019706 0.029121
4.14000000 0.033743 0.009337 0.582207 -0.81223 0.582207 -0.81223 0.019636 0.029023
4.16000000 0.033710 0.008987 0.578445 -0.81492 0.578445 -0.81492 0.019561 0.028924
4.18000000 0.033670 0.008634 0.574670 -0.81759 0.574670 -0.81759 0.019482 0.028825
4.20000000 0.033625 0.008278 0.570881 -0.82025 0.570881 -0.82025 0.019398 0.028724
4.22000000 0.033573 0.007920 0.567080 -0.82289 0.567080 -0.82289 0.019310 0.028623
4.24000000 0.033516 0.007560 0.563266 -0.82551 0.563266 -0.82551 0.019217 0.028521
4.26000000 0.033452 0.007197 0.559439 -0.82811 0.559439 -0.82811 0.019120 0.028418
4.28000000 0.033382 0.006832 0.555599 -0.83070 0.555599 -0.83070 0.019018 0.028314
4.30000000 0.033306 0.006465 0.551747 -0.83327 0.551747 -0.83327 0.018911 0.028210
4.32000000 0.033224 0.006096 0.547882 -0.83582 0.547882 -0.83582 0.018800 0.028106
4.34000000 0.033136 0.005725 0.544005 -0.83835 0.544005 -0.83835 0.018684 0.028001
4.36000000 0.033041 0.005352 0.540115 -0.84087 0.540115 -0.84087 0.018564 0.027895
4.38000000 0.032939 0.004976 0.536212 -0.84337 0.536212 -0.84337 0.018438 0.027789
4.40000000 0.032831 0.004599 0.532298 -0.84585 0.532298 -0.84585 0.018308 0.027683
4.42000000 0.032717 0.004221 0.528371 -0.84832 0.528371 -0.84832 0.018174 0.027577
4.44000000 0.032596 0.003840 0.524432 -0.85076 0.524432 -0.85076 0.018034 0.027470
4.46000000 0.032469 0.003458 0.520481 -0.85319 0.520481 -0.85319 0.017889 0.027363
4.48000000 0.032335 0.003074 0.516518 -0.85560 0.516518 -0.85560 0.017740 0.027256
4.50000000 0.032194 0.002689 0.512543 -0.85800 0.512543 -0.85800 0.017586 0.027149
4.52000000 0.032047 0.002302 0.508556 -0.86037 0.508556 -0.86037 0.017427 0.027042
4.54000000 0.031893 0.001914 0.504557 -0.86273 0.504557 -0.86273 0.017263 0.026935
4.56000000 0.031732 0.001524 0.500547 -0.86507 0.500547 -0.86507 0.017094 0.026828
4.58000000 0.031564 0.001133 0.496524 -0.86739 0.496524 -0.86739 0.016920 0.026722
4.60000000 0.031390 7.411e-4 0.492490 -0.86969 0.492490 -0.86969 0.016741 0.026615
4.62000000 0.031208 3.479e-4 0.488445 -0.87198 0.488445 -0.87198 0.016557 0.026509
4.64000000 0.031020 -4.63e-5 0.484388 -0.87425 0.484388 -0.87425 0.016368 0.026404
4.66000000 0.030825 -4.42e-4 0.480320 -0.87649 0.480320 -0.87649 0.016174 0.026298
4.68000000 0.030622 -8.38e-4 0.476240 -0.87872 0.476240 -0.87872 0.015975 0.026194
4.70000000 0.030413 -1.23e-3 0.472149 -0.88094 0.472149 -0.88094 0.015771 0.026089
4.72000000 0.030196 -1.63e-3 0.468047 -0.88313 0.468047 -0.88313 0.015562 0.025986
4.74000000 0.029973 -2.03e-3 0.463933 -0.88530 0.463933 -0.88530 0.015348 0.025883
4.76000000 0.029742 -2.43e-3 0.459809 -0.88746 0.459809 -0.88746 0.015129 0.025780
!< P1 F=4.76 Eeff=(6.20846907 -5.8099e-4) Z0=(67.8335773 0.00317252) R=0.06959908 C=0.04135729 
!< P2 F=4.76 Eeff=(6.20846907 -5.8099e-4) Z0=(67.8335773 0.00317252) R=0.06959908 C=0.04135729 
4.78000000 0.029504 -2.83e-3 0.455674 -0.88959 0.455674 -0.88959 0.014904 0.025679
4.80000000 0.029259 -3.23e-3 0.451528 -0.89171 0.451528 -0.89171 0.014674 0.025578
4.82000000 0.029006 -3.63e-3 0.447370 -0.89381 0.447370 -0.89381 0.014440 0.025479
4.84000000 0.028747 -4.03e-3 0.443203 -0.89589 0.443203 -0.89589 0.014200 0.025380
4.86000000 0.028480 -4.43e-3 0.439024 -0.89795 0.439024 -0.89795 0.013954 0.025282
4.88000000 0.028205 -4.83e-3 0.434835 -0.90000 0.434835 -0.90000 0.013704 0.025186
4.90000000 0.027923 -5.24e-3 0.430635 -0.90202 0.430635 -0.90202 0.013448 0.025090
4.92000000 0.027634 -5.64e-3 0.426425 -0.90402 0.426425 -0.90402 0.013188 0.024996
4.94000000 0.027338 -6.04e-3 0.422205 -0.90601 0.422205 -0.90601 0.012921 0.024903
4.96000000 0.027033 -6.44e-3 0.417974 -0.90797 0.417974 -0.90797 0.012650 0.024811
4.98000000 0.026722 -6.84e-3 0.413733 -0.90992 0.413733 -0.90992 0.012374 0.024721
5.00000000 0.026403 -7.24e-3 0.409481 -0.91185 0.409481 -0.91185 0.012092 0.024633
5.02000000 0.026076 -7.64e-3 0.405220 -0.91375 0.405220 -0.91375 0.011805 0.024546
5.04000000 0.025742 -8.04e-3 0.400949 -0.91564 0.400949 -0.91564 0.011512 0.024460
5.06000000 0.025400 -8.44e-3 0.396668 -0.91751 0.396668 -0.91751 0.011215 0.024376
5.08000000 0.025051 -8.84e-3 0.392376 -0.91936 0.392376 -0.91936 0.010912 0.024294
5.10000000 0.024694 -9.24e-3 0.388076 -0.92119 0.388076 -0.92119 0.010603 0.024214
5.12000000 0.024329 -9.64e-3 0.383765 -0.92300 0.383765 -0.92300 0.010290 0.024136
5.14000000 0.023957 -0.01003 0.379445 -0.92479 0.379445 -0.92479 0.009971 0.024059
5.16000000 0.023577 -0.01043 0.375115 -0.92656 0.375115 -0.92656 0.009647 0.023985
5.18000000 0.023189 -0.01082 0.370776 -0.92831 0.370776 -0.92831 0.009317 0.023913
5.20000000 0.022793 -0.01122 0.366427 -0.93004 0.366427 -0.93004 0.008983 0.023843
5.22000000 0.022390 -0.01161 0.362069 -0.93175 0.362069 -0.93175 0.008642 0.023775
5.24000000 0.021979 -0.01200 0.357702 -0.93344 0.357702 -0.93344 0.008297 0.023709
5.26000000 0.021560 -0.01239 0.353326 -0.93511 0.353326 -0.93511 0.007946 0.023646
5.28000000 0.021133 -0.01278 0.348941 -0.93676 0.348941 -0.93676 0.007590 0.023585
5.30000000 0.020699 -0.01317 0.344547 -0.93838 0.344547 -0.93838 0.007229 0.023527
5.32000000 0.020256 -0.01355 0.340144 -0.93999 0.340144 -0.93999 0.006862 0.023471
5.34000000 0.019806 -0.01394 0.335732 -0.94158 0.335732 -0.94158 0.006491 0.023418
5.36000000 0.019348 -0.01432 0.331311 -0.94315 0.331311 -0.94315 0.006113 0.023368
5.38000000 0.018882 -0.01470 0.326882 -0.94470 0.326882 -0.94470 0.005731 0.023320
5.40000000 0.018408 -0.01508 0.322444 -0.94622 0.322444 -0.94622 0.005343 0.023275
5.42000000 0.017927 -0.01545 0.317998 -0.94773 0.317998 -0.94773 0.004950 0.023234
5.44000000 0.017437 -0.01582 0.313543 -0.94922 0.313543 -0.94922 0.004552 0.023195
5.46000000 0.016939 -0.01620 0.309080 -0.95068 0.309080 -0.95068 0.004148 0.023159
5.48000000 0.016434 -0.01657 0.304609 -0.95213 0.304609 -0.95213 0.003739 0.023126
5.50000000 0.015921 -0.01693 0.300130 -0.95355 0.300130 -0.95355 0.003325 0.023097
5.52000000 0.015399 -0.01730 0.295642 -0.95495 0.295642 -0.95495 0.002906 0.023071
5.54000000 0.014870 -0.01766 0.291147 -0.95633 0.291147 -0.95633 0.002481 0.023048
5.56000000 0.014333 -0.01802 0.286644 -0.95769 0.286644 -0.95769 0.002051 0.023029
5.58000000 0.013788 -0.01837 0.282133 -0.95903 0.282133 -0.95903 0.001617 0.023013
5.60000000 0.013235 -0.01873 0.277614 -0.96035 0.277614 -0.96035 0.001176 0.023000
5.62000000 0.012674 -0.01908 0.273088 -0.96165 0.273088 -0.96165 7.311e-4 0.022992
5.64000000 0.012105 -0.01942 0.268554 -0.96293 0.268554 -0.96293 2.806e-4 0.022987
5.66000000 0.011528 -0.01977 0.264013 -0.96418 0.264013 -0.96418 -1.75e-4 0.022986
5.68000000 0.010943 -0.02011 0.259465 -0.96541 0.259465 -0.96541 -6.36e-4 0.022988
5.70000000 0.010350 -0.02045 0.254909 -0.96663 0.254909 -0.96663 -1.10e-3 0.022995
5.72000000 0.009750 -0.02078 0.250346 -0.96782 0.250346 -0.96782 -1.57e-3 0.023006
5.74000000 0.009141 -0.02111 0.245777 -0.96899 0.245777 -0.96899 -2.05e-3 0.023020
5.76000000 0.008525 -0.02144 0.241200 -0.97013 0.241200 -0.97013 -2.53e-3 0.023039
5.78000000 0.007900 -0.02176 0.236616 -0.97126 0.236616 -0.97126 -3.02e-3 0.023062
5.80000000 0.007268 -0.02208 0.232026 -0.97236 0.232026 -0.97236 -3.51e-3 0.023089
5.82000000 0.006627 -0.02240 0.227428 -0.97345 0.227428 -0.97345 -4.00e-3 0.023121
!< P1 F=5.82 Eeff=(6.22682635 -5.8498e-4) Z0=(67.7479174 0.00317862) R=0.05673778 C=0.04114457 
!< P2 F=5.82 Eeff=(6.22682635 -5.8498e-4) Z0=(67.7479174 0.00317862) R=0.05673778 C=0.04114457 
5.84000000 0.005979 -0.02271 0.222825 -0.97451 0.222825 -0.97451 -4.50e-3 0.023157
5.86000000 0.005323 -0.02302 0.218214 -0.97555 0.218214 -0.97555 -5.01e-3 0.023198
5.88000000 0.004659 -0.02332 0.213598 -0.97656 0.213598 -0.97656 -5.52e-3 0.023243
5.90000000 0.003988 -0.02362 0.208975 -0.97756 0.208975 -0.97756 -6.04e-3 0.023293
5.92000000 0.003308 -0.02391 0.204346 -0.97853 0.204346 -0.97853 -6.56e-3 0.023347
5.94000000 0.002621 -0.02420 0.199711 -0.97948 0.199711 -0.97948 -7.08e-3 0.023406
5.96000000 0.001925 -0.02449 0.195069 -0.98041 0.195069 -0.98041 -7.61e-3 0.023471
5.98000000 0.001222 -0.02477 0.190422 -0.98132 0.190422 -0.98132 -8.15e-3 0.023540
6.00000000 5.115e-4 -0.02505 0.185769 -0.98221 0.185769 -0.98221 -8.69e-3 0.023614
6.02000000 -2.07e-4 -0.02532 0.181111 -0.98307 0.181111 -0.98307 -9.23e-3 0.023693
6.04000000 -9.33e-4 -0.02559 0.176446 -0.98391 0.176446 -0.98391 -9.78e-3 0.023777
6.06000000 -1.67e-3 -0.02585 0.171777 -0.98473 0.171777 -0.98473 -0.01033 0.023867
6.08000000 -2.41e-3 -0.02610 0.167102 -0.98552 0.167102 -0.98552 -0.01089 0.023962
6.10000000 -3.16e-3 -0.02635 0.162421 -0.98629 0.162421 -0.98629 -0.01146 0.024062
6.12000000 -3.92e-3 -0.02660 0.157735 -0.98705 0.157735 -0.98705 -0.01202 0.024168
6.14000000 -4.68e-3 -0.02684 0.153045 -0.98777 0.153045 -0.98777 -0.01260 0.024279
6.16000000 -5.45e-3 -0.02708 0.148349 -0.98848 0.148349 -0.98848 -0.01317 0.024396
6.18000000 -6.23e-3 -0.02731 0.143648 -0.98916 0.143648 -0.98916 -0.01375 0.024518
6.20000000 -7.02e-3 -0.02753 0.138943 -0.98982 0.138943 -0.98982 -0.01434 0.024647
6.22000000 -7.81e-3 -0.02775 0.134233 -0.99046 0.134233 -0.99046 -0.01493 0.024781
6.24000000 -8.62e-3 -0.02796 0.129518 -0.99107 0.129518 -0.99107 -0.01552 0.024920
6.26000000 -9.43e-3 -0.02816 0.124799 -0.99167 0.124799 -0.99167 -0.01612 0.025066
6.28000000 -0.01024 -0.02836 0.120075 -0.99224 0.120075 -0.99224 -0.01672 0.025218
6.30000000 -0.01107 -0.02856 0.115347 -0.99278 0.115347 -0.99278 -0.01733 0.025376
6.32000000 -0.01190 -0.02875 0.110615 -0.99330 0.110615 -0.99330 -0.01794 0.025540
6.34000000 -0.01274 -0.02893 0.105879 -0.99381 0.105879 -0.99381 -0.01856 0.025710
6.36000000 -0.01359 -0.02910 0.101139 -0.99428 0.101139 -0.99428 -0.01917 0.025887
6.38000000 -0.01444 -0.02927 0.096396 -0.99474 0.096396 -0.99474 -0.01980 0.026070
6.40000000 -0.01530 -0.02943 0.091648 -0.99517 0.091648 -0.99517 -0.02042 0.026259
6.42000000 -0.01617 -0.02959 0.086897 -0.99557 0.086897 -0.99557 -0.02106 0.026455
6.44000000 -0.01704 -0.02973 0.082142 -0.99596 0.082142 -0.99596 -0.02169 0.026657
6.46000000 -0.01793 -0.02987 0.077384 -0.99632 0.077384 -0.99632 -0.02233 0.026866
6.48000000 -0.01882 -0.03001 0.072623 -0.99666 0.072623 -0.99666 -0.02297 0.027082
6.50000000 -0.01971 -0.03013 0.067859 -0.99697 0.067859 -0.99697 -0.02362 0.027304
6.52000000 -0.02062 -0.03025 0.063091 -0.99726 0.063091 -0.99726 -0.02427 0.027534
6.54000000 -0.02153 -0.03037 0.058321 -0.99753 0.058321 -0.99753 -0.02492 0.027770
6.56000000 -0.02244 -0.03047 0.053548 -0.99777 0.053548 -0.99777 -0.02558 0.028013
6.58000000 -0.02337 -0.03057 0.048772 -0.99799 0.048772 -0.99799 -0.02624 0.028263
6.60000000 -0.02430 -0.03066 0.043993 -0.99819 0.043993 -0.99819 -0.02690 0.028521
6.62000000 -0.02523 -0.03074 0.039212 -0.99836 0.039212 -0.99836 -0.02757 0.028785
6.64000000 -0.02618 -0.03081 0.034429 -0.99851 0.034429 -0.99851 -0.02824 0.029057
6.66000000 -0.02713 -0.03088 0.029643 -0.99864 0.029643 -0.99864 -0.02891 0.029336
6.68000000 -0.02809 -0.03094 0.024856 -0.99874 0.024856 -0.99874 -0.02959 0.029622
6.70000000 -0.02905 -0.03099 0.020066 -0.99882 0.020066 -0.99882 -0.03027 0.029916
6.72000000 -0.03002 -0.03103 0.015275 -0.99887 0.015275 -0.99887 -0.03095 0.030217
6.74000000 -0.03100 -0.03106 0.010481 -0.99891 0.010481 -0.99891 -0.03164 0.030526
6.76000000 -0.03198 -0.03109 0.005686 -0.99891 0.005686 -0.99891 -0.03233 0.030843
6.78000000 -0.03297 -0.03110 8.899e-4 -0.99890 8.899e-4 -0.99890 -0.03302 0.031167
6.80000000 -0.03396 -0.03111 -3.91e-3 -0.99885 -3.91e-3 -0.99885 -0.03371 0.031499
6.82000000 -0.03496 -0.03111 -8.71e-3 -0.99879 -8.71e-3 -0.99879 -0.03441 0.031838
6.84000000 -0.03597 -0.03110 -0.01351 -0.99870 -0.01351 -0.99870 -0.03511 0.032186
6.86000000 -0.03698 -0.03108 -0.01831 -0.99859 -0.01831 -0.99859 -0.03581 0.032541
6.88000000 -0.03800 -0.03106 -0.02311 -0.99845 -0.02311 -0.99845 -0.03652 0.032905
6.90000000 -0.03903 -0.03102 -0.02791 -0.99829 -0.02791 -0.99829 -0.03723 0.033276
6.92000000 -0.04006 -0.03097 -0.03272 -0.99810 -0.03272 -0.99810 -0.03794 0.033656
6.94000000 -0.04110 -0.03092 -0.03752 -0.99789 -0.03752 -0.99789 -0.03865 0.034043
6.96000000 -0.04214 -0.03086 -0.04233 -0.99766 -0.04233 -0.99766 -0.03936 0.034439
6.98000000 -0.04319 -0.03078 -0.04713 -0.99740 -0.04713 -0.99740 -0.04008 0.034843
7.00000000 -0.04424 -0.03070 -0.05194 -0.99712 -0.05194 -0.99712 -0.04080 0.035256
7.02000000 -0.04530 -0.03061 -0.05674 -0.99681 -0.05674 -0.99681 -0.04152 0.035677
7.04000000 -0.04636 -0.03051 -0.06154 -0.99648 -0.06154 -0.99648 -0.04224 0.036106
7.06000000 -0.04743 -0.03040 -0.06635 -0.99612 -0.06635 -0.99612 -0.04297 0.036544
!< P1 F=7.06 Eeff=(6.25280382 -5.9061e-4) Z0=(67.6359257 0.00318547) R=0.0465584 C=0.04084578 
!< P2 F=7.06 Eeff=(6.25280382 -5.9061e-4) Z0=(67.6359257 0.00318547) R=0.0465584 C=0.04084578 
7.08000000 -0.04851 -0.03028 -0.07115 -0.99574 -0.07115 -0.99574 -0.04369 0.036991
7.10000000 -0.04959 -0.03015 -0.07596 -0.99534 -0.07596 -0.99534 -0.04442 0.037446
7.12000000 -0.05067 -0.03001 -0.08076 -0.99491 -0.08076 -0.99491 -0.04515 0.037910
7.14000000 -0.05176 -0.02985 -0.08556 -0.99446 -0.08556 -0.99446 -0.04588 0.038382
7.16000000 -0.05285 -0.02969 -0.09037 -0.99398 -0.09037 -0.99398 -0.04662 0.038864
7.18000000 -0.05395 -0.02952 -0.09517 -0.99348 -0.09517 -0.99348 -0.04735 0.039354
7.20000000 -0.05506 -0.02934 -0.09997 -0.99295 -0.09997 -0.99295 -0.04809 0.039853
7.22000000 -0.05617 -0.02915 -0.10476 -0.99240 -0.10476 -0.99240 -0.04882 0.040361
7.24000000 -0.05728 -0.02895 -0.10956 -0.99182 -0.10956 -0.99182 -0.04956 0.040878
7.26000000 -0.05840 -0.02873 -0.11436 -0.99122 -0.11436 -0.99122 -0.05030 0.041404
7.28000000 -0.05952 -0.02851 -0.11915 -0.99060 -0.11915 -0.99060 -0.05104 0.041939
7.30000000 -0.06064 -0.02828 -0.12394 -0.98995 -0.12394 -0.98995 -0.05178 0.042483
7.32000000 -0.06177 -0.02803 -0.12873 -0.98927 -0.12873 -0.98927 -0.05252 0.043036
7.34000000 -0.06291 -0.02778 -0.13352 -0.98857 -0.13352 -0.98857 -0.05326 0.043599
7.36000000 -0.06405 -0.02751 -0.13830 -0.98785 -0.13830 -0.98785 -0.05401 0.044170
7.38000000 -0.06519 -0.02723 -0.14309 -0.98710 -0.14309 -0.98710 -0.05475 0.044751
7.40000000 -0.06634 -0.02694 -0.14787 -0.98633 -0.14787 -0.98633 -0.05549 0.045342
7.42000000 -0.06749 -0.02664 -0.15264 -0.98553 -0.15264 -0.98553 -0.05624 0.045941
7.44000000 -0.06864 -0.02633 -0.15742 -0.98471 -0.15742 -0.98471 -0.05698 0.046550
7.46000000 -0.06980 -0.02601 -0.16219 -0.98386 -0.16219 -0.98386 -0.05773 0.047169
7.48000000 -0.07096 -0.02568 -0.16696 -0.98298 -0.16696 -0.98298 -0.05847 0.047797
7.50000000 -0.07212 -0.02533 -0.17173 -0.98209 -0.17173 -0.98209 -0.05922 0.048434
7.52000000 -0.07329 -0.02498 -0.17649 -0.98117 -0.17649 -0.98117 -0.05996 0.049081
7.54000000 -0.07446 -0.02461 -0.18125 -0.98022 -0.18125 -0.98022 -0.06071 0.049737
7.56000000 -0.07563 -0.02423 -0.18600 -0.97925 -0.18600 -0.97925 -0.06145 0.050404
7.58000000 -0.07681 -0.02384 -0.19075 -0.97825 -0.19075 -0.97825 -0.06219 0.051079
7.60000000 -0.07799 -0.02343 -0.19550 -0.97723 -0.19550 -0.97723 -0.06294 0.051765
7.62000000 -0.07917 -0.02302 -0.20024 -0.97618 -0.20024 -0.97618 -0.06368 0.052460
7.64000000 -0.08035 -0.02259 -0.20498 -0.97511 -0.20498 -0.97511 -0.06442 0.053165
7.66000000 -0.08154 -0.02215 -0.20972 -0.97401 -0.20972 -0.97401 -0.06516 0.053880
7.68000000 -0.08273 -0.02170 -0.21445 -0.97289 -0.21445 -0.97289 -0.06590 0.054604
7.70000000 -0.08392 -0.02124 -0.21917 -0.97175 -0.21917 -0.97175 -0.06664 0.055339
7.72000000 -0.08511 -0.02077 -0.22389 -0.97058 -0.22389 -0.97058 -0.06738 0.056083
7.74000000 -0.08631 -0.02028 -0.22861 -0.96938 -0.22861 -0.96938 -0.06812 0.056837
7.76000000 -0.08750 -0.01978 -0.23332 -0.96816 -0.23332 -0.96816 -0.06885 0.057601
7.78000000 -0.08870 -0.01927 -0.23802 -0.96692 -0.23802 -0.96692 -0.06958 0.058375
7.80000000 -0.08990 -0.01875 -0.24272 -0.96565 -0.24272 -0.96565 -0.07032 0.059159
7.82000000 -0.09111 -0.01821 -0.24742 -0.96435 -0.24742 -0.96435 -0.07105 0.059953
7.84000000 -0.09231 -0.01766 -0.25211 -0.96303 -0.25211 -0.96303 -0.07178 0.060757
7.86000000 -0.09352 -0.01710 -0.25679 -0.96169 -0.25679 -0.96169 -0.07250 0.061571
7.88000000 -0.09472 -0.01653 -0.26147 -0.96032 -0.26147 -0.96032 -0.07323 0.062395
7.90000000 -0.09593 -0.01594 -0.26614 -0.95892 -0.26614 -0.95892 -0.07395 0.063229
7.92000000 -0.09714 -0.01534 -0.27080 -0.95750 -0.27080 -0.95750 -0.07467 0.064073
7.94000000 -0.09835 -0.01473 -0.27546 -0.95606 -0.27546 -0.95606 -0.07539 0.064927
7.96000000 -0.09956 -0.01410 -0.28011 -0.95459 -0.28011 -0.95459 -0.07611 0.065791
7.98000000 -0.10077 -0.01347 -0.28475 -0.95310 -0.28475 -0.95310 -0.07682 0.066665
8.00000000 -0.10198 -0.01282 -0.28939 -0.95158 -0.28939 -0.95158 -0.07753 0.067550
!< P1 F=8.0 Eeff=(6.27566121 -5.9552e-4) Z0=(67.5465299 0.00318973) R=0.04092392 C=0.04058517 
!< P2 F=8.0 Eeff=(6.27566121 -5.9552e-4) Z0=(67.5465299 0.00318973) R=0.04092392 C=0.04058517 
