! Sonnet Data File
! From: emgraph Version : 15.53-Lite
! From Emgraph Data: single
! Data File Written: 11/22/2014 17:36:57
!< HDATE 11/22/2014 17:36:13
!< MDATE 11/22/2014 17:36:13
# GHZ S RI R 50.00000
4.00000000 0.014441 0.062454 0.973814 -0.21809 0.973814 -0.21809 0.013561 0.062651
!< P1 F=4.0 Eeff=(6.1975274 -5.7859e-4) Z0=(67.8871587 0.00316838) R=0.08298377 C=0.04148466 
!< P2 F=4.0 Eeff=(6.22170887 -5.7952e-4) Z0=(67.9809773 0.00316567) R=0.23986911 C=0.01455832 
4.02000000 0.014583 0.062740 0.973554 -0.21916 0.973554 -0.21916 0.013694 0.062941
4.04000000 0.014726 0.063027 0.973292 -0.22023 0.973292 -0.22023 0.013827 0.063230
4.06000000 0.014870 0.063313 0.973028 -0.22130 0.973028 -0.22130 0.013962 0.063519
4.08000000 0.015014 0.063598 0.972764 -0.22236 0.972764 -0.22236 0.014096 0.063807
4.10000000 0.015158 0.063883 0.972498 -0.22343 0.972498 -0.22343 0.014231 0.064096
4.12000000 0.015304 0.064168 0.972231 -0.22450 0.972231 -0.22450 0.014367 0.064383
4.14000000 0.015450 0.064452 0.971963 -0.22557 0.971963 -0.22557 0.014504 0.064671
4.16000000 0.015596 0.064736 0.971693 -0.22664 0.971693 -0.22664 0.014641 0.064958
4.18000000 0.015743 0.065020 0.971422 -0.22771 0.971422 -0.22771 0.014778 0.065245
4.20000000 0.015891 0.065303 0.971150 -0.22877 0.971150 -0.22877 0.014917 0.065531
4.22000000 0.016040 0.065585 0.970877 -0.22984 0.970877 -0.22984 0.015055 0.065817
4.24000000 0.016189 0.065868 0.970602 -0.23091 0.970602 -0.23091 0.015195 0.066103
4.26000000 0.016339 0.066150 0.970326 -0.23197 0.970326 -0.23197 0.015335 0.066388
4.28000000 0.016489 0.066431 0.970049 -0.23304 0.970049 -0.23304 0.015475 0.066673
4.30000000 0.016640 0.066712 0.969770 -0.23410 0.969770 -0.23410 0.015616 0.066958
4.32000000 0.016792 0.066993 0.969490 -0.23517 0.969490 -0.23517 0.015758 0.067242
4.34000000 0.016944 0.067273 0.969209 -0.23624 0.969209 -0.23624 0.015900 0.067526
4.36000000 0.017097 0.067553 0.968927 -0.23730 0.968927 -0.23730 0.016043 0.067810
4.38000000 0.017250 0.067832 0.968643 -0.23836 0.968643 -0.23836 0.016187 0.068093
4.40000000 0.017404 0.068111 0.968359 -0.23943 0.968359 -0.23943 0.016331 0.068375
4.42000000 0.017559 0.068390 0.968073 -0.24049 0.968073 -0.24049 0.016475 0.068658
4.44000000 0.017714 0.068668 0.967785 -0.24156 0.967785 -0.24156 0.016621 0.068940
4.46000000 0.017870 0.068946 0.967497 -0.24262 0.967497 -0.24262 0.016766 0.069221
4.48000000 0.018027 0.069223 0.967207 -0.24368 0.967207 -0.24368 0.016913 0.069503
4.50000000 0.018184 0.069500 0.966916 -0.24474 0.966916 -0.24474 0.017059 0.069783
4.52000000 0.018342 0.069777 0.966623 -0.24581 0.966623 -0.24581 0.017207 0.070064
4.54000000 0.018501 0.070053 0.966329 -0.24687 0.966329 -0.24687 0.017355 0.070344
4.56000000 0.018660 0.070329 0.966035 -0.24793 0.966035 -0.24793 0.017504 0.070624
4.58000000 0.018820 0.070604 0.965738 -0.24899 0.965738 -0.24899 0.017653 0.070903
4.60000000 0.018980 0.070879 0.965441 -0.25005 0.965441 -0.25005 0.017803 0.071182
4.62000000 0.019141 0.071153 0.965142 -0.25111 0.965142 -0.25111 0.017953 0.071460
4.64000000 0.019302 0.071427 0.964842 -0.25217 0.964842 -0.25217 0.018104 0.071739
4.66000000 0.019465 0.071700 0.964541 -0.25323 0.964541 -0.25323 0.018255 0.072016
4.68000000 0.019627 0.071974 0.964239 -0.25429 0.964239 -0.25429 0.018407 0.072294
4.70000000 0.019791 0.072246 0.963935 -0.25535 0.963935 -0.25535 0.018560 0.072571
4.72000000 0.019955 0.072518 0.963630 -0.25641 0.963630 -0.25641 0.018713 0.072847
4.74000000 0.020120 0.072790 0.963324 -0.25747 0.963324 -0.25747 0.018867 0.073123
4.76000000 0.020285 0.073061 0.963016 -0.25853 0.963016 -0.25853 0.019021 0.073399
4.78000000 0.020451 0.073332 0.962708 -0.25958 0.962708 -0.25958 0.019176 0.073675
4.80000000 0.020617 0.073603 0.962398 -0.26064 0.962398 -0.26064 0.019331 0.073949
4.82000000 0.020784 0.073873 0.962086 -0.26170 0.962086 -0.26170 0.019487 0.074224
4.84000000 0.020952 0.074142 0.961774 -0.26275 0.961774 -0.26275 0.019643 0.074498
4.86000000 0.021120 0.074411 0.961460 -0.26381 0.961460 -0.26381 0.019801 0.074772
4.88000000 0.021289 0.074680 0.961145 -0.26487 0.961145 -0.26487 0.019958 0.075045
4.90000000 0.021459 0.074948 0.960829 -0.26592 0.960829 -0.26592 0.020116 0.075318
4.92000000 0.021629 0.075216 0.960512 -0.26698 0.960512 -0.26698 0.020275 0.075591
4.94000000 0.021800 0.075483 0.960193 -0.26803 0.960193 -0.26803 0.020434 0.075863
4.96000000 0.021971 0.075750 0.959873 -0.26909 0.959873 -0.26909 0.020594 0.076135
4.98000000 0.022143 0.076016 0.959552 -0.27014 0.959552 -0.27014 0.020754 0.076406
5.00000000 0.022316 0.076282 0.959229 -0.27120 0.959229 -0.27120 0.020915 0.076677
5.02000000 0.022489 0.076548 0.958905 -0.27225 0.958905 -0.27225 0.021077 0.076947
5.04000000 0.022663 0.076813 0.958581 -0.27330 0.958581 -0.27330 0.021239 0.077217
5.06000000 0.022837 0.077077 0.958254 -0.27435 0.958254 -0.27435 0.021401 0.077487
5.08000000 0.023012 0.077341 0.957927 -0.27541 0.957927 -0.27541 0.021565 0.077756
5.10000000 0.023187 0.077605 0.957598 -0.27646 0.957598 -0.27646 0.021728 0.078025
5.12000000 0.023364 0.077868 0.957268 -0.27751 0.957268 -0.27751 0.021892 0.078293
5.14000000 0.023540 0.078131 0.956937 -0.27856 0.956937 -0.27856 0.022057 0.078561
5.16000000 0.023718 0.078393 0.956605 -0.27961 0.956605 -0.27961 0.022222 0.078829
5.18000000 0.023896 0.078655 0.956271 -0.28066 0.956271 -0.28066 0.022388 0.079096
5.20000000 0.024074 0.078916 0.955936 -0.28171 0.955936 -0.28171 0.022555 0.079363
5.22000000 0.024253 0.079177 0.955600 -0.28276 0.955600 -0.28276 0.022721 0.079629
5.24000000 0.024433 0.079437 0.955263 -0.28381 0.955263 -0.28381 0.022889 0.079895
5.26000000 0.024613 0.079697 0.954924 -0.28486 0.954924 -0.28486 0.023057 0.080160
5.28000000 0.024794 0.079956 0.954584 -0.28591 0.954584 -0.28591 0.023225 0.080425
5.30000000 0.024976 0.080215 0.954243 -0.28696 0.954243 -0.28696 0.023394 0.080689
5.32000000 0.025158 0.080473 0.953901 -0.28800 0.953901 -0.28800 0.023564 0.080954
5.34000000 0.025340 0.080731 0.953557 -0.28905 0.953557 -0.28905 0.023734 0.081217
5.36000000 0.025524 0.080988 0.953212 -0.29010 0.953212 -0.29010 0.023905 0.081480
5.38000000 0.025707 0.081245 0.952866 -0.29115 0.952866 -0.29115 0.024076 0.081743
5.40000000 0.025892 0.081502 0.952519 -0.29219 0.952519 -0.29219 0.024248 0.082005
5.42000000 0.026077 0.081758 0.952171 -0.29324 0.952171 -0.29324 0.024420 0.082267
5.44000000 0.026262 0.082013 0.951821 -0.29428 0.951821 -0.29428 0.024593 0.082529
5.46000000 0.026448 0.082268 0.951470 -0.29533 0.951470 -0.29533 0.024766 0.082790
5.48000000 0.026635 0.082523 0.951118 -0.29637 0.951118 -0.29637 0.024940 0.083050
5.50000000 0.026823 0.082777 0.950764 -0.29742 0.950764 -0.29742 0.025114 0.083310
5.52000000 0.027010 0.083030 0.950410 -0.29846 0.950410 -0.29846 0.025289 0.083570
5.54000000 0.027199 0.083283 0.950054 -0.29950 0.950054 -0.29950 0.025464 0.083829
5.56000000 0.027388 0.083535 0.949697 -0.30055 0.949697 -0.30055 0.025640 0.084088
5.58000000 0.027578 0.083787 0.949338 -0.30159 0.949338 -0.30159 0.025817 0.084346
5.60000000 0.027768 0.084039 0.948979 -0.30263 0.948979 -0.30263 0.025993 0.084604
5.62000000 0.027958 0.084290 0.948618 -0.30367 0.948618 -0.30367 0.026171 0.084862
5.64000000 0.028150 0.084540 0.948256 -0.30472 0.948256 -0.30472 0.026349 0.085119
5.66000000 0.028342 0.084790 0.947892 -0.30576 0.947892 -0.30576 0.026527 0.085375
5.68000000 0.028534 0.085040 0.947528 -0.30680 0.947528 -0.30680 0.026706 0.085631
5.70000000 0.028727 0.085289 0.947162 -0.30784 0.947162 -0.30784 0.026886 0.085887
5.72000000 0.028921 0.085537 0.946795 -0.30888 0.946795 -0.30888 0.027066 0.086142
5.74000000 0.029115 0.085785 0.946427 -0.30992 0.946427 -0.30992 0.027246 0.086397
5.76000000 0.029310 0.086032 0.946058 -0.31095 0.946058 -0.31095 0.027427 0.086651
5.78000000 0.029505 0.086279 0.945687 -0.31199 0.945687 -0.31199 0.027609 0.086905
5.80000000 0.029701 0.086525 0.945315 -0.31303 0.945315 -0.31303 0.027791 0.087158
5.82000000 0.029897 0.086771 0.944942 -0.31407 0.944942 -0.31407 0.027974 0.087411
5.84000000 0.030094 0.087017 0.944568 -0.31511 0.944568 -0.31511 0.028157 0.087663
5.86000000 0.030292 0.087261 0.944192 -0.31614 0.944192 -0.31614 0.028340 0.087915
5.88000000 0.030490 0.087506 0.943816 -0.31718 0.943816 -0.31718 0.028524 0.088166
5.90000000 0.030689 0.087749 0.943438 -0.31822 0.943438 -0.31822 0.028709 0.088417
5.92000000 0.030888 0.087993 0.943059 -0.31925 0.943059 -0.31925 0.028894 0.088668
5.94000000 0.031088 0.088235 0.942678 -0.32029 0.942678 -0.32029 0.029080 0.088918
5.96000000 0.031288 0.088478 0.942297 -0.32132 0.942297 -0.32132 0.029266 0.089167
5.98000000 0.031489 0.088719 0.941914 -0.32236 0.941914 -0.32236 0.029452 0.089417
6.00000000 0.031690 0.088960 0.941530 -0.32339 0.941530 -0.32339 0.029639 0.089665
!< P1 F=6.0 Eeff=(6.23029829 -5.8574e-4) Z0=(67.7323192 0.00317966) R=0.05500172 C=0.04110448 
!< P2 F=6.0 Eeff=(6.24829615 -5.8539e-4) Z0=(67.8629775 0.00317663) R=0.15931278 C=0.01450957 
6.02000000 0.031892 0.089201 0.941145 -0.32442 0.941145 -0.32442 0.029827 0.089913
6.04000000 0.032095 0.089441 0.940758 -0.32546 0.940758 -0.32546 0.030015 0.090161
6.06000000 0.032298 0.089680 0.940370 -0.32649 0.940370 -0.32649 0.030203 0.090408
6.08000000 0.032502 0.089919 0.939981 -0.32752 0.939981 -0.32752 0.030392 0.090655
6.10000000 0.032706 0.090158 0.939591 -0.32855 0.939591 -0.32855 0.030582 0.090901
6.12000000 0.032911 0.090396 0.939200 -0.32958 0.939200 -0.32958 0.030772 0.091147
6.14000000 0.033116 0.090633 0.938808 -0.33061 0.938808 -0.33061 0.030962 0.091392
6.16000000 0.033322 0.090870 0.938414 -0.33164 0.938414 -0.33164 0.031153 0.091637
6.18000000 0.033528 0.091106 0.938019 -0.33267 0.938019 -0.33267 0.031345 0.091881
6.20000000 0.033735 0.091342 0.937623 -0.33370 0.937623 -0.33370 0.031537 0.092125
6.22000000 0.033942 0.091577 0.937225 -0.33473 0.937225 -0.33473 0.031729 0.092368
6.24000000 0.034150 0.091812 0.936827 -0.33576 0.936827 -0.33576 0.031922 0.092611
6.26000000 0.034359 0.092046 0.936427 -0.33679 0.936427 -0.33679 0.032116 0.092853
6.28000000 0.034568 0.092279 0.936026 -0.33782 0.936026 -0.33782 0.032310 0.093095
6.30000000 0.034778 0.092512 0.935624 -0.33885 0.935624 -0.33885 0.032504 0.093336
6.32000000 0.034988 0.092745 0.935220 -0.33987 0.935220 -0.33987 0.032699 0.093577
6.34000000 0.035198 0.092977 0.934816 -0.34090 0.934816 -0.34090 0.032894 0.093818
6.36000000 0.035409 0.093208 0.934410 -0.34192 0.934410 -0.34192 0.033090 0.094057
6.38000000 0.035621 0.093439 0.934003 -0.34295 0.934003 -0.34295 0.033286 0.094297
6.40000000 0.035833 0.093669 0.933594 -0.34397 0.933594 -0.34397 0.033483 0.094536
6.42000000 0.036046 0.093899 0.933185 -0.34500 0.933185 -0.34500 0.033680 0.094774
6.44000000 0.036260 0.094128 0.932774 -0.34602 0.932774 -0.34602 0.033878 0.095012
6.46000000 0.036473 0.094356 0.932362 -0.34705 0.932362 -0.34705 0.034076 0.095249
6.48000000 0.036688 0.094584 0.931949 -0.34807 0.931949 -0.34807 0.034274 0.095486
6.50000000 0.036903 0.094811 0.931535 -0.34909 0.931535 -0.34909 0.034473 0.095722
6.52000000 0.037118 0.095038 0.931120 -0.35012 0.931120 -0.35012 0.034673 0.095958
6.54000000 0.037334 0.095265 0.930703 -0.35114 0.930703 -0.35114 0.034873 0.096194
6.56000000 0.037550 0.095490 0.930285 -0.35216 0.930285 -0.35216 0.035073 0.096429
6.58000000 0.037767 0.095715 0.929866 -0.35318 0.929866 -0.35318 0.035274 0.096663
6.60000000 0.037985 0.095940 0.929446 -0.35420 0.929446 -0.35420 0.035476 0.096897
6.62000000 0.038203 0.096164 0.929024 -0.35522 0.929024 -0.35522 0.035678 0.097130
6.64000000 0.038421 0.096387 0.928602 -0.35624 0.928602 -0.35624 0.035880 0.097363
6.66000000 0.038640 0.096610 0.928178 -0.35726 0.928178 -0.35726 0.036083 0.097595
6.68000000 0.038860 0.096832 0.927753 -0.35828 0.927753 -0.35828 0.036286 0.097827
6.70000000 0.039080 0.097054 0.927326 -0.35929 0.927326 -0.35929 0.036489 0.098058
6.72000000 0.039300 0.097275 0.926899 -0.36031 0.926899 -0.36031 0.036694 0.098289
6.74000000 0.039521 0.097496 0.926470 -0.36133 0.926470 -0.36133 0.036898 0.098519
6.76000000 0.039743 0.097715 0.926040 -0.36235 0.926040 -0.36235 0.037103 0.098749
6.78000000 0.039965 0.097935 0.925609 -0.36336 0.925609 -0.36336 0.037309 0.098978
6.80000000 0.040188 0.098154 0.925177 -0.36438 0.925177 -0.36438 0.037514 0.099207
6.82000000 0.040411 0.098372 0.924744 -0.36539 0.924744 -0.36539 0.037721 0.099435
6.84000000 0.040634 0.098589 0.924309 -0.36641 0.924309 -0.36641 0.037928 0.099663
6.86000000 0.040858 0.098806 0.923873 -0.36742 0.923873 -0.36742 0.038135 0.099890
6.88000000 0.041083 0.099023 0.923436 -0.36844 0.923436 -0.36844 0.038343 0.100117
6.90000000 0.041308 0.099238 0.922998 -0.36945 0.922998 -0.36945 0.038551 0.100343
6.92000000 0.041534 0.099454 0.922559 -0.37046 0.922559 -0.37046 0.038759 0.100568
6.94000000 0.041760 0.099668 0.922118 -0.37147 0.922118 -0.37147 0.038968 0.100793
6.96000000 0.041986 0.099882 0.921676 -0.37249 0.921676 -0.37249 0.039178 0.101018
6.98000000 0.042213 0.100096 0.921233 -0.37350 0.921233 -0.37350 0.039387 0.101242
7.00000000 0.042441 0.100309 0.920789 -0.37451 0.920789 -0.37451 0.039598 0.101466
7.02000000 0.042669 0.100521 0.920344 -0.37552 0.920344 -0.37552 0.039808 0.101689
7.04000000 0.042897 0.100732 0.919897 -0.37653 0.919897 -0.37653 0.040020 0.101911
7.06000000 0.043126 0.100943 0.919450 -0.37754 0.919450 -0.37754 0.040231 0.102133
7.08000000 0.043356 0.101154 0.919001 -0.37855 0.919001 -0.37855 0.040443 0.102354
7.10000000 0.043586 0.101364 0.918551 -0.37956 0.918551 -0.37956 0.040656 0.102575
7.12000000 0.043816 0.101573 0.918100 -0.38056 0.918100 -0.38056 0.040868 0.102795
7.14000000 0.044047 0.101782 0.917647 -0.38157 0.917647 -0.38157 0.041082 0.103015
7.16000000 0.044279 0.101990 0.917193 -0.38258 0.917193 -0.38258 0.041295 0.103234
!< P1 F=7.16 Eeff=(6.25510708 -5.911e-4) Z0=(67.626526 0.00318597) R=0.04588946 C=0.04081942 
!< P2 F=7.16 Eeff=(6.26858794 -5.8986e-4) Z0=(67.778768 0.00318386) R=0.13311304 C=0.01447263 
7.18000000 0.044510 0.102197 0.916739 -0.38358 0.916739 -0.38358 0.041510 0.103453
7.20000000 0.044743 0.102404 0.916283 -0.38459 0.916283 -0.38459 0.041724 0.103671
7.22000000 0.044976 0.102610 0.915826 -0.38560 0.915826 -0.38560 0.041939 0.103889
7.24000000 0.045209 0.102815 0.915367 -0.38660 0.915367 -0.38660 0.042154 0.104106
7.26000000 0.045443 0.103020 0.914908 -0.38761 0.914908 -0.38761 0.042370 0.104323
7.28000000 0.045677 0.103225 0.914447 -0.38861 0.914447 -0.38861 0.042586 0.104539
7.30000000 0.045912 0.103428 0.913985 -0.38961 0.913985 -0.38961 0.042803 0.104754
7.32000000 0.046147 0.103632 0.913522 -0.39062 0.913522 -0.39062 0.043020 0.104969
7.34000000 0.046383 0.103834 0.913058 -0.39162 0.913058 -0.39162 0.043238 0.105183
7.36000000 0.046619 0.104036 0.912592 -0.39262 0.912592 -0.39262 0.043455 0.105397
7.38000000 0.046855 0.104237 0.912126 -0.39362 0.912126 -0.39362 0.043674 0.105611
7.40000000 0.047092 0.104438 0.911658 -0.39462 0.911658 -0.39462 0.043892 0.105823
7.42000000 0.047330 0.104638 0.911189 -0.39562 0.911189 -0.39562 0.044111 0.106036
7.44000000 0.047568 0.104837 0.910719 -0.39662 0.910719 -0.39662 0.044331 0.106247
7.46000000 0.047806 0.105036 0.910248 -0.39762 0.910248 -0.39762 0.044551 0.106458
7.48000000 0.048045 0.105234 0.909775 -0.39862 0.909775 -0.39862 0.044771 0.106669
7.50000000 0.048285 0.105431 0.909301 -0.39962 0.909301 -0.39962 0.044992 0.106879
7.52000000 0.048524 0.105628 0.908827 -0.40062 0.908827 -0.40062 0.045213 0.107088
7.54000000 0.048765 0.105824 0.908351 -0.40161 0.908351 -0.40161 0.045434 0.107297
7.56000000 0.049005 0.106020 0.907874 -0.40261 0.907874 -0.40261 0.045656 0.107506
7.58000000 0.049246 0.106215 0.907395 -0.40361 0.907395 -0.40361 0.045878 0.107713
7.60000000 0.049488 0.106409 0.906916 -0.40460 0.906916 -0.40460 0.046101 0.107921
7.62000000 0.049730 0.106603 0.906435 -0.40560 0.906435 -0.40560 0.046324 0.108127
7.64000000 0.049973 0.106796 0.905953 -0.40659 0.905953 -0.40659 0.046547 0.108334
7.66000000 0.050216 0.106988 0.905470 -0.40759 0.905470 -0.40759 0.046771 0.108539
7.68000000 0.050459 0.107180 0.904986 -0.40858 0.904986 -0.40858 0.046995 0.108744
7.70000000 0.050703 0.107371 0.904501 -0.40957 0.904501 -0.40957 0.047220 0.108949
7.72000000 0.050947 0.107562 0.904014 -0.41056 0.904014 -0.41056 0.047445 0.109153
7.74000000 0.051192 0.107752 0.903526 -0.41156 0.903526 -0.41156 0.047670 0.109356
7.76000000 0.051437 0.107941 0.903038 -0.41255 0.903038 -0.41255 0.047896 0.109559
7.78000000 0.051682 0.108129 0.902548 -0.41354 0.902548 -0.41354 0.048122 0.109761
7.80000000 0.051928 0.108317 0.902056 -0.41453 0.902056 -0.41453 0.048349 0.109963
7.82000000 0.052175 0.108505 0.901564 -0.41552 0.901564 -0.41552 0.048576 0.110164
7.84000000 0.052422 0.108691 0.901071 -0.41651 0.901071 -0.41651 0.048803 0.110364
7.86000000 0.052669 0.108877 0.900576 -0.41750 0.900576 -0.41750 0.049030 0.110564
7.88000000 0.052917 0.109063 0.900080 -0.41849 0.900080 -0.41849 0.049258 0.110764
7.90000000 0.053165 0.109247 0.899583 -0.41947 0.899583 -0.41947 0.049487 0.110963
7.92000000 0.053413 0.109431 0.899085 -0.42046 0.899085 -0.42046 0.049715 0.111161
7.94000000 0.053662 0.109615 0.898586 -0.42145 0.898586 -0.42145 0.049945 0.111359
7.96000000 0.053912 0.109797 0.898085 -0.42243 0.898085 -0.42243 0.050174 0.111556
7.98000000 0.054162 0.109979 0.897584 -0.42342 0.897584 -0.42342 0.050404 0.111753
8.00000000 0.054412 0.110161 0.897081 -0.42440 0.897081 -0.42440 0.050634 0.111949
!< P1 F=8.0 Eeff=(6.27566121 -5.9552e-4) Z0=(67.5465299 0.00318973) R=0.04092392 C=0.04058517 
!< P2 F=8.0 Eeff=(6.28551254 -5.9358e-4) Z0=(67.7124473 0.00318916) R=0.11884272 C=0.01444202 
